                     diode i-v characteristic and band gap
                     DC transfer characteristic  Wed Aug 10 19:45:34  2022
--------------------------------------------------------------------------------
Index   v-sweep         v(8)            i(vblue)        
--------------------------------------------------------------------------------
0	1.000000e-02	1.000000e-02	1.000000e-14	
1	1.500000e-02	1.500000e-02	1.499999e-14	
2	2.000000e-02	2.000000e-02	2.000001e-14	
3	2.500000e-02	2.500000e-02	2.500002e-14	
4	3.000000e-02	3.000000e-02	3.000004e-14	
5	3.500000e-02	3.500000e-02	3.500000e-14	
6	4.000000e-02	4.000000e-02	4.000001e-14	
7	4.500000e-02	4.500000e-02	4.500003e-14	
8	5.000000e-02	5.000000e-02	5.000004e-14	
9	5.500000e-02	5.500000e-02	5.500006e-14	
10	6.000000e-02	6.000000e-02	5.999997e-14	
11	6.500000e-02	6.500000e-02	6.500009e-14	
12	7.000000e-02	7.000000e-02	7.000000e-14	
13	7.500000e-02	7.500000e-02	7.500001e-14	
14	8.000000e-02	8.000000e-02	8.000003e-14	
15	8.500000e-02	8.500000e-02	8.500004e-14	
16	9.000000e-02	9.000000e-02	8.999995e-14	
17	9.500000e-02	9.500000e-02	9.499985e-14	
18	1.000000e-01	1.000000e-01	1.000001e-13	
19	1.050000e-01	1.050000e-01	1.050000e-13	
20	1.100000e-01	1.100000e-01	1.100001e-13	
21	1.150000e-01	1.150000e-01	1.149998e-13	
22	1.200000e-01	1.200000e-01	1.199999e-13	
23	1.250000e-01	1.250000e-01	1.249998e-13	
24	1.300000e-01	1.300000e-01	1.300000e-13	
25	1.350000e-01	1.350000e-01	1.349999e-13	
26	1.400000e-01	1.400000e-01	1.400000e-13	
27	1.450000e-01	1.450000e-01	1.449999e-13	
28	1.500000e-01	1.500000e-01	1.500000e-13	
29	1.550000e-01	1.550000e-01	1.549997e-13	
30	1.600000e-01	1.600000e-01	1.599996e-13	
31	1.650000e-01	1.650000e-01	1.649997e-13	
32	1.700000e-01	1.700000e-01	1.699996e-13	
33	1.750000e-01	1.750000e-01	1.749993e-13	
34	1.800000e-01	1.800000e-01	1.799995e-13	
35	1.850000e-01	1.850000e-01	1.849994e-13	
36	1.900000e-01	1.900000e-01	1.899993e-13	
37	1.950000e-01	1.950000e-01	1.949994e-13	
38	2.000000e-01	2.000000e-01	1.999993e-13	
39	2.050000e-01	2.050000e-01	2.049988e-13	
40	2.100000e-01	2.100000e-01	2.099987e-13	
41	2.150000e-01	2.150000e-01	2.149986e-13	
42	2.200000e-01	2.200000e-01	2.199989e-13	
43	2.250000e-01	2.250000e-01	2.249984e-13	
44	2.300000e-01	2.300000e-01	2.299983e-13	
45	2.350000e-01	2.350000e-01	2.349978e-13	
46	2.400000e-01	2.400000e-01	2.400046e-13	
47	2.450000e-01	2.450000e-01	2.450041e-13	
48	2.500000e-01	2.500000e-01	2.500044e-13	
49	2.550000e-01	2.550000e-01	2.550044e-13	
50	2.600000e-01	2.600000e-01	2.600038e-13	
51	2.650000e-01	2.650000e-01	2.650037e-13	
52	2.700000e-01	2.700000e-01	2.700032e-13	
53	2.750000e-01	2.750000e-01	2.750031e-13	
54	2.800000e-01	2.800000e-01	2.800026e-13	

Index   v-sweep         v(8)            i(vblue)        
--------------------------------------------------------------------------------
55	2.850000e-01	2.850000e-01	2.850025e-13	
56	2.900000e-01	2.900000e-01	2.900020e-13	
57	2.950000e-01	2.950000e-01	2.950019e-13	
58	3.000000e-01	3.000000e-01	3.000009e-13	
59	3.050000e-01	3.050000e-01	3.050004e-13	
60	3.100000e-01	3.100000e-01	3.099999e-13	
61	3.150000e-01	3.150000e-01	3.149993e-13	
62	3.200000e-01	3.200000e-01	3.200023e-13	
63	3.250000e-01	3.250000e-01	3.250017e-13	
64	3.300000e-01	3.300000e-01	3.300008e-13	
65	3.350000e-01	3.350000e-01	3.349998e-13	
66	3.400000e-01	3.400000e-01	3.399984e-13	
67	3.450000e-01	3.450000e-01	3.449975e-13	
68	3.500000e-01	3.500000e-01	3.499956e-13	
69	3.550000e-01	3.550000e-01	3.550047e-13	
70	3.600000e-01	3.600000e-01	3.600033e-13	
71	3.650000e-01	3.650000e-01	3.650014e-13	
72	3.700000e-01	3.700000e-01	3.699996e-13	
73	3.750000e-01	3.750000e-01	3.749973e-13	
74	3.800000e-01	3.800000e-01	3.800046e-13	
75	3.850000e-01	3.850000e-01	3.850024e-13	
76	3.900000e-01	3.900000e-01	3.899997e-13	
77	3.950000e-01	3.950000e-01	3.950078e-13	
78	4.000000e-01	4.000000e-01	4.000055e-13	
79	4.050000e-01	4.050000e-01	4.050016e-13	
80	4.100000e-01	4.100000e-01	4.100080e-13	
81	4.150000e-01	4.150000e-01	4.150040e-13	
82	4.200000e-01	4.200000e-01	4.200121e-13	
83	4.250000e-01	4.250000e-01	4.250073e-13	
84	4.300000e-01	4.300000e-01	4.300128e-13	
85	4.350000e-01	4.350000e-01	4.350062e-13	
86	4.400000e-01	4.400000e-01	4.400117e-13	
87	4.450000e-01	4.450000e-01	4.450173e-13	
88	4.500000e-01	4.500000e-01	4.500098e-13	
89	4.550000e-01	4.550000e-01	4.550145e-13	
90	4.600000e-01	4.600000e-01	4.600174e-13	
91	4.650000e-01	4.650000e-01	4.650204e-13	
92	4.700000e-01	4.700000e-01	4.700233e-13	
93	4.750000e-01	4.750000e-01	4.750237e-13	
94	4.800000e-01	4.800000e-01	4.800249e-13	
95	4.850000e-01	4.850000e-01	4.850374e-13	
96	4.900000e-01	4.900000e-01	4.900360e-13	
97	4.950000e-01	4.950000e-01	4.950328e-13	
98	5.000000e-01	5.000000e-01	5.000358e-13	
99	5.050000e-01	5.050000e-01	5.050439e-13	
100	5.100000e-01	5.100000e-01	5.100365e-13	
101	5.150000e-01	5.150000e-01	5.150559e-13	
102	5.200000e-01	5.200000e-01	5.200588e-13	
103	5.250000e-01	5.250000e-01	5.250548e-13	
104	5.300000e-01	5.300000e-01	5.300534e-13	
105	5.350000e-01	5.350000e-01	5.350642e-13	
106	5.400000e-01	5.400000e-01	5.400593e-13	
107	5.450000e-01	5.450000e-01	5.450813e-13	
108	5.500000e-01	5.500000e-01	5.500860e-13	
109	5.550000e-01	5.550000e-01	5.550855e-13	
110	5.600000e-01	5.600000e-01	5.600902e-13	
111	5.650000e-01	5.650000e-01	5.650992e-13	
112	5.700000e-01	5.700000e-01	5.701117e-13	

Index   v-sweep         v(8)            i(vblue)        
--------------------------------------------------------------------------------
113	5.750000e-01	5.750000e-01	5.751111e-13	
114	5.800000e-01	5.800000e-01	5.801392e-13	
115	5.850000e-01	5.850000e-01	5.851448e-13	
116	5.900000e-01	5.900000e-01	5.901364e-13	
117	5.950000e-01	5.950000e-01	5.951559e-13	
118	6.000000e-01	6.000000e-01	6.001753e-13	
119	6.050000e-01	6.050000e-01	6.051878e-13	
120	6.100000e-01	6.100000e-01	6.102011e-13	
121	6.150000e-01	6.150000e-01	6.152058e-13	
122	6.200000e-01	6.200000e-01	6.202443e-13	
123	6.250000e-01	6.250000e-01	6.252464e-13	
124	6.300000e-01	6.300000e-01	6.302710e-13	
125	6.350000e-01	6.350000e-01	6.352922e-13	
126	6.400000e-01	6.400000e-01	6.403099e-13	
127	6.450000e-01	6.450000e-01	6.453319e-13	
128	6.500000e-01	6.500000e-01	6.503747e-13	
129	6.550000e-01	6.550000e-01	6.554002e-13	
130	6.600000e-01	6.600000e-01	6.604240e-13	
131	6.650000e-01	6.650000e-01	6.654495e-13	
132	6.700000e-01	6.700000e-01	6.704784e-13	
133	6.750000e-01	6.750000e-01	6.755334e-13	
134	6.800000e-01	6.800000e-01	6.805511e-13	
135	6.850000e-01	6.850000e-01	6.856096e-13	
136	6.900000e-01	6.900000e-01	6.906472e-13	
137	6.950000e-01	6.950000e-01	6.957109e-13	
138	7.000000e-01	7.000000e-01	7.007580e-13	
139	7.050000e-01	7.050000e-01	7.058078e-13	
140	7.100000e-01	7.100000e-01	7.108654e-13	
141	7.150000e-01	7.150000e-01	7.159464e-13	
142	7.200000e-01	7.200000e-01	7.210083e-13	
143	7.250000e-01	7.250000e-01	7.260989e-13	
144	7.300000e-01	7.300000e-01	7.311747e-13	
145	7.350000e-01	7.350000e-01	7.362687e-13	
146	7.400000e-01	7.400000e-01	7.413679e-13	
147	7.450000e-01	7.450000e-01	7.464784e-13	
148	7.500000e-01	7.500000e-01	7.515715e-13	
149	7.550000e-01	7.550000e-01	7.566942e-13	
150	7.600000e-01	7.600000e-01	7.618298e-13	
151	7.650000e-01	7.650000e-01	7.669611e-13	
152	7.700000e-01	7.700000e-01	7.721115e-13	
153	7.750000e-01	7.750000e-01	7.772741e-13	
154	7.800000e-01	7.800000e-01	7.824392e-13	
155	7.850000e-01	7.850000e-01	7.876286e-13	
156	7.900000e-01	7.900000e-01	7.928432e-13	
157	7.950000e-01	7.950000e-01	7.980509e-13	
158	8.000000e-01	8.000000e-01	8.032828e-13	
159	8.050000e-01	8.050000e-01	8.085234e-13	
160	8.100000e-01	8.100000e-01	8.137952e-13	
161	8.150000e-01	8.150000e-01	8.190722e-13	
162	8.200000e-01	8.200000e-01	8.243978e-13	
163	8.250000e-01	8.250000e-01	8.297391e-13	
164	8.300000e-01	8.300000e-01	8.350941e-13	
165	8.350000e-01	8.350000e-01	8.404805e-13	
166	8.400000e-01	8.400000e-01	8.458928e-13	
167	8.450000e-01	8.450000e-01	8.513312e-13	
168	8.500000e-01	8.500000e-01	8.568285e-13	
169	8.550000e-01	8.550000e-01	8.623397e-13	
170	8.600000e-01	8.600000e-01	8.679168e-13	

Index   v-sweep         v(8)            i(vblue)        
--------------------------------------------------------------------------------
171	8.650000e-01	8.650000e-01	8.735027e-13	
172	8.700000e-01	8.700000e-01	8.791579e-13	
173	8.750000e-01	8.750000e-01	8.848460e-13	
174	8.800000e-01	8.800000e-01	8.906036e-13	
175	8.850000e-01	8.850000e-01	8.964149e-13	
176	8.900000e-01	8.900000e-01	9.022661e-13	
177	8.950000e-01	8.950000e-01	9.081989e-13	
178	9.000000e-01	9.000000e-01	9.142184e-13	
179	9.050000e-01	9.050000e-01	9.203159e-13	
180	9.100000e-01	9.100000e-01	9.264724e-13	
181	9.150000e-01	9.150000e-01	9.327279e-13	
182	9.200000e-01	9.200000e-01	9.390561e-13	
183	9.250000e-01	9.250000e-01	9.455249e-13	
184	9.300000e-01	9.300000e-01	9.520596e-13	
185	9.350000e-01	9.350000e-01	9.587262e-13	
186	9.400000e-01	9.400000e-01	9.655488e-13	
187	9.450000e-01	9.450000e-01	9.725085e-13	
188	9.500000e-01	9.500000e-01	9.796018e-13	
189	9.550000e-01	9.550000e-01	9.868304e-13	
190	9.600000e-01	9.600000e-01	9.942498e-13	
191	9.650000e-01	9.650000e-01	1.001862e-12	
192	9.700000e-01	9.700000e-01	1.009658e-12	
193	9.750000e-01	9.750000e-01	1.017677e-12	
194	9.800000e-01	9.800000e-01	1.025926e-12	
195	9.850000e-01	9.850000e-01	1.034429e-12	
196	9.900000e-01	9.900000e-01	1.043164e-12	
197	9.950000e-01	9.950000e-01	1.052217e-12	
198	1.000000e+00	1.000000e+00	1.061557e-12	
199	1.005000e+00	1.005000e+00	1.071251e-12	
200	1.010000e+00	1.010000e+00	1.081262e-12	
201	1.015000e+00	1.015000e+00	1.091708e-12	
202	1.020000e+00	1.020000e+00	1.102517e-12	
203	1.025000e+00	1.025000e+00	1.113788e-12	
204	1.030000e+00	1.030000e+00	1.125561e-12	
205	1.035000e+00	1.035000e+00	1.137835e-12	
206	1.040000e+00	1.040000e+00	1.150644e-12	
207	1.045000e+00	1.045000e+00	1.164036e-12	
208	1.050000e+00	1.050000e+00	1.178103e-12	
209	1.055000e+00	1.055000e+00	1.192850e-12	
210	1.060000e+00	1.060000e+00	1.208325e-12	
211	1.065000e+00	1.065000e+00	1.224602e-12	
212	1.070000e+00	1.070000e+00	1.241748e-12	
213	1.075000e+00	1.075000e+00	1.259796e-12	
214	1.080000e+00	1.080000e+00	1.278849e-12	
215	1.085000e+00	1.085000e+00	1.298966e-12	
216	1.090000e+00	1.090000e+00	1.320227e-12	
217	1.095000e+00	1.095000e+00	1.342733e-12	
218	1.100000e+00	1.100000e+00	1.366568e-12	
219	1.105000e+00	1.105000e+00	1.391836e-12	
220	1.110000e+00	1.110000e+00	1.418638e-12	
221	1.115000e+00	1.115000e+00	1.447132e-12	
222	1.120000e+00	1.120000e+00	1.477365e-12	
223	1.125000e+00	1.125000e+00	1.509529e-12	
224	1.130000e+00	1.130000e+00	1.543753e-12	
225	1.135000e+00	1.135000e+00	1.580227e-12	
226	1.140000e+00	1.140000e+00	1.619073e-12	
227	1.145000e+00	1.145000e+00	1.660495e-12	
228	1.150000e+00	1.150000e+00	1.704683e-12	

Index   v-sweep         v(8)            i(vblue)        
--------------------------------------------------------------------------------
229	1.155000e+00	1.155000e+00	1.751856e-12	
230	1.160000e+00	1.160000e+00	1.802241e-12	
231	1.165000e+00	1.165000e+00	1.856057e-12	
232	1.170000e+00	1.170000e+00	1.913612e-12	
233	1.175000e+00	1.175000e+00	1.975146e-12	
234	1.180000e+00	1.180000e+00	2.040994e-12	
235	1.185000e+00	1.185000e+00	2.111419e-12	
236	1.190000e+00	1.190000e+00	2.186864e-12	
237	1.195000e+00	1.195000e+00	2.267634e-12	
238	1.200000e+00	1.200000e+00	2.354185e-12	
239	1.205000e+00	1.205000e+00	2.446930e-12	
240	1.210000e+00	1.210000e+00	2.546380e-12	
241	1.215000e+00	1.215000e+00	2.652994e-12	
242	1.220000e+00	1.220000e+00	2.767281e-12	
243	1.225000e+00	1.225000e+00	2.889942e-12	
244	1.230000e+00	1.230000e+00	3.021517e-12	
245	1.235000e+00	1.235000e+00	3.162746e-12	
246	1.240000e+00	1.240000e+00	3.314302e-12	
247	1.245000e+00	1.245000e+00	3.477012e-12	
248	1.250000e+00	1.250000e+00	3.651668e-12	
249	1.255000e+00	1.255000e+00	3.839287e-12	
250	1.260000e+00	1.260000e+00	4.040769e-12	
251	1.265000e+00	1.265000e+00	4.257142e-12	
252	1.270000e+00	1.270000e+00	4.489648e-12	
253	1.275000e+00	1.275000e+00	4.739454e-12	
254	1.280000e+00	1.280000e+00	5.007807e-12	
255	1.285000e+00	1.285000e+00	5.296251e-12	
256	1.290000e+00	1.290000e+00	5.606200e-12	
257	1.295000e+00	1.295000e+00	5.939353e-12	
258	1.300000e+00	1.300000e+00	6.297443e-12	
259	1.305000e+00	1.305000e+00	6.682387e-12	
260	1.310000e+00	1.310000e+00	7.096186e-12	
261	1.315000e+00	1.315000e+00	7.541122e-12	
262	1.320000e+00	1.320000e+00	8.019458e-12	
263	1.325000e+00	1.325000e+00	8.533832e-12	
264	1.330000e+00	1.330000e+00	9.086894e-12	
265	1.335000e+00	1.335000e+00	9.681610e-12	
266	1.340000e+00	1.340000e+00	1.032120e-11	
267	1.345000e+00	1.345000e+00	1.100902e-11	
268	1.350000e+00	1.350000e+00	1.174870e-11	
269	1.355000e+00	1.355000e+00	1.254431e-11	
270	1.360000e+00	1.360000e+00	1.339998e-11	
271	1.365000e+00	1.365000e+00	1.432036e-11	
272	1.370000e+00	1.370000e+00	1.531034e-11	
273	1.375000e+00	1.375000e+00	1.637515e-11	
274	1.380000e+00	1.380000e+00	1.752057e-11	
275	1.385000e+00	1.385000e+00	1.875269e-11	
276	1.390000e+00	1.390000e+00	2.007813e-11	
277	1.395000e+00	1.395000e+00	2.150390e-11	
278	1.400000e+00	1.400000e+00	2.303774e-11	
279	1.405000e+00	1.405000e+00	2.468780e-11	
280	1.410000e+00	1.410000e+00	2.646293e-11	
281	1.415000e+00	1.415000e+00	2.837263e-11	
282	1.420000e+00	1.420000e+00	3.042711e-11	
283	1.425000e+00	1.425000e+00	3.263745e-11	
284	1.430000e+00	1.430000e+00	3.501545e-11	
285	1.435000e+00	1.435000e+00	3.757388e-11	
286	1.440000e+00	1.440000e+00	4.032639e-11	

Index   v-sweep         v(8)            i(vblue)        
--------------------------------------------------------------------------------
287	1.445000e+00	1.445000e+00	4.328781e-11	
288	1.450000e+00	1.450000e+00	4.647398e-11	
289	1.455000e+00	1.455000e+00	4.990203e-11	
290	1.460000e+00	1.460000e+00	5.359032e-11	
291	1.465000e+00	1.465000e+00	5.755862e-11	
292	1.470000e+00	1.470000e+00	6.182828e-11	
293	1.475000e+00	1.475000e+00	6.642211e-11	
294	1.480000e+00	1.480000e+00	7.136487e-11	
295	1.485000e+00	1.485000e+00	7.668300e-11	
296	1.490000e+00	1.490000e+00	8.240511e-11	
297	1.495000e+00	1.495000e+00	8.856184e-11	
298	1.500000e+00	1.500000e+00	9.518628e-11	
299	1.505000e+00	1.505000e+00	1.023140e-10	
300	1.510000e+00	1.510000e+00	1.099832e-10	
301	1.515000e+00	1.515000e+00	1.182351e-10	
302	1.520000e+00	1.520000e+00	1.271139e-10	
303	1.525000e+00	1.525000e+00	1.366675e-10	
304	1.530000e+00	1.530000e+00	1.469469e-10	
305	1.535000e+00	1.535000e+00	1.580075e-10	
306	1.540000e+00	1.540000e+00	1.699087e-10	
307	1.545000e+00	1.545000e+00	1.827143e-10	
308	1.550000e+00	1.550000e+00	1.964931e-10	
309	1.555000e+00	1.555000e+00	2.113190e-10	
310	1.560000e+00	1.560000e+00	2.272717e-10	
311	1.565000e+00	1.565000e+00	2.444369e-10	
312	1.570000e+00	1.570000e+00	2.629068e-10	
313	1.575000e+00	1.575000e+00	2.827804e-10	
314	1.580000e+00	1.580000e+00	3.041646e-10	
315	1.585000e+00	1.585000e+00	3.271742e-10	
316	1.590000e+00	1.590000e+00	3.519328e-10	
317	1.595000e+00	1.595000e+00	3.785733e-10	
318	1.600000e+00	1.600000e+00	4.072389e-10	
319	1.605000e+00	1.605000e+00	4.380834e-10	
320	1.610000e+00	1.610000e+00	4.712725e-10	
321	1.615000e+00	1.615000e+00	5.069845e-10	
322	1.620000e+00	1.620000e+00	5.454113e-10	
323	1.625000e+00	1.625000e+00	5.867591e-10	
324	1.630000e+00	1.630000e+00	6.312500e-10	
325	1.635000e+00	1.635000e+00	6.791232e-10	
326	1.640000e+00	1.640000e+00	7.306355e-10	
327	1.645000e+00	1.645000e+00	7.860638e-10	
328	1.650000e+00	1.650000e+00	8.457058e-10	
329	1.655000e+00	1.655000e+00	9.098818e-10	
330	1.660000e+00	1.660000e+00	9.789365e-10	
331	1.665000e+00	1.665000e+00	1.053241e-09	
332	1.670000e+00	1.670000e+00	1.133194e-09	
333	1.675000e+00	1.675000e+00	1.219225e-09	
334	1.680000e+00	1.680000e+00	1.311797e-09	
335	1.685000e+00	1.685000e+00	1.411406e-09	
336	1.690000e+00	1.690000e+00	1.518588e-09	
337	1.695000e+00	1.695000e+00	1.633917e-09	
338	1.700000e+00	1.700000e+00	1.758015e-09	
339	1.705000e+00	1.705000e+00	1.891547e-09	
340	1.710000e+00	1.710000e+00	2.035231e-09	
341	1.715000e+00	1.715000e+00	2.189838e-09	
342	1.720000e+00	1.720000e+00	2.356199e-09	
343	1.725000e+00	1.725000e+00	2.535207e-09	
344	1.730000e+00	1.730000e+00	2.727825e-09	

Index   v-sweep         v(8)            i(vblue)        
--------------------------------------------------------------------------------
345	1.735000e+00	1.735000e+00	2.935086e-09	
346	1.740000e+00	1.740000e+00	3.158104e-09	
347	1.745000e+00	1.745000e+00	3.398076e-09	
348	1.750000e+00	1.750000e+00	3.656293e-09	
349	1.755000e+00	1.755000e+00	3.934140e-09	
350	1.760000e+00	1.760000e+00	4.233111e-09	
351	1.765000e+00	1.765000e+00	4.554811e-09	
352	1.770000e+00	1.770000e+00	4.900968e-09	
353	1.775000e+00	1.774999e+00	5.273442e-09	
354	1.780000e+00	1.779999e+00	5.674232e-09	
355	1.785000e+00	1.784999e+00	6.105493e-09	
356	1.790000e+00	1.789999e+00	6.569540e-09	
357	1.795000e+00	1.794999e+00	7.068866e-09	
358	1.800000e+00	1.799999e+00	7.606153e-09	
359	1.805000e+00	1.804999e+00	8.184287e-09	
360	1.810000e+00	1.809999e+00	8.806374e-09	
361	1.815000e+00	1.814999e+00	9.475754e-09	
362	1.820000e+00	1.819999e+00	1.019602e-08	
363	1.825000e+00	1.824999e+00	1.097105e-08	
364	1.830000e+00	1.829999e+00	1.180500e-08	
365	1.835000e+00	1.834999e+00	1.270234e-08	
366	1.840000e+00	1.839999e+00	1.366791e-08	
367	1.845000e+00	1.844999e+00	1.470688e-08	
368	1.850000e+00	1.849998e+00	1.582484e-08	
369	1.855000e+00	1.854998e+00	1.702779e-08	
370	1.860000e+00	1.859998e+00	1.832219e-08	
371	1.865000e+00	1.864998e+00	1.971499e-08	
372	1.870000e+00	1.869998e+00	2.121367e-08	
373	1.875000e+00	1.874998e+00	2.282629e-08	
374	1.880000e+00	1.879998e+00	2.456150e-08	
375	1.885000e+00	1.884997e+00	2.642863e-08	
376	1.890000e+00	1.889997e+00	2.843769e-08	
377	1.895000e+00	1.894997e+00	3.059948e-08	
378	1.900000e+00	1.899997e+00	3.292560e-08	
379	1.905000e+00	1.904996e+00	3.542856e-08	
380	1.910000e+00	1.909996e+00	3.812179e-08	
381	1.915000e+00	1.914996e+00	4.101975e-08	
382	1.920000e+00	1.919996e+00	4.413800e-08	
383	1.925000e+00	1.924995e+00	4.749329e-08	
384	1.930000e+00	1.929995e+00	5.110363e-08	
385	1.935000e+00	1.934995e+00	5.498841e-08	
386	1.940000e+00	1.939994e+00	5.916848e-08	
387	1.945000e+00	1.944994e+00	6.366629e-08	
388	1.950000e+00	1.949993e+00	6.850598e-08	
389	1.955000e+00	1.954993e+00	7.371354e-08	
390	1.960000e+00	1.959992e+00	7.931691e-08	
391	1.965000e+00	1.964991e+00	8.534619e-08	
392	1.970000e+00	1.969991e+00	9.183372e-08	
393	1.975000e+00	1.974990e+00	9.881433e-08	
394	1.980000e+00	1.979989e+00	1.063255e-07	
395	1.985000e+00	1.984989e+00	1.144075e-07	
396	1.990000e+00	1.989988e+00	1.231037e-07	
397	1.995000e+00	1.994987e+00	1.324608e-07	
398	2.000000e+00	1.999986e+00	1.425290e-07	
399	2.005000e+00	2.004985e+00	1.533623e-07	
400	2.010000e+00	2.009983e+00	1.650188e-07	
401	2.015000e+00	2.014982e+00	1.775610e-07	
402	2.020000e+00	2.019981e+00	1.910562e-07	

Index   v-sweep         v(8)            i(vblue)        
--------------------------------------------------------------------------------
403	2.025000e+00	2.024979e+00	2.055767e-07	
404	2.030000e+00	2.029978e+00	2.212005e-07	
405	2.035000e+00	2.034976e+00	2.380112e-07	
406	2.040000e+00	2.039974e+00	2.560990e-07	
407	2.045000e+00	2.044972e+00	2.755608e-07	
408	2.050000e+00	2.049970e+00	2.965009e-07	
409	2.055000e+00	2.054968e+00	3.190315e-07	
410	2.060000e+00	2.059966e+00	3.432732e-07	
411	2.065000e+00	2.064963e+00	3.693558e-07	
412	2.070000e+00	2.069960e+00	3.974190e-07	
413	2.075000e+00	2.074957e+00	4.276130e-07	
414	2.080000e+00	2.079954e+00	4.600993e-07	
415	2.085000e+00	2.084950e+00	4.950517e-07	
416	2.090000e+00	2.089947e+00	5.326571e-07	
417	2.095000e+00	2.094943e+00	5.731166e-07	
418	2.100000e+00	2.099938e+00	6.166462e-07	
419	2.105000e+00	2.104934e+00	6.634786e-07	
420	2.110000e+00	2.109929e+00	7.138638e-07	
421	2.115000e+00	2.114923e+00	7.680706e-07	
422	2.120000e+00	2.119917e+00	8.263882e-07	
423	2.125000e+00	2.124911e+00	8.891275e-07	
424	2.130000e+00	2.129904e+00	9.566228e-07	
425	2.135000e+00	2.134897e+00	1.029233e-06	
