                     diode i-v characteristic and band gap
                     DC transfer characteristic  Wed Aug 10 19:45:34  2022
--------------------------------------------------------------------------------
Index   v-sweep         v(9)            i(vgreen)       
--------------------------------------------------------------------------------
0	1.000000e-02	1.000000e-02	1.001717e-14	
1	1.500000e-02	1.500000e-02	1.502680e-14	
2	2.000000e-02	2.000000e-02	2.003719e-14	
3	2.500000e-02	2.500000e-02	2.504843e-14	
4	3.000000e-02	3.000000e-02	3.006102e-14	
5	3.500000e-02	3.500000e-02	3.507459e-14	
6	4.000000e-02	4.000000e-02	4.008919e-14	
7	4.500000e-02	4.500000e-02	4.510465e-14	
8	5.000000e-02	5.000000e-02	5.012115e-14	
9	5.500000e-02	5.500000e-02	5.514068e-14	
10	6.000000e-02	6.000000e-02	6.016043e-14	
11	6.500000e-02	6.500000e-02	6.518180e-14	
12	7.000000e-02	7.000000e-02	7.020502e-14	
13	7.500000e-02	7.500000e-02	7.523181e-14	
14	8.000000e-02	8.000000e-02	8.025915e-14	
15	8.500000e-02	8.500000e-02	8.528941e-14	
16	9.000000e-02	9.000000e-02	9.032206e-14	
17	9.500000e-02	9.500000e-02	9.535721e-14	
18	1.000000e-01	1.000000e-01	1.003947e-13	
19	1.050000e-01	1.050000e-01	1.054374e-13	
20	1.100000e-01	1.100000e-01	1.104817e-13	
21	1.150000e-01	1.150000e-01	1.155311e-13	
22	1.200000e-01	1.200000e-01	1.205830e-13	
23	1.250000e-01	1.250000e-01	1.256426e-13	
24	1.300000e-01	1.300000e-01	1.307006e-13	
25	1.350000e-01	1.350000e-01	1.357710e-13	
26	1.400000e-01	1.400000e-01	1.408439e-13	
27	1.450000e-01	1.450000e-01	1.459230e-13	
28	1.500000e-01	1.500000e-01	1.510092e-13	
29	1.550000e-01	1.550000e-01	1.561019e-13	
30	1.600000e-01	1.600000e-01	1.612018e-13	
31	1.650000e-01	1.650000e-01	1.663131e-13	
32	1.700000e-01	1.700000e-01	1.714295e-13	
33	1.750000e-01	1.750000e-01	1.765593e-13	
34	1.800000e-01	1.800000e-01	1.816986e-13	
35	1.850000e-01	1.850000e-01	1.868505e-13	
36	1.900000e-01	1.900000e-01	1.920131e-13	
37	1.950000e-01	1.950000e-01	1.971899e-13	
38	2.000000e-01	2.000000e-01	2.023828e-13	
39	2.050000e-01	2.050000e-01	2.075931e-13	
40	2.100000e-01	2.100000e-01	2.128163e-13	
41	2.150000e-01	2.150000e-01	2.180612e-13	
42	2.200000e-01	2.200000e-01	2.233270e-13	
43	2.250000e-01	2.250000e-01	2.286153e-13	
44	2.300000e-01	2.300000e-01	2.339275e-13	
45	2.350000e-01	2.350000e-01	2.392669e-13	
46	2.400000e-01	2.400000e-01	2.446355e-13	
47	2.450000e-01	2.450000e-01	2.500313e-13	
48	2.500000e-01	2.500000e-01	2.554615e-13	
49	2.550000e-01	2.550000e-01	2.609306e-13	
50	2.600000e-01	2.600000e-01	2.664366e-13	
51	2.650000e-01	2.650000e-01	2.719873e-13	
52	2.700000e-01	2.700000e-01	2.775818e-13	
53	2.750000e-01	2.750000e-01	2.832257e-13	
54	2.800000e-01	2.800000e-01	2.889269e-13	

Index   v-sweep         v(9)            i(vgreen)       
--------------------------------------------------------------------------------
55	2.850000e-01	2.850000e-01	2.946857e-13	
56	2.900000e-01	2.900000e-01	3.005079e-13	
57	2.950000e-01	2.950000e-01	3.063981e-13	
58	3.000000e-01	3.000000e-01	3.123630e-13	
59	3.050000e-01	3.050000e-01	3.184120e-13	
60	3.100000e-01	3.100000e-01	3.245507e-13	
61	3.150000e-01	3.150000e-01	3.307814e-13	
62	3.200000e-01	3.200000e-01	3.371105e-13	
63	3.250000e-01	3.250000e-01	3.435581e-13	
64	3.300000e-01	3.300000e-01	3.501266e-13	
65	3.350000e-01	3.350000e-01	3.568261e-13	
66	3.400000e-01	3.400000e-01	3.636679e-13	
67	3.450000e-01	3.450000e-01	3.706649e-13	
68	3.500000e-01	3.500000e-01	3.778284e-13	
69	3.550000e-01	3.550000e-01	3.851767e-13	
70	3.600000e-01	3.600000e-01	3.927214e-13	
71	3.650000e-01	3.650000e-01	4.004765e-13	
72	3.700000e-01	3.700000e-01	4.084662e-13	
73	3.750000e-01	3.750000e-01	4.167070e-13	
74	3.800000e-01	3.800000e-01	4.252219e-13	
75	3.850000e-01	3.850000e-01	4.340304e-13	
76	3.900000e-01	3.900000e-01	4.431542e-13	
77	3.950000e-01	3.950000e-01	4.526336e-13	
78	4.000000e-01	4.000000e-01	4.624834e-13	
79	4.050000e-01	4.050000e-01	4.727390e-13	
80	4.100000e-01	4.100000e-01	4.834449e-13	
81	4.150000e-01	4.150000e-01	4.946191e-13	
82	4.200000e-01	4.200000e-01	5.063198e-13	
83	4.250000e-01	4.250000e-01	5.185800e-13	
84	4.300000e-01	4.300000e-01	5.314542e-13	
85	4.350000e-01	4.350000e-01	5.449842e-13	
86	4.400000e-01	4.400000e-01	5.592323e-13	
87	4.450000e-01	4.450000e-01	5.742594e-13	
88	4.500000e-01	4.500000e-01	5.901312e-13	
89	4.550000e-01	4.550000e-01	6.069173e-13	
90	4.600000e-01	4.600000e-01	6.246852e-13	
91	4.650000e-01	4.650000e-01	6.435330e-13	
92	4.700000e-01	4.700000e-01	6.635456e-13	
93	4.750000e-01	4.750000e-01	6.848177e-13	
94	4.800000e-01	4.800000e-01	7.074515e-13	
95	4.850000e-01	4.850000e-01	7.315728e-13	
96	4.900000e-01	4.900000e-01	7.573005e-13	
97	4.950000e-01	4.950000e-01	7.847690e-13	
98	5.000000e-01	5.000000e-01	8.141248e-13	
99	5.050000e-01	5.050000e-01	8.455311e-13	
100	5.100000e-01	5.100000e-01	8.791501e-13	
101	5.150000e-01	5.150000e-01	9.151811e-13	
102	5.200000e-01	5.200000e-01	9.538091e-13	
103	5.250000e-01	5.250000e-01	9.952698e-13	
104	5.300000e-01	5.300000e-01	1.039787e-12	
105	5.350000e-01	5.350000e-01	1.087632e-12	
106	5.400000e-01	5.400000e-01	1.139076e-12	
107	5.450000e-01	5.450000e-01	1.194427e-12	
108	5.500000e-01	5.500000e-01	1.254000e-12	
109	5.550000e-01	5.550000e-01	1.318153e-12	
110	5.600000e-01	5.600000e-01	1.387298e-12	
111	5.650000e-01	5.650000e-01	1.461819e-12	
112	5.700000e-01	5.700000e-01	1.542180e-12	

Index   v-sweep         v(9)            i(vgreen)       
--------------------------------------------------------------------------------
113	5.750000e-01	5.750000e-01	1.628880e-12	
114	5.800000e-01	5.800000e-01	1.722440e-12	
115	5.850000e-01	5.850000e-01	1.823446e-12	
116	5.900000e-01	5.900000e-01	1.932507e-12	
117	5.950000e-01	5.950000e-01	2.050326e-12	
118	6.000000e-01	6.000000e-01	2.177610e-12	
119	6.050000e-01	6.050000e-01	2.315185e-12	
120	6.100000e-01	6.100000e-01	2.463895e-12	
121	6.150000e-01	6.150000e-01	2.624678e-12	
122	6.200000e-01	6.200000e-01	2.798544e-12	
123	6.250000e-01	6.250000e-01	2.986611e-12	
124	6.300000e-01	6.300000e-01	3.190052e-12	
125	6.350000e-01	6.350000e-01	3.410167e-12	
126	6.400000e-01	6.400000e-01	3.648361e-12	
127	6.450000e-01	6.450000e-01	3.906151e-12	
128	6.500000e-01	6.500000e-01	4.185171e-12	
129	6.550000e-01	6.550000e-01	4.487224e-12	
130	6.600000e-01	6.600000e-01	4.814237e-12	
131	6.650000e-01	6.650000e-01	5.168306e-12	
132	6.700000e-01	6.700000e-01	5.551707e-12	
133	6.750000e-01	6.750000e-01	5.966908e-12	
134	6.800000e-01	6.800000e-01	6.416568e-12	
135	6.850000e-01	6.850000e-01	6.903591e-12	
136	6.900000e-01	6.900000e-01	7.431119e-12	
137	6.950000e-01	6.950000e-01	8.002549e-12	
138	7.000000e-01	7.000000e-01	8.621564e-12	
139	7.050000e-01	7.050000e-01	9.292191e-12	
140	7.100000e-01	7.100000e-01	1.001874e-11	
141	7.150000e-01	7.150000e-01	1.080592e-11	
142	7.200000e-01	7.200000e-01	1.165882e-11	
143	7.250000e-01	7.250000e-01	1.258296e-11	
144	7.300000e-01	7.300000e-01	1.358434e-11	
145	7.350000e-01	7.350000e-01	1.466944e-11	
146	7.400000e-01	7.400000e-01	1.584529e-11	
147	7.450000e-01	7.450000e-01	1.711953e-11	
148	7.500000e-01	7.500000e-01	1.850041e-11	
149	7.550000e-01	7.550000e-01	1.999690e-11	
150	7.600000e-01	7.600000e-01	2.161871e-11	
151	7.650000e-01	7.650000e-01	2.337638e-11	
152	7.700000e-01	7.700000e-01	2.528132e-11	
153	7.750000e-01	7.750000e-01	2.734589e-11	
154	7.800000e-01	7.800000e-01	2.958352e-11	
155	7.850000e-01	7.850000e-01	3.200876e-11	
156	7.900000e-01	7.900000e-01	3.463735e-11	
157	7.950000e-01	7.950000e-01	3.748638e-11	
158	8.000000e-01	8.000000e-01	4.057440e-11	
159	8.050000e-01	8.050000e-01	4.392145e-11	
160	8.100000e-01	8.100000e-01	4.754933e-11	
161	8.150000e-01	8.150000e-01	5.148162e-11	
162	8.200000e-01	8.200000e-01	5.574390e-11	
163	8.250000e-01	8.250000e-01	6.036391e-11	
164	8.300000e-01	8.300000e-01	6.537168e-11	
165	8.350000e-01	8.350000e-01	7.079982e-11	
166	8.400000e-01	8.400000e-01	7.668362e-11	
167	8.450000e-01	8.450000e-01	8.306143e-11	
168	8.500000e-01	8.500000e-01	8.997468e-11	
169	8.550000e-01	8.550000e-01	9.746841e-11	
170	8.600000e-01	8.600000e-01	1.055914e-10	

Index   v-sweep         v(9)            i(vgreen)       
--------------------------------------------------------------------------------
171	8.650000e-01	8.650000e-01	1.143964e-10	
172	8.700000e-01	8.700000e-01	1.239410e-10	
173	8.750000e-01	8.750000e-01	1.342870e-10	
174	8.800000e-01	8.800000e-01	1.455020e-10	
175	8.850000e-01	8.850000e-01	1.576589e-10	
176	8.900000e-01	8.900000e-01	1.708369e-10	
177	8.950000e-01	8.950000e-01	1.851217e-10	
178	9.000000e-01	9.000000e-01	2.006064e-10	
179	9.050000e-01	9.050000e-01	2.173918e-10	
180	9.100000e-01	9.100000e-01	2.355871e-10	
181	9.150000e-01	9.150000e-01	2.553109e-10	
182	9.200000e-01	9.200000e-01	2.766915e-10	
183	9.250000e-01	9.250000e-01	2.998683e-10	
184	9.300000e-01	9.300000e-01	3.249921e-10	
185	9.350000e-01	9.350000e-01	3.522265e-10	
186	9.400000e-01	9.400000e-01	3.817488e-10	
187	9.450000e-01	9.450000e-01	4.137513e-10	
188	9.500000e-01	9.500000e-01	4.484424e-10	
189	9.550000e-01	9.550000e-01	4.860480e-10	
190	9.600000e-01	9.599999e-01	5.268130e-10	
191	9.650000e-01	9.649999e-01	5.710029e-10	
192	9.700000e-01	9.699999e-01	6.189054e-10	
193	9.750000e-01	9.749999e-01	6.708325e-10	
194	9.800000e-01	9.799999e-01	7.271224e-10	
195	9.850000e-01	9.849999e-01	7.881416e-10	
196	9.900000e-01	9.899999e-01	8.542874e-10	
197	9.950000e-01	9.949999e-01	9.259908e-10	
198	1.000000e+00	9.999999e-01	1.003719e-09	
199	1.005000e+00	1.005000e+00	1.087977e-09	
200	1.010000e+00	1.010000e+00	1.179315e-09	
201	1.015000e+00	1.015000e+00	1.278327e-09	
202	1.020000e+00	1.020000e+00	1.385658e-09	
203	1.025000e+00	1.025000e+00	1.502007e-09	
204	1.030000e+00	1.030000e+00	1.628132e-09	
205	1.035000e+00	1.035000e+00	1.764855e-09	
206	1.040000e+00	1.040000e+00	1.913064e-09	
207	1.045000e+00	1.045000e+00	2.073727e-09	
208	1.050000e+00	1.050000e+00	2.247889e-09	
209	1.055000e+00	1.055000e+00	2.436684e-09	
210	1.060000e+00	1.060000e+00	2.641342e-09	
211	1.065000e+00	1.065000e+00	2.863197e-09	
212	1.070000e+00	1.070000e+00	3.103691e-09	
213	1.075000e+00	1.075000e+00	3.364393e-09	
214	1.080000e+00	1.080000e+00	3.647000e-09	
215	1.085000e+00	1.085000e+00	3.953352e-09	
216	1.090000e+00	1.090000e+00	4.285444e-09	
217	1.095000e+00	1.095000e+00	4.645440e-09	
218	1.100000e+00	1.099999e+00	5.035683e-09	
219	1.105000e+00	1.104999e+00	5.458716e-09	
220	1.110000e+00	1.109999e+00	5.917293e-09	
221	1.115000e+00	1.114999e+00	6.414401e-09	
222	1.120000e+00	1.119999e+00	6.953277e-09	
223	1.125000e+00	1.124999e+00	7.537430e-09	
224	1.130000e+00	1.129999e+00	8.170665e-09	
225	1.135000e+00	1.134999e+00	8.857106e-09	
226	1.140000e+00	1.139999e+00	9.601223e-09	
227	1.145000e+00	1.144999e+00	1.040786e-08	
228	1.150000e+00	1.149999e+00	1.128227e-08	

Index   v-sweep         v(9)            i(vgreen)       
--------------------------------------------------------------------------------
229	1.155000e+00	1.154999e+00	1.223016e-08	
230	1.160000e+00	1.159999e+00	1.325768e-08	
231	1.165000e+00	1.164999e+00	1.437154e-08	
232	1.170000e+00	1.169998e+00	1.557898e-08	
233	1.175000e+00	1.174998e+00	1.688788e-08	
234	1.180000e+00	1.179998e+00	1.830674e-08	
235	1.185000e+00	1.184998e+00	1.984482e-08	
236	1.190000e+00	1.189998e+00	2.151213e-08	
237	1.195000e+00	1.194998e+00	2.331952e-08	
238	1.200000e+00	1.199997e+00	2.527876e-08	
239	1.205000e+00	1.204997e+00	2.740261e-08	
240	1.210000e+00	1.209997e+00	2.970490e-08	
241	1.215000e+00	1.214997e+00	3.220061e-08	
242	1.220000e+00	1.219997e+00	3.490601e-08	
243	1.225000e+00	1.224996e+00	3.783869e-08	
244	1.230000e+00	1.229996e+00	4.101776e-08	
245	1.235000e+00	1.234996e+00	4.446391e-08	
246	1.240000e+00	1.239995e+00	4.819957e-08	
247	1.245000e+00	1.244995e+00	5.224907e-08	
248	1.250000e+00	1.249994e+00	5.663875e-08	
249	1.255000e+00	1.254994e+00	6.139720e-08	
250	1.260000e+00	1.259993e+00	6.655539e-08	
251	1.265000e+00	1.264993e+00	7.214688e-08	
252	1.270000e+00	1.269992e+00	7.820807e-08	
253	1.275000e+00	1.274992e+00	8.477840e-08	
254	1.280000e+00	1.279991e+00	9.190063e-08	
255	1.285000e+00	1.284990e+00	9.962110e-08	
256	1.290000e+00	1.289989e+00	1.079900e-07	
257	1.295000e+00	1.294988e+00	1.170619e-07	
258	1.300000e+00	1.299987e+00	1.268956e-07	
259	1.305000e+00	1.304986e+00	1.375553e-07	
260	1.310000e+00	1.309985e+00	1.491102e-07	
261	1.315000e+00	1.314984e+00	1.616354e-07	
262	1.320000e+00	1.319982e+00	1.752124e-07	
263	1.325000e+00	1.324981e+00	1.899294e-07	
264	1.330000e+00	1.329979e+00	2.058822e-07	
265	1.335000e+00	1.334978e+00	2.231744e-07	
266	1.340000e+00	1.339976e+00	2.419183e-07	
267	1.345000e+00	1.344974e+00	2.622357e-07	
268	1.350000e+00	1.349972e+00	2.842585e-07	
269	1.355000e+00	1.354969e+00	3.081299e-07	
270	1.360000e+00	1.359967e+00	3.340047e-07	
271	1.365000e+00	1.364964e+00	3.620509e-07	
272	1.370000e+00	1.369961e+00	3.924505e-07	
273	1.375000e+00	1.374957e+00	4.254005e-07	
274	1.380000e+00	1.379954e+00	4.611148e-07	
275	1.385000e+00	1.384950e+00	4.998246e-07	
276	1.390000e+00	1.389946e+00	5.417809e-07	
277	1.395000e+00	1.394941e+00	5.872554e-07	
278	1.400000e+00	1.399936e+00	6.365423e-07	
279	1.405000e+00	1.404931e+00	6.899606e-07	
280	1.410000e+00	1.409925e+00	7.478557e-07	
281	1.415000e+00	1.414919e+00	8.106015e-07	
282	1.420000e+00	1.419912e+00	8.786035e-07	
283	1.425000e+00	1.424905e+00	9.523002e-07	
284	1.430000e+00	1.429897e+00	1.032167e-06	
285	1.435000e+00	1.434888e+00	1.118718e-06	
286	1.440000e+00	1.439879e+00	1.212512e-06	

Index   v-sweep         v(9)            i(vgreen)       
--------------------------------------------------------------------------------
287	1.445000e+00	1.444869e+00	1.314149e-06	
288	1.450000e+00	1.449858e+00	1.424285e-06	
289	1.455000e+00	1.454846e+00	1.543625e-06	
290	1.460000e+00	1.459833e+00	1.672934e-06	
291	1.465000e+00	1.464819e+00	1.813039e-06	
292	1.470000e+00	1.469804e+00	1.964836e-06	
293	1.475000e+00	1.474787e+00	2.129293e-06	
294	1.480000e+00	1.479769e+00	2.307458e-06	
295	1.485000e+00	1.484750e+00	2.500462e-06	
296	1.490000e+00	1.489729e+00	2.709531e-06	
297	1.495000e+00	1.494706e+00	2.935987e-06	
298	1.500000e+00	1.499682e+00	3.181261e-06	
299	1.505000e+00	1.504655e+00	3.446898e-06	
300	1.510000e+00	1.509627e+00	3.734565e-06	
301	1.515000e+00	1.514595e+00	4.046064e-06	
302	1.520000e+00	1.519562e+00	4.383339e-06	
303	1.525000e+00	1.524525e+00	4.748488e-06	
304	1.530000e+00	1.529486e+00	5.143772e-06	
305	1.535000e+00	1.534443e+00	5.571631e-06	
306	1.540000e+00	1.539397e+00	6.034691e-06	
307	1.545000e+00	1.544346e+00	6.535784e-06	
308	1.550000e+00	1.549292e+00	7.077955e-06	
309	1.555000e+00	1.554234e+00	7.664481e-06	
310	1.560000e+00	1.559170e+00	8.298887e-06	
311	1.565000e+00	1.564102e+00	8.984957e-06	
312	1.570000e+00	1.569027e+00	9.726757e-06	
313	1.575000e+00	1.573947e+00	1.052865e-05	
314	1.580000e+00	1.578860e+00	1.139530e-05	
315	1.585000e+00	1.583767e+00	1.233172e-05	
316	1.590000e+00	1.588666e+00	1.334327e-05	
317	1.595000e+00	1.593556e+00	1.443566e-05	
318	1.600000e+00	1.598438e+00	1.561501e-05	
319	1.605000e+00	1.603311e+00	1.688783e-05	
320	1.610000e+00	1.608174e+00	1.826106e-05	
321	1.615000e+00	1.613026e+00	1.974207e-05	
322	1.620000e+00	1.617866e+00	2.133870e-05	
323	1.625000e+00	1.622694e+00	2.305924e-05	
324	1.630000e+00	1.627509e+00	2.491249e-05	
325	1.635000e+00	1.632309e+00	2.690771e-05	
326	1.640000e+00	1.637095e+00	2.905469e-05	
327	1.645000e+00	1.641864e+00	3.136371e-05	
328	1.650000e+00	1.646615e+00	3.384556e-05	
329	1.655000e+00	1.651349e+00	3.651155e-05	
330	1.660000e+00	1.656063e+00	3.937347e-05	
331	1.665000e+00	1.660756e+00	4.244360e-05	
332	1.670000e+00	1.665427e+00	4.573470e-05	
333	1.675000e+00	1.670074e+00	4.925996e-05	
334	1.680000e+00	1.674697e+00	5.303299e-05	
335	1.685000e+00	1.679293e+00	5.706777e-05	
336	1.690000e+00	1.683862e+00	6.137862e-05	
337	1.695000e+00	1.688402e+00	6.598013e-05	
338	1.700000e+00	1.692911e+00	7.088713e-05	
339	1.705000e+00	1.697389e+00	7.611458e-05	
340	1.710000e+00	1.701832e+00	8.167755e-05	
341	1.715000e+00	1.706241e+00	8.759110e-05	
342	1.720000e+00	1.710613e+00	9.387021e-05	
343	1.725000e+00	1.714947e+00	1.005297e-04	
344	1.730000e+00	1.719242e+00	1.075842e-04	

Index   v-sweep         v(9)            i(vgreen)       
--------------------------------------------------------------------------------
345	1.735000e+00	1.723495e+00	1.150478e-04	
346	1.740000e+00	1.727707e+00	1.229344e-04	
347	1.745000e+00	1.731874e+00	1.312572e-04	
348	1.750000e+00	1.735997e+00	1.400288e-04	
349	1.755000e+00	1.740074e+00	1.492612e-04	
350	1.760000e+00	1.744103e+00	1.589655e-04	
351	1.765000e+00	1.748085e+00	1.691519e-04	
352	1.770000e+00	1.752017e+00	1.798299e-04	
353	1.775000e+00	1.755899e+00	1.910078e-04	
354	1.780000e+00	1.759731e+00	2.026930e-04	
355	1.785000e+00	1.763511e+00	2.148917e-04	
356	1.790000e+00	1.767239e+00	2.276092e-04	
357	1.795000e+00	1.770915e+00	2.408496e-04	
358	1.800000e+00	1.774538e+00	2.546159e-04	
359	1.805000e+00	1.778109e+00	2.689102e-04	
360	1.810000e+00	1.781627e+00	2.837333e-04	
361	1.815000e+00	1.785091e+00	2.990851e-04	
362	1.820000e+00	1.788504e+00	3.149644e-04	
363	1.825000e+00	1.791863e+00	3.313692e-04	
364	1.830000e+00	1.795170e+00	3.482966e-04	
365	1.835000e+00	1.798426e+00	3.657426e-04	
366	1.840000e+00	1.801630e+00	3.837026e-04	
367	1.845000e+00	1.804783e+00	4.021715e-04	
368	1.850000e+00	1.807886e+00	4.211431e-04	
369	1.855000e+00	1.810939e+00	4.406109e-04	
370	1.860000e+00	1.813943e+00	4.605677e-04	
371	1.865000e+00	1.816899e+00	4.810061e-04	
372	1.870000e+00	1.819808e+00	5.019180e-04	
373	1.875000e+00	1.822670e+00	5.232951e-04	
374	1.880000e+00	1.825487e+00	5.451287e-04	
375	1.885000e+00	1.828259e+00	5.674100e-04	
376	1.890000e+00	1.830987e+00	5.901299e-04	
377	1.895000e+00	1.833672e+00	6.132792e-04	
378	1.900000e+00	1.836315e+00	6.368487e-04	
379	1.905000e+00	1.838917e+00	6.608289e-04	
380	1.910000e+00	1.841479e+00	6.852105e-04	
381	1.915000e+00	1.844002e+00	7.099841e-04	
382	1.920000e+00	1.846486e+00	7.351403e-04	
383	1.925000e+00	1.848933e+00	7.606700e-04	
384	1.930000e+00	1.851344e+00	7.865638e-04	
385	1.935000e+00	1.853719e+00	8.128127e-04	
386	1.940000e+00	1.856059e+00	8.394077e-04	
387	1.945000e+00	1.858366e+00	8.663400e-04	
388	1.950000e+00	1.860640e+00	8.936010e-04	
389	1.955000e+00	1.862882e+00	9.211820e-04	
390	1.960000e+00	1.865093e+00	9.490747e-04	
391	1.965000e+00	1.867273e+00	9.772711e-04	
392	1.970000e+00	1.869424e+00	1.005763e-03	
393	1.975000e+00	1.871546e+00	1.034543e-03	
394	1.980000e+00	1.873640e+00	1.063602e-03	
395	1.985000e+00	1.875706e+00	1.092935e-03	
396	1.990000e+00	1.877747e+00	1.122533e-03	
397	1.995000e+00	1.879761e+00	1.152390e-03	
398	2.000000e+00	1.881750e+00	1.182498e-03	
399	2.005000e+00	1.883715e+00	1.212851e-03	
400	2.010000e+00	1.885656e+00	1.243442e-03	
401	2.015000e+00	1.887573e+00	1.274266e-03	
402	2.020000e+00	1.889468e+00	1.305315e-03	

Index   v-sweep         v(9)            i(vgreen)       
--------------------------------------------------------------------------------
403	2.025000e+00	1.891341e+00	1.336585e-03	
404	2.030000e+00	1.893193e+00	1.368069e-03	
405	2.035000e+00	1.895024e+00	1.399762e-03	
406	2.040000e+00	1.896834e+00	1.431659e-03	
407	2.045000e+00	1.898625e+00	1.463753e-03	
408	2.050000e+00	1.900396e+00	1.496040e-03	
409	2.055000e+00	1.902148e+00	1.528516e-03	
410	2.060000e+00	1.903883e+00	1.561174e-03	
411	2.065000e+00	1.905599e+00	1.594012e-03	
412	2.070000e+00	1.907298e+00	1.627023e-03	
413	2.075000e+00	1.908980e+00	1.660204e-03	
414	2.080000e+00	1.910645e+00	1.693551e-03	
415	2.085000e+00	1.912294e+00	1.727059e-03	
416	2.090000e+00	1.913928e+00	1.760725e-03	
417	2.095000e+00	1.915546e+00	1.794544e-03	
418	2.100000e+00	1.917149e+00	1.828513e-03	
419	2.105000e+00	1.918737e+00	1.862628e-03	
420	2.110000e+00	1.920311e+00	1.896887e-03	
421	2.115000e+00	1.921872e+00	1.931284e-03	
422	2.120000e+00	1.923418e+00	1.965818e-03	
423	2.125000e+00	1.924952e+00	2.000484e-03	
424	2.130000e+00	1.926472e+00	2.035280e-03	
425	2.135000e+00	1.927980e+00	2.070203e-03	
