                     diode i-v characteristic and band gap
                     DC transfer characteristic  Wed Aug 10 19:45:34  2022
--------------------------------------------------------------------------------
Index   v-sweep         v(10)           i(vred)         
--------------------------------------------------------------------------------
0	1.000000e-02	1.000000e-02	9.999868e-15	
1	1.500000e-02	1.500000e-02	1.499980e-14	
2	2.000000e-02	2.000000e-02	1.999974e-14	
3	2.500000e-02	2.500000e-02	2.499970e-14	
4	3.000000e-02	3.000000e-02	2.999960e-14	
5	3.500000e-02	3.500000e-02	3.499951e-14	
6	4.000000e-02	4.000000e-02	3.999947e-14	
7	4.500000e-02	4.500000e-02	4.499943e-14	
8	5.000000e-02	5.000000e-02	4.999939e-14	
9	5.500000e-02	5.500000e-02	5.499930e-14	
10	6.000000e-02	6.000000e-02	5.999921e-14	
11	6.500000e-02	6.500000e-02	6.499911e-14	
12	7.000000e-02	7.000000e-02	6.999902e-14	
13	7.500000e-02	7.500000e-02	7.499893e-14	
14	8.000000e-02	8.000000e-02	7.999894e-14	
15	8.500000e-02	8.500000e-02	8.499885e-14	
16	9.000000e-02	9.000000e-02	8.999875e-14	
17	9.500000e-02	9.500000e-02	9.499866e-14	
18	1.000000e-01	1.000000e-01	9.999857e-14	
19	1.050000e-01	1.050000e-01	1.049987e-13	
20	1.100000e-01	1.100000e-01	1.099986e-13	
21	1.150000e-01	1.150000e-01	1.149985e-13	
22	1.200000e-01	1.200000e-01	1.199984e-13	
23	1.250000e-01	1.250000e-01	1.249983e-13	
24	1.300000e-01	1.300000e-01	1.299982e-13	
25	1.350000e-01	1.350000e-01	1.349983e-13	
26	1.400000e-01	1.400000e-01	1.399980e-13	
27	1.450000e-01	1.450000e-01	1.449979e-13	
28	1.500000e-01	1.500000e-01	1.499981e-13	
29	1.550000e-01	1.550000e-01	1.549980e-13	
30	1.600000e-01	1.600000e-01	1.599979e-13	
31	1.650000e-01	1.650000e-01	1.649978e-13	
32	1.700000e-01	1.700000e-01	1.699977e-13	
33	1.750000e-01	1.750000e-01	1.749978e-13	
34	1.800000e-01	1.800000e-01	1.799975e-13	
35	1.850000e-01	1.850000e-01	1.849974e-13	
36	1.900000e-01	1.900000e-01	1.899973e-13	
37	1.950000e-01	1.950000e-01	1.949974e-13	
38	2.000000e-01	2.000000e-01	1.999971e-13	
39	2.050000e-01	2.050000e-01	2.049970e-13	
40	2.100000e-01	2.100000e-01	2.099970e-13	
41	2.150000e-01	2.150000e-01	2.149973e-13	
42	2.200000e-01	2.200000e-01	2.199968e-13	
43	2.250000e-01	2.250000e-01	2.249967e-13	
44	2.300000e-01	2.300000e-01	2.299970e-13	
45	2.350000e-01	2.350000e-01	2.349969e-13	
46	2.400000e-01	2.400000e-01	2.399968e-13	
47	2.450000e-01	2.450000e-01	2.449967e-13	
48	2.500000e-01	2.500000e-01	2.499966e-13	
49	2.550000e-01	2.550000e-01	2.549965e-13	
50	2.600000e-01	2.600000e-01	2.599965e-13	
51	2.650000e-01	2.650000e-01	2.649964e-13	
52	2.700000e-01	2.700000e-01	2.699963e-13	
53	2.750000e-01	2.750000e-01	2.749962e-13	
54	2.800000e-01	2.800000e-01	2.799965e-13	

Index   v-sweep         v(10)           i(vred)         
--------------------------------------------------------------------------------
55	2.850000e-01	2.850000e-01	2.849964e-13	
56	2.900000e-01	2.900000e-01	2.899959e-13	
57	2.950000e-01	2.950000e-01	2.949958e-13	
58	3.000000e-01	3.000000e-01	2.999957e-13	
59	3.050000e-01	3.050000e-01	3.049960e-13	
60	3.100000e-01	3.100000e-01	3.099960e-13	
61	3.150000e-01	3.150000e-01	3.149959e-13	
62	3.200000e-01	3.200000e-01	3.199958e-13	
63	3.250000e-01	3.250000e-01	3.249957e-13	
64	3.300000e-01	3.300000e-01	3.299951e-13	
65	3.350000e-01	3.350000e-01	3.349955e-13	
66	3.400000e-01	3.400000e-01	3.399954e-13	
67	3.450000e-01	3.450000e-01	3.449953e-13	
68	3.500000e-01	3.500000e-01	3.499952e-13	
69	3.550000e-01	3.550000e-01	3.549951e-13	
70	3.600000e-01	3.600000e-01	3.599955e-13	
71	3.650000e-01	3.650000e-01	3.649954e-13	
72	3.700000e-01	3.700000e-01	3.699953e-13	
73	3.750000e-01	3.750000e-01	3.749947e-13	
74	3.800000e-01	3.800000e-01	3.799946e-13	
75	3.850000e-01	3.850000e-01	3.849946e-13	
76	3.900000e-01	3.900000e-01	3.899940e-13	
77	3.950000e-01	3.950000e-01	3.949948e-13	
78	4.000000e-01	4.000000e-01	3.999943e-13	
79	4.050000e-01	4.050000e-01	4.049946e-13	
80	4.100000e-01	4.100000e-01	4.099932e-13	
81	4.150000e-01	4.150000e-01	4.149936e-13	
82	4.200000e-01	4.200000e-01	4.199939e-13	
83	4.250000e-01	4.250000e-01	4.249934e-13	
84	4.300000e-01	4.300000e-01	4.299928e-13	
85	4.350000e-01	4.350000e-01	4.349932e-13	
86	4.400000e-01	4.400000e-01	4.399927e-13	
87	4.450000e-01	4.450000e-01	4.449930e-13	
88	4.500000e-01	4.500000e-01	4.499916e-13	
89	4.550000e-01	4.550000e-01	4.549919e-13	
90	4.600000e-01	4.600000e-01	4.599914e-13	
91	4.650000e-01	4.650000e-01	4.649909e-13	
92	4.700000e-01	4.700000e-01	4.700173e-13	
93	4.750000e-01	4.750000e-01	4.750159e-13	
94	4.800000e-01	4.800000e-01	4.800162e-13	
95	4.850000e-01	4.850000e-01	4.850157e-13	
96	4.900000e-01	4.900000e-01	4.900151e-13	
97	4.950000e-01	4.950000e-01	4.950146e-13	
98	5.000000e-01	5.000000e-01	5.000141e-13	
99	5.050000e-01	5.050000e-01	5.050136e-13	
100	5.100000e-01	5.100000e-01	5.100113e-13	
101	5.150000e-01	5.150000e-01	5.150116e-13	
102	5.200000e-01	5.200000e-01	5.200094e-13	
103	5.250000e-01	5.250000e-01	5.250071e-13	
104	5.300000e-01	5.300000e-01	5.300057e-13	
105	5.350000e-01	5.350000e-01	5.350035e-13	
106	5.400000e-01	5.400000e-01	5.400003e-13	
107	5.450000e-01	5.450000e-01	5.449972e-13	
108	5.500000e-01	5.500000e-01	5.499923e-13	
109	5.550000e-01	5.550000e-01	5.550178e-13	
110	5.600000e-01	5.600000e-01	5.600138e-13	
111	5.650000e-01	5.650000e-01	5.650072e-13	
112	5.700000e-01	5.700000e-01	5.700006e-13	

Index   v-sweep         v(10)           i(vred)         
--------------------------------------------------------------------------------
113	5.750000e-01	5.750000e-01	5.749914e-13	
114	5.800000e-01	5.800000e-01	5.799814e-13	
115	5.850000e-01	5.850000e-01	5.849713e-13	
116	5.900000e-01	5.900000e-01	5.900237e-13	
117	5.950000e-01	5.950000e-01	5.950084e-13	
118	6.000000e-01	6.000000e-01	6.000226e-13	
119	6.050000e-01	6.050000e-01	6.050039e-13	
120	6.100000e-01	6.100000e-01	6.100138e-13	
121	6.150000e-01	6.150000e-01	6.150202e-13	
122	6.200000e-01	6.200000e-01	6.200223e-13	
123	6.250000e-01	6.250000e-01	6.250200e-13	
124	6.300000e-01	6.300000e-01	6.300125e-13	
125	6.350000e-01	6.350000e-01	6.350337e-13	
126	6.400000e-01	6.400000e-01	6.400470e-13	
127	6.450000e-01	6.450000e-01	6.450500e-13	
128	6.500000e-01	6.500000e-01	6.500460e-13	
129	6.550000e-01	6.550000e-01	6.550281e-13	
130	6.600000e-01	6.600000e-01	6.600345e-13	
131	6.650000e-01	6.650000e-01	6.650236e-13	
132	6.700000e-01	6.700000e-01	6.700682e-13	
133	6.750000e-01	6.750000e-01	6.750937e-13	
134	6.800000e-01	6.800000e-01	6.800931e-13	
135	6.850000e-01	6.850000e-01	6.851030e-13	
136	6.900000e-01	6.900000e-01	6.901181e-13	
137	6.950000e-01	6.950000e-01	6.951332e-13	
138	7.000000e-01	7.000000e-01	7.001422e-13	
139	7.050000e-01	7.050000e-01	7.051781e-13	
140	7.100000e-01	7.100000e-01	7.101941e-13	
141	7.150000e-01	7.150000e-01	7.152213e-13	
142	7.200000e-01	7.200000e-01	7.202468e-13	
143	7.250000e-01	7.250000e-01	7.253009e-13	
144	7.300000e-01	7.300000e-01	7.303281e-13	
145	7.350000e-01	7.350000e-01	7.353944e-13	
146	7.400000e-01	7.400000e-01	7.404398e-13	
147	7.450000e-01	7.450000e-01	7.454818e-13	
148	7.500000e-01	7.500000e-01	7.505819e-13	
149	7.550000e-01	7.550000e-01	7.556664e-13	
150	7.600000e-01	7.600000e-01	7.607031e-13	
151	7.650000e-01	7.650000e-01	7.658605e-13	
152	7.700000e-01	7.700000e-01	7.710135e-13	
153	7.750000e-01	7.750000e-01	7.761517e-13	
154	7.800000e-01	7.800000e-01	7.813429e-13	
155	7.850000e-01	7.850000e-01	7.864698e-13	
156	7.900000e-01	7.900000e-01	7.917625e-13	
157	7.950000e-01	7.950000e-01	7.969909e-13	
158	8.000000e-01	8.000000e-01	8.023113e-13	
159	8.050000e-01	8.050000e-01	8.076439e-13	
160	8.100000e-01	8.100000e-01	8.130666e-13	
161	8.150000e-01	8.150000e-01	8.184980e-13	
162	8.200000e-01	8.200000e-01	8.240179e-13	
163	8.250000e-01	8.250000e-01	8.296228e-13	
164	8.300000e-01	8.300000e-01	8.353283e-13	
165	8.350000e-01	8.350000e-01	8.411969e-13	
166	8.400000e-01	8.400000e-01	8.471140e-13	
167	8.450000e-01	8.450000e-01	8.530919e-13	
168	8.500000e-01	8.500000e-01	8.593126e-13	
169	8.550000e-01	8.550000e-01	8.658005e-13	
170	8.600000e-01	8.600000e-01	8.723595e-13	

Index   v-sweep         v(10)           i(vred)         
--------------------------------------------------------------------------------
171	8.650000e-01	8.650000e-01	8.792047e-13	
172	8.700000e-01	8.700000e-01	8.863153e-13	
173	8.750000e-01	8.750000e-01	8.937816e-13	
174	8.800000e-01	8.800000e-01	9.015826e-13	
175	8.850000e-01	8.850000e-01	9.098382e-13	
176	8.900000e-01	8.900000e-01	9.185534e-13	
177	8.950000e-01	8.950000e-01	9.278620e-13	
178	9.000000e-01	9.000000e-01	9.378262e-13	
179	9.050000e-01	9.050000e-01	9.484549e-13	
180	9.100000e-01	9.100000e-01	9.600029e-13	
181	9.150000e-01	9.150000e-01	9.725224e-13	
182	9.200000e-01	9.200000e-01	9.861539e-13	
183	9.250000e-01	9.250000e-01	1.001045e-12	
184	9.300000e-01	9.300000e-01	1.017483e-12	
185	9.350000e-01	9.350000e-01	1.035597e-12	
186	9.400000e-01	9.400000e-01	1.055751e-12	
187	9.450000e-01	9.450000e-01	1.078122e-12	
188	9.500000e-01	9.500000e-01	1.103111e-12	
189	9.550000e-01	9.550000e-01	1.131132e-12	
190	9.600000e-01	9.600000e-01	1.162567e-12	
191	9.650000e-01	9.650000e-01	1.198023e-12	
192	9.700000e-01	9.700000e-01	1.238001e-12	
193	9.750000e-01	9.750000e-01	1.283203e-12	
194	9.800000e-01	9.800000e-01	1.334479e-12	
195	9.850000e-01	9.850000e-01	1.392770e-12	
196	9.900000e-01	9.900000e-01	1.459000e-12	
197	9.950000e-01	9.950000e-01	1.534413e-12	
198	1.000000e+00	1.000000e+00	1.620440e-12	
199	1.005000e+00	1.005000e+00	1.718580e-12	
200	1.010000e+00	1.010000e+00	1.830725e-12	
201	1.015000e+00	1.015000e+00	1.958968e-12	
202	1.020000e+00	1.020000e+00	2.105767e-12	
203	1.025000e+00	1.025000e+00	2.273791e-12	
204	1.030000e+00	1.030000e+00	2.466312e-12	
205	1.035000e+00	1.035000e+00	2.686977e-12	
206	1.040000e+00	1.040000e+00	2.940145e-12	
207	1.045000e+00	1.045000e+00	3.230433e-12	
208	1.050000e+00	1.050000e+00	3.563668e-12	
209	1.055000e+00	1.055000e+00	3.946168e-12	
210	1.060000e+00	1.060000e+00	4.385284e-12	
211	1.065000e+00	1.065000e+00	4.889695e-12	
212	1.070000e+00	1.070000e+00	5.469035e-12	
213	1.075000e+00	1.075000e+00	6.134633e-12	
214	1.080000e+00	1.080000e+00	6.899483e-12	
215	1.085000e+00	1.085000e+00	7.778377e-12	
216	1.090000e+00	1.090000e+00	8.788527e-12	
217	1.095000e+00	1.095000e+00	9.949663e-12	
218	1.100000e+00	1.100000e+00	1.128440e-11	
219	1.105000e+00	1.105000e+00	1.281878e-11	
220	1.110000e+00	1.110000e+00	1.458289e-11	
221	1.115000e+00	1.115000e+00	1.661113e-11	
222	1.120000e+00	1.120000e+00	1.894323e-11	
223	1.125000e+00	1.125000e+00	2.162477e-11	
224	1.130000e+00	1.130000e+00	2.470828e-11	
225	1.135000e+00	1.135000e+00	2.825406e-11	
226	1.140000e+00	1.140000e+00	3.233162e-11	
227	1.145000e+00	1.145000e+00	3.702075e-11	
228	1.150000e+00	1.150000e+00	4.241320e-11	

Index   v-sweep         v(10)           i(vred)         
--------------------------------------------------------------------------------
229	1.155000e+00	1.155000e+00	4.861491e-11	
230	1.160000e+00	1.160000e+00	5.574708e-11	
231	1.165000e+00	1.165000e+00	6.394951e-11	
232	1.170000e+00	1.170000e+00	7.338302e-11	
233	1.175000e+00	1.175000e+00	8.423242e-11	
234	1.180000e+00	1.180000e+00	9.671033e-11	
235	1.185000e+00	1.185000e+00	1.110614e-10	
236	1.190000e+00	1.190000e+00	1.275668e-10	
237	1.195000e+00	1.195000e+00	1.465501e-10	
238	1.200000e+00	1.200000e+00	1.683834e-10	
239	1.205000e+00	1.205000e+00	1.934948e-10	
240	1.210000e+00	1.210000e+00	2.223763e-10	
241	1.215000e+00	1.215000e+00	2.555944e-10	
242	1.220000e+00	1.220000e+00	2.938001e-10	
243	1.225000e+00	1.225000e+00	3.377425e-10	
244	1.230000e+00	1.230000e+00	3.882832e-10	
245	1.235000e+00	1.235000e+00	4.464128e-10	
246	1.240000e+00	1.240000e+00	5.132712e-10	
247	1.245000e+00	1.245000e+00	5.901689e-10	
248	1.250000e+00	1.250000e+00	6.786139e-10	
249	1.255000e+00	1.255000e+00	7.803402e-10	
250	1.260000e+00	1.260000e+00	8.973419e-10	
251	1.265000e+00	1.265000e+00	1.031913e-09	
252	1.270000e+00	1.270000e+00	1.186693e-09	
253	1.275000e+00	1.275000e+00	1.364715e-09	
254	1.280000e+00	1.280000e+00	1.569470e-09	
255	1.285000e+00	1.285000e+00	1.804973e-09	
256	1.290000e+00	1.290000e+00	2.075840e-09	
257	1.295000e+00	1.295000e+00	2.387383e-09	
258	1.300000e+00	1.300000e+00	2.745710e-09	
259	1.305000e+00	1.305000e+00	3.157846e-09	
260	1.310000e+00	1.310000e+00	3.631872e-09	
261	1.315000e+00	1.315000e+00	4.177081e-09	
262	1.320000e+00	1.320000e+00	4.804162e-09	
263	1.325000e+00	1.324999e+00	5.525410e-09	
264	1.330000e+00	1.329999e+00	6.354965e-09	
265	1.335000e+00	1.334999e+00	7.309091e-09	
266	1.340000e+00	1.339999e+00	8.406493e-09	
267	1.345000e+00	1.344999e+00	9.668685e-09	
268	1.350000e+00	1.349999e+00	1.112041e-08	
269	1.355000e+00	1.354999e+00	1.279013e-08	
270	1.360000e+00	1.359999e+00	1.471058e-08	
271	1.365000e+00	1.364998e+00	1.691939e-08	
272	1.370000e+00	1.369998e+00	1.945988e-08	
273	1.375000e+00	1.374998e+00	2.238183e-08	
274	1.380000e+00	1.379997e+00	2.574251e-08	
275	1.385000e+00	1.384997e+00	2.960779e-08	
276	1.390000e+00	1.389997e+00	3.405343e-08	
277	1.395000e+00	1.394996e+00	3.916653e-08	
278	1.400000e+00	1.399995e+00	4.504730e-08	
279	1.405000e+00	1.404995e+00	5.181094e-08	
280	1.410000e+00	1.409994e+00	5.958998e-08	
281	1.415000e+00	1.414993e+00	6.853677e-08	
282	1.420000e+00	1.419992e+00	7.882656e-08	
283	1.425000e+00	1.424991e+00	9.066084e-08	
284	1.430000e+00	1.429990e+00	1.042713e-07	
285	1.435000e+00	1.434988e+00	1.199244e-07	
286	1.440000e+00	1.439986e+00	1.379263e-07	

Index   v-sweep         v(10)           i(vred)         
--------------------------------------------------------------------------------
287	1.445000e+00	1.444984e+00	1.586294e-07	
288	1.450000e+00	1.449982e+00	1.824384e-07	
289	1.455000e+00	1.454979e+00	2.098189e-07	
290	1.460000e+00	1.459976e+00	2.413058e-07	
291	1.465000e+00	1.464972e+00	2.775141e-07	
292	1.470000e+00	1.469968e+00	3.191505e-07	
293	1.475000e+00	1.474963e+00	3.670272e-07	
294	1.480000e+00	1.479958e+00	4.220774e-07	
295	1.485000e+00	1.484951e+00	4.853730e-07	
296	1.490000e+00	1.489944e+00	5.581454e-07	
297	1.495000e+00	1.494936e+00	6.418085e-07	
298	1.500000e+00	1.499926e+00	7.379856e-07	
299	1.505000e+00	1.504915e+00	8.485400e-07	
300	1.510000e+00	1.509902e+00	9.756098e-07	
301	1.515000e+00	1.514888e+00	1.121647e-06	
302	1.520000e+00	1.519871e+00	1.289463e-06	
303	1.525000e+00	1.524852e+00	1.482281e-06	
304	1.530000e+00	1.529830e+00	1.703791e-06	
305	1.535000e+00	1.534804e+00	1.958216e-06	
306	1.540000e+00	1.539775e+00	2.250390e-06	
307	1.545000e+00	1.544741e+00	2.585835e-06	
308	1.550000e+00	1.549703e+00	2.970858e-06	
309	1.555000e+00	1.554659e+00	3.412650e-06	
310	1.560000e+00	1.559608e+00	3.919407e-06	
311	1.565000e+00	1.564550e+00	4.500451e-06	
312	1.570000e+00	1.569483e+00	5.166369e-06	
313	1.575000e+00	1.574407e+00	5.929165e-06	
314	1.580000e+00	1.579320e+00	6.802420e-06	
315	1.585000e+00	1.584220e+00	7.801459e-06	
316	1.590000e+00	1.589106e+00	8.943535e-06	
317	1.595000e+00	1.593975e+00	1.024801e-05	
318	1.600000e+00	1.598826e+00	1.173651e-05	
319	1.605000e+00	1.603657e+00	1.343316e-05	
320	1.610000e+00	1.608464e+00	1.536468e-05	
321	1.615000e+00	1.613244e+00	1.756054e-05	
322	1.620000e+00	1.617995e+00	2.005307e-05	
323	1.625000e+00	1.622712e+00	2.287749e-05	
324	1.630000e+00	1.627393e+00	2.607190e-05	
325	1.635000e+00	1.632032e+00	2.967719e-05	
326	1.640000e+00	1.636626e+00	3.373682e-05	
327	1.645000e+00	1.641170e+00	3.829654e-05	
328	1.650000e+00	1.645660e+00	4.340396e-05	
329	1.655000e+00	1.650089e+00	4.910801e-05	
330	1.660000e+00	1.654454e+00	5.545829e-05	
331	1.665000e+00	1.658750e+00	6.250427e-05	
332	1.670000e+00	1.662971e+00	7.029450e-05	
333	1.675000e+00	1.667112e+00	7.887566e-05	
334	1.680000e+00	1.671171e+00	8.829165e-05	
335	1.685000e+00	1.675142e+00	9.858275e-05	
336	1.690000e+00	1.679022e+00	1.097847e-04	
337	1.695000e+00	1.682807e+00	1.219283e-04	
338	1.700000e+00	1.686496e+00	1.350384e-04	
339	1.705000e+00	1.690087e+00	1.491339e-04	
340	1.710000e+00	1.693577e+00	1.642277e-04	
341	1.715000e+00	1.696967e+00	1.803261e-04	
342	1.720000e+00	1.700257e+00	1.974297e-04	
343	1.725000e+00	1.703447e+00	2.155335e-04	
344	1.730000e+00	1.706537e+00	2.346270e-04	

Index   v-sweep         v(10)           i(vred)         
--------------------------------------------------------------------------------
345	1.735000e+00	1.709530e+00	2.546954e-04	
346	1.740000e+00	1.712428e+00	2.757196e-04	
347	1.745000e+00	1.715232e+00	2.976773e-04	
348	1.750000e+00	1.717946e+00	3.205434e-04	
349	1.755000e+00	1.720571e+00	3.442906e-04	
350	1.760000e+00	1.723111e+00	3.688899e-04	
351	1.765000e+00	1.725569e+00	3.943114e-04	
352	1.770000e+00	1.727948e+00	4.205243e-04	
353	1.775000e+00	1.730250e+00	4.474978e-04	
354	1.780000e+00	1.732480e+00	4.752010e-04	
355	1.785000e+00	1.734640e+00	5.036034e-04	
356	1.790000e+00	1.736733e+00	5.326750e-04	
357	1.795000e+00	1.738761e+00	5.623865e-04	
358	1.800000e+00	1.740729e+00	5.927095e-04	
359	1.805000e+00	1.742638e+00	6.236168e-04	
360	1.810000e+00	1.744492e+00	6.550817e-04	
361	1.815000e+00	1.746292e+00	6.870791e-04	
362	1.820000e+00	1.748042e+00	7.195847e-04	
363	1.825000e+00	1.749742e+00	7.525753e-04	
364	1.830000e+00	1.751397e+00	7.860289e-04	
365	1.835000e+00	1.753008e+00	8.199244e-04	
366	1.840000e+00	1.754576e+00	8.542420e-04	
367	1.845000e+00	1.756104e+00	8.889626e-04	
368	1.850000e+00	1.757593e+00	9.240682e-04	
369	1.855000e+00	1.759046e+00	9.595419e-04	
370	1.860000e+00	1.760463e+00	9.953675e-04	
371	1.865000e+00	1.761847e+00	1.031530e-03	
372	1.870000e+00	1.763199e+00	1.068014e-03	
373	1.875000e+00	1.764519e+00	1.104806e-03	
374	1.880000e+00	1.765811e+00	1.141894e-03	
375	1.885000e+00	1.767074e+00	1.179264e-03	
376	1.890000e+00	1.768309e+00	1.216906e-03	
377	1.895000e+00	1.769519e+00	1.254808e-03	
378	1.900000e+00	1.770704e+00	1.292960e-03	
379	1.905000e+00	1.771865e+00	1.331351e-03	
380	1.910000e+00	1.773003e+00	1.369973e-03	
381	1.915000e+00	1.774118e+00	1.408816e-03	
382	1.920000e+00	1.775213e+00	1.447872e-03	
383	1.925000e+00	1.776287e+00	1.487133e-03	
384	1.930000e+00	1.777341e+00	1.526591e-03	
385	1.935000e+00	1.778376e+00	1.566239e-03	
386	1.940000e+00	1.779393e+00	1.606069e-03	
387	1.945000e+00	1.780392e+00	1.646076e-03	
388	1.950000e+00	1.781375e+00	1.686253e-03	
389	1.955000e+00	1.782341e+00	1.726594e-03	
390	1.960000e+00	1.783291e+00	1.767093e-03	
391	1.965000e+00	1.784225e+00	1.807745e-03	
392	1.970000e+00	1.785145e+00	1.848545e-03	
393	1.975000e+00	1.786051e+00	1.889488e-03	
394	1.980000e+00	1.786943e+00	1.930569e-03	
395	1.985000e+00	1.787822e+00	1.971784e-03	
396	1.990000e+00	1.788687e+00	2.013128e-03	
397	1.995000e+00	1.789540e+00	2.054597e-03	
398	2.000000e+00	1.790381e+00	2.096187e-03	
399	2.005000e+00	1.791210e+00	2.137895e-03	
400	2.010000e+00	1.792028e+00	2.179717e-03	
401	2.015000e+00	1.792835e+00	2.221649e-03	
402	2.020000e+00	1.793631e+00	2.263689e-03	

Index   v-sweep         v(10)           i(vred)         
--------------------------------------------------------------------------------
403	2.025000e+00	1.794417e+00	2.305832e-03	
404	2.030000e+00	1.795192e+00	2.348077e-03	
405	2.035000e+00	1.795958e+00	2.390420e-03	
406	2.040000e+00	1.796714e+00	2.432858e-03	
407	2.045000e+00	1.797461e+00	2.475388e-03	
408	2.050000e+00	1.798199e+00	2.518009e-03	
409	2.055000e+00	1.798928e+00	2.560717e-03	
410	2.060000e+00	1.799649e+00	2.603511e-03	
411	2.065000e+00	1.800361e+00	2.646387e-03	
412	2.070000e+00	1.801066e+00	2.689344e-03	
413	2.075000e+00	1.801762e+00	2.732379e-03	
414	2.080000e+00	1.802451e+00	2.775491e-03	
415	2.085000e+00	1.803132e+00	2.818678e-03	
416	2.090000e+00	1.803806e+00	2.861937e-03	
417	2.095000e+00	1.804473e+00	2.905267e-03	
418	2.100000e+00	1.805133e+00	2.948666e-03	
419	2.105000e+00	1.805787e+00	2.992132e-03	
420	2.110000e+00	1.806434e+00	3.035664e-03	
421	2.115000e+00	1.807074e+00	3.079261e-03	
422	2.120000e+00	1.807708e+00	3.122920e-03	
423	2.125000e+00	1.808336e+00	3.166640e-03	
424	2.130000e+00	1.808958e+00	3.210419e-03	
425	2.135000e+00	1.809574e+00	3.254257e-03	
