                     diode i-v characteristic and band gap
                     DC transfer characteristic  Wed Aug 10 19:45:34  2022
--------------------------------------------------------------------------------
Index   v-sweep         v(7)            i(vreg)         
--------------------------------------------------------------------------------
0	1.000000e-02	9.999861e-03	1.385989e-09	
1	1.500000e-02	1.499978e-02	2.190684e-09	
2	2.000000e-02	1.999969e-02	3.080443e-09	
3	2.500000e-02	2.499959e-02	4.064264e-09	
4	3.000000e-02	2.999948e-02	5.152091e-09	
5	3.500000e-02	3.499936e-02	6.354921e-09	
6	4.000000e-02	3.999923e-02	7.684911e-09	
7	4.500000e-02	4.499908e-02	9.155504e-09	
8	5.000000e-02	4.999892e-02	1.078156e-08	
9	5.500000e-02	5.499874e-02	1.257951e-08	
10	6.000000e-02	5.999854e-02	1.456753e-08	
11	6.500000e-02	6.499832e-02	1.676570e-08	
12	7.000000e-02	6.999808e-02	1.919622e-08	
13	7.500000e-02	7.499781e-02	2.188366e-08	
14	8.000000e-02	7.999751e-02	2.485515e-08	
15	8.500000e-02	8.499719e-02	2.814071e-08	
16	9.000000e-02	8.999682e-02	3.177352e-08	
17	9.500000e-02	9.499642e-02	3.579026e-08	
18	1.000000e-01	9.999598e-02	4.023149e-08	
19	1.050000e-01	1.049955e-01	4.514203e-08	
20	1.100000e-01	1.099949e-01	5.057146e-08	
21	1.150000e-01	1.149943e-01	5.657456e-08	
22	1.200000e-01	1.199937e-01	6.321190e-08	
23	1.250000e-01	1.249929e-01	7.055044e-08	
24	1.300000e-01	1.299921e-01	7.866421e-08	
25	1.350000e-01	1.349912e-01	8.763501e-08	
26	1.400000e-01	1.399902e-01	9.755328e-08	
27	1.450000e-01	1.449891e-01	1.085190e-07	
28	1.500000e-01	1.499879e-01	1.206426e-07	
29	1.550000e-01	1.549866e-01	1.340463e-07	
30	1.600000e-01	1.599851e-01	1.488651e-07	
31	1.650000e-01	1.649835e-01	1.652480e-07	
32	1.700000e-01	1.699817e-01	1.833600e-07	
33	1.750000e-01	1.749797e-01	2.033833e-07	
34	1.800000e-01	1.799774e-01	2.255191e-07	
35	1.850000e-01	1.849750e-01	2.499900e-07	
36	1.900000e-01	1.899723e-01	2.770417e-07	
37	1.950000e-01	1.949693e-01	3.069459e-07	
38	2.000000e-01	1.999660e-01	3.400026e-07	
39	2.050000e-01	2.049623e-01	3.765433e-07	
40	2.100000e-01	2.099583e-01	4.169340e-07	
41	2.150000e-01	2.149538e-01	4.615794e-07	
42	2.200000e-01	2.199489e-01	5.109259e-07	
43	2.250000e-01	2.249435e-01	5.654669e-07	
44	2.300000e-01	2.299374e-01	6.257471e-07	
45	2.350000e-01	2.349308e-01	6.923678e-07	
46	2.400000e-01	2.399234e-01	7.659928e-07	
47	2.450000e-01	2.449153e-01	8.473550e-07	
48	2.500000e-01	2.499063e-01	9.372631e-07	
49	2.550000e-01	2.548963e-01	1.036609e-06	
50	2.600000e-01	2.598854e-01	1.146378e-06	
51	2.650000e-01	2.648732e-01	1.267655e-06	
52	2.700000e-01	2.698598e-01	1.401638e-06	
53	2.750000e-01	2.748450e-01	1.549647e-06	
54	2.800000e-01	2.798287e-01	1.713137e-06	

Index   v-sweep         v(7)            i(vreg)         
--------------------------------------------------------------------------------
55	2.850000e-01	2.848106e-01	1.893712e-06	
56	2.900000e-01	2.897907e-01	2.093137e-06	
57	2.950000e-01	2.947687e-01	2.313357e-06	
58	3.000000e-01	2.997443e-01	2.556513e-06	
59	3.050000e-01	3.047175e-01	2.824962e-06	
60	3.100000e-01	3.096879e-01	3.121292e-06	
61	3.150000e-01	3.146552e-01	3.448352e-06	
62	3.200000e-01	3.196191e-01	3.809272e-06	
63	3.250000e-01	3.245793e-01	4.207485e-06	
64	3.300000e-01	3.295353e-01	4.646763e-06	
65	3.350000e-01	3.344869e-01	5.131238e-06	
66	3.400000e-01	3.394335e-01	5.665440e-06	
67	3.450000e-01	3.443746e-01	6.254329e-06	
68	3.500000e-01	3.493097e-01	6.903326e-06	
69	3.550000e-01	3.542382e-01	7.618358e-06	
70	3.600000e-01	3.591594e-01	8.405893e-06	
71	3.650000e-01	3.640727e-01	9.272982e-06	
72	3.700000e-01	3.689773e-01	1.022730e-05	
73	3.750000e-01	3.738723e-01	1.127719e-05	
74	3.800000e-01	3.787568e-01	1.243171e-05	
75	3.850000e-01	3.836299e-01	1.370068e-05	
76	3.900000e-01	3.884905e-01	1.509470e-05	
77	3.950000e-01	3.933375e-01	1.662524e-05	
78	4.000000e-01	3.981695e-01	1.830462e-05	
79	4.050000e-01	4.029854e-01	2.014611e-05	
80	4.100000e-01	4.077836e-01	2.216391e-05	
81	4.150000e-01	4.125627e-01	2.437318e-05	
82	4.200000e-01	4.173210e-01	2.679009e-05	
83	4.250000e-01	4.220568e-01	2.943179e-05	
84	4.300000e-01	4.267684e-01	3.231645e-05	
85	4.350000e-01	4.314537e-01	3.546319e-05	
86	4.400000e-01	4.361108e-01	3.889206e-05	
87	4.450000e-01	4.407376e-01	4.262404e-05	
88	4.500000e-01	4.453319e-01	4.668091e-05	
89	4.550000e-01	4.498915e-01	5.108521e-05	
90	4.600000e-01	4.544140e-01	5.586008e-05	
91	4.650000e-01	4.588971e-01	6.102921e-05	
92	4.700000e-01	4.633383e-01	6.661662e-05	
93	4.750000e-01	4.677353e-01	7.264654e-05	
94	4.800000e-01	4.720857e-01	7.914322e-05	
95	4.850000e-01	4.763869e-01	8.613071e-05	
96	4.900000e-01	4.806367e-01	9.363268e-05	
97	4.950000e-01	4.848328e-01	1.016722e-04	
98	5.000000e-01	4.889728e-01	1.102715e-04	
99	5.050000e-01	4.930548e-01	1.194519e-04	
100	5.100000e-01	4.970767e-01	1.292332e-04	
101	5.150000e-01	5.010366e-01	1.396341e-04	
102	5.200000e-01	5.049329e-01	1.506714e-04	
103	5.250000e-01	5.087640e-01	1.623603e-04	
104	5.300000e-01	5.125286e-01	1.747141e-04	
105	5.350000e-01	5.162256e-01	1.877442e-04	
106	5.400000e-01	5.198540e-01	2.014597e-04	
107	5.450000e-01	5.234132e-01	2.158678e-04	
108	5.500000e-01	5.269026e-01	2.309736e-04	
109	5.550000e-01	5.303220e-01	2.467801e-04	
110	5.600000e-01	5.336712e-01	2.632882e-04	
111	5.650000e-01	5.369503e-01	2.804970e-04	
112	5.700000e-01	5.401596e-01	2.984036e-04	

Index   v-sweep         v(7)            i(vreg)         
--------------------------------------------------------------------------------
113	5.750000e-01	5.432996e-01	3.170036e-04	
114	5.800000e-01	5.463709e-01	3.362908e-04	
115	5.850000e-01	5.493742e-01	3.562576e-04	
116	5.900000e-01	5.523105e-01	3.768951e-04	
117	5.950000e-01	5.551807e-01	3.981931e-04	
118	6.000000e-01	5.579859e-01	4.201405e-04	
119	6.050000e-01	5.607275e-01	4.427254e-04	
120	6.100000e-01	5.634065e-01	4.659349e-04	
121	6.150000e-01	5.660244e-01	4.897558e-04	
122	6.200000e-01	5.685826e-01	5.141741e-04	
123	6.250000e-01	5.710824e-01	5.391756e-04	
124	6.300000e-01	5.735254e-01	5.647459e-04	
125	6.350000e-01	5.759130e-01	5.908701e-04	
126	6.400000e-01	5.782466e-01	6.175337e-04	
127	6.450000e-01	5.805278e-01	6.447217e-04	
128	6.500000e-01	5.827580e-01	6.724196e-04	
129	6.550000e-01	5.849387e-01	7.006126e-04	
130	6.600000e-01	5.870714e-01	7.292864e-04	
131	6.650000e-01	5.891573e-01	7.584268e-04	
132	6.700000e-01	5.911980e-01	7.880197e-04	
133	6.750000e-01	5.931949e-01	8.180514e-04	
134	6.800000e-01	5.951491e-01	8.485087e-04	
135	6.850000e-01	5.970622e-01	8.793783e-04	
136	6.900000e-01	5.989352e-01	9.106475e-04	
137	6.950000e-01	6.007696e-01	9.423040e-04	
138	7.000000e-01	6.025664e-01	9.743357e-04	
139	7.050000e-01	6.043269e-01	1.006731e-03	
140	7.100000e-01	6.060522e-01	1.039478e-03	
141	7.150000e-01	6.077433e-01	1.072567e-03	
142	7.200000e-01	6.094014e-01	1.105986e-03	
143	7.250000e-01	6.110275e-01	1.139725e-03	
144	7.300000e-01	6.126225e-01	1.173775e-03	
145	7.350000e-01	6.141874e-01	1.208126e-03	
146	7.400000e-01	6.157232e-01	1.242768e-03	
147	7.450000e-01	6.172308e-01	1.277692e-03	
148	7.500000e-01	6.187109e-01	1.312891e-03	
149	7.550000e-01	6.201645e-01	1.348355e-03	
150	7.600000e-01	6.215922e-01	1.384078e-03	
151	7.650000e-01	6.229950e-01	1.420050e-03	
152	7.700000e-01	6.243736e-01	1.456264e-03	
153	7.750000e-01	6.257286e-01	1.492714e-03	
154	7.800000e-01	6.270608e-01	1.529392e-03	
155	7.850000e-01	6.283708e-01	1.566292e-03	
156	7.900000e-01	6.296592e-01	1.603408e-03	
157	7.950000e-01	6.309267e-01	1.640733e-03	
158	8.000000e-01	6.321740e-01	1.678260e-03	
159	8.050000e-01	6.334014e-01	1.715986e-03	
160	8.100000e-01	6.346097e-01	1.753903e-03	
161	8.150000e-01	6.357993e-01	1.792007e-03	
162	8.200000e-01	6.369708e-01	1.830292e-03	
163	8.250000e-01	6.381246e-01	1.868754e-03	
164	8.300000e-01	6.392613e-01	1.907387e-03	
165	8.350000e-01	6.403812e-01	1.946188e-03	
166	8.400000e-01	6.414849e-01	1.985151e-03	
167	8.450000e-01	6.425728e-01	2.024272e-03	
168	8.500000e-01	6.436452e-01	2.063548e-03	
169	8.550000e-01	6.447026e-01	2.102974e-03	
170	8.600000e-01	6.457454e-01	2.142546e-03	

Index   v-sweep         v(7)            i(vreg)         
--------------------------------------------------------------------------------
171	8.650000e-01	6.467739e-01	2.182261e-03	
172	8.700000e-01	6.477886e-01	2.222114e-03	
173	8.750000e-01	6.487897e-01	2.262103e-03	
174	8.800000e-01	6.497775e-01	2.302225e-03	
175	8.850000e-01	6.507525e-01	2.342475e-03	
176	8.900000e-01	6.517149e-01	2.382851e-03	
177	8.950000e-01	6.526651e-01	2.423349e-03	
178	9.000000e-01	6.536032e-01	2.463968e-03	
179	9.050000e-01	6.545297e-01	2.504703e-03	
180	9.100000e-01	6.554448e-01	2.545552e-03	
181	9.150000e-01	6.563487e-01	2.586513e-03	
182	9.200000e-01	6.572417e-01	2.627583e-03	
183	9.250000e-01	6.581241e-01	2.668759e-03	
184	9.300000e-01	6.589960e-01	2.710040e-03	
185	9.350000e-01	6.598578e-01	2.751422e-03	
186	9.400000e-01	6.607097e-01	2.792903e-03	
187	9.450000e-01	6.615519e-01	2.834481e-03	
188	9.500000e-01	6.623845e-01	2.876155e-03	
189	9.550000e-01	6.632078e-01	2.917922e-03	
190	9.600000e-01	6.640221e-01	2.959779e-03	
191	9.650000e-01	6.648274e-01	3.001726e-03	
192	9.700000e-01	6.656240e-01	3.043760e-03	
193	9.750000e-01	6.664121e-01	3.085879e-03	
194	9.800000e-01	6.671918e-01	3.128082e-03	
195	9.850000e-01	6.679634e-01	3.170366e-03	
196	9.900000e-01	6.687269e-01	3.212731e-03	
197	9.950000e-01	6.694826e-01	3.255174e-03	
198	1.000000e+00	6.702305e-01	3.297695e-03	
199	1.005000e+00	6.709710e-01	3.340290e-03	
200	1.010000e+00	6.717040e-01	3.382960e-03	
201	1.015000e+00	6.724298e-01	3.425702e-03	
202	1.020000e+00	6.731485e-01	3.468515e-03	
203	1.025000e+00	6.738602e-01	3.511398e-03	
204	1.030000e+00	6.745651e-01	3.554349e-03	
205	1.035000e+00	6.752632e-01	3.597368e-03	
206	1.040000e+00	6.759548e-01	3.640452e-03	
207	1.045000e+00	6.766400e-01	3.683600e-03	
208	1.050000e+00	6.773188e-01	3.726812e-03	
209	1.055000e+00	6.779913e-01	3.770087e-03	
210	1.060000e+00	6.786578e-01	3.813422e-03	
211	1.065000e+00	6.793183e-01	3.856817e-03	
212	1.070000e+00	6.799728e-01	3.900272e-03	
213	1.075000e+00	6.806216e-01	3.943784e-03	
214	1.080000e+00	6.812647e-01	3.987353e-03	
215	1.085000e+00	6.819023e-01	4.030977e-03	
216	1.090000e+00	6.825343e-01	4.074657e-03	
217	1.095000e+00	6.831610e-01	4.118390e-03	
218	1.100000e+00	6.837823e-01	4.162177e-03	
219	1.105000e+00	6.843985e-01	4.206015e-03	
220	1.110000e+00	6.850095e-01	4.249905e-03	
221	1.115000e+00	6.856155e-01	4.293845e-03	
222	1.120000e+00	6.862165e-01	4.337835e-03	
223	1.125000e+00	6.868127e-01	4.381873e-03	
224	1.130000e+00	6.874041e-01	4.425959e-03	
225	1.135000e+00	6.879907e-01	4.470093e-03	
226	1.140000e+00	6.885728e-01	4.514272e-03	
227	1.145000e+00	6.891502e-01	4.558498e-03	
228	1.150000e+00	6.897232e-01	4.602768e-03	

Index   v-sweep         v(7)            i(vreg)         
--------------------------------------------------------------------------------
229	1.155000e+00	6.902918e-01	4.647082e-03	
230	1.160000e+00	6.908560e-01	4.691440e-03	
231	1.165000e+00	6.914159e-01	4.735841e-03	
232	1.170000e+00	6.919716e-01	4.780284e-03	
233	1.175000e+00	6.925232e-01	4.824768e-03	
234	1.180000e+00	6.930707e-01	4.869293e-03	
235	1.185000e+00	6.936142e-01	4.913858e-03	
236	1.190000e+00	6.941537e-01	4.958463e-03	
237	1.195000e+00	6.946893e-01	5.003107e-03	
238	1.200000e+00	6.952210e-01	5.047790e-03	
239	1.205000e+00	6.957490e-01	5.092510e-03	
240	1.210000e+00	6.962732e-01	5.137268e-03	
241	1.215000e+00	6.967938e-01	5.182062e-03	
242	1.220000e+00	6.973107e-01	5.226893e-03	
243	1.225000e+00	6.978240e-01	5.271760e-03	
244	1.230000e+00	6.983338e-01	5.316662e-03	
245	1.235000e+00	6.988402e-01	5.361598e-03	
246	1.240000e+00	6.993431e-01	5.406569e-03	
247	1.245000e+00	6.998427e-01	5.451573e-03	
248	1.250000e+00	7.003389e-01	5.496611e-03	
249	1.255000e+00	7.008318e-01	5.541682e-03	
250	1.260000e+00	7.013215e-01	5.586785e-03	
251	1.265000e+00	7.018080e-01	5.631920e-03	
252	1.270000e+00	7.022913e-01	5.677087e-03	
253	1.275000e+00	7.027716e-01	5.722284e-03	
254	1.280000e+00	7.032488e-01	5.767512e-03	
255	1.285000e+00	7.037229e-01	5.812771e-03	
256	1.290000e+00	7.041941e-01	5.858059e-03	
257	1.295000e+00	7.046623e-01	5.903377e-03	
258	1.300000e+00	7.051276e-01	5.948724e-03	
259	1.305000e+00	7.055900e-01	5.994100e-03	
260	1.310000e+00	7.060496e-01	6.039504e-03	
261	1.315000e+00	7.065064e-01	6.084936e-03	
262	1.320000e+00	7.069604e-01	6.130396e-03	
263	1.325000e+00	7.074117e-01	6.175883e-03	
264	1.330000e+00	7.078604e-01	6.221396e-03	
265	1.335000e+00	7.083063e-01	6.266937e-03	
266	1.340000e+00	7.087496e-01	6.312504e-03	
267	1.345000e+00	7.091904e-01	6.358096e-03	
268	1.350000e+00	7.096285e-01	6.403715e-03	
269	1.355000e+00	7.100642e-01	6.449358e-03	
270	1.360000e+00	7.104973e-01	6.495027e-03	
271	1.365000e+00	7.109280e-01	6.540720e-03	
272	1.370000e+00	7.113562e-01	6.586438e-03	
273	1.375000e+00	7.117821e-01	6.632179e-03	
274	1.380000e+00	7.122055e-01	6.677945e-03	
275	1.385000e+00	7.126266e-01	6.723734e-03	
276	1.390000e+00	7.130453e-01	6.769547e-03	
277	1.395000e+00	7.134618e-01	6.815382e-03	
278	1.400000e+00	7.138760e-01	6.861240e-03	
279	1.405000e+00	7.142879e-01	6.907121e-03	
280	1.410000e+00	7.146977e-01	6.953023e-03	
281	1.415000e+00	7.151052e-01	6.998948e-03	
282	1.420000e+00	7.155105e-01	7.044895e-03	
283	1.425000e+00	7.159137e-01	7.090863e-03	
284	1.430000e+00	7.163148e-01	7.136852e-03	
285	1.435000e+00	7.167138e-01	7.182862e-03	
286	1.440000e+00	7.171107e-01	7.228893e-03	

Index   v-sweep         v(7)            i(vreg)         
--------------------------------------------------------------------------------
287	1.445000e+00	7.175056e-01	7.274944e-03	
288	1.450000e+00	7.178984e-01	7.321016e-03	
289	1.455000e+00	7.182893e-01	7.367107e-03	
290	1.460000e+00	7.186781e-01	7.413219e-03	
291	1.465000e+00	7.190650e-01	7.459350e-03	
292	1.470000e+00	7.194499e-01	7.505501e-03	
293	1.475000e+00	7.198329e-01	7.551671e-03	
294	1.480000e+00	7.202140e-01	7.597860e-03	
295	1.485000e+00	7.205933e-01	7.644067e-03	
296	1.490000e+00	7.209706e-01	7.690294e-03	
297	1.495000e+00	7.213462e-01	7.736538e-03	
298	1.500000e+00	7.217199e-01	7.782801e-03	
299	1.505000e+00	7.220918e-01	7.829082e-03	
300	1.510000e+00	7.224619e-01	7.875381e-03	
301	1.515000e+00	7.228302e-01	7.921698e-03	
302	1.520000e+00	7.231968e-01	7.968032e-03	
303	1.525000e+00	7.235617e-01	8.014383e-03	
304	1.530000e+00	7.239249e-01	8.060751e-03	
305	1.535000e+00	7.242863e-01	8.107137e-03	
306	1.540000e+00	7.246461e-01	8.153539e-03	
307	1.545000e+00	7.250043e-01	8.199957e-03	
308	1.550000e+00	7.253607e-01	8.246393e-03	
309	1.555000e+00	7.257156e-01	8.292844e-03	
310	1.560000e+00	7.260688e-01	8.339312e-03	
311	1.565000e+00	7.264205e-01	8.385795e-03	
312	1.570000e+00	7.267705e-01	8.432295e-03	
313	1.575000e+00	7.271190e-01	8.478810e-03	
314	1.580000e+00	7.274659e-01	8.525341e-03	
315	1.585000e+00	7.278113e-01	8.571887e-03	
316	1.590000e+00	7.281552e-01	8.618448e-03	
317	1.595000e+00	7.284976e-01	8.665024e-03	
318	1.600000e+00	7.288385e-01	8.711615e-03	
319	1.605000e+00	7.291779e-01	8.758221e-03	
320	1.610000e+00	7.295158e-01	8.804842e-03	
321	1.615000e+00	7.298523e-01	8.851477e-03	
322	1.620000e+00	7.301874e-01	8.898126e-03	
323	1.625000e+00	7.305210e-01	8.944790e-03	
324	1.630000e+00	7.308532e-01	8.991468e-03	
325	1.635000e+00	7.311840e-01	9.038160e-03	
326	1.640000e+00	7.315134e-01	9.084866e-03	
327	1.645000e+00	7.318415e-01	9.131585e-03	
328	1.650000e+00	7.321682e-01	9.178318e-03	
329	1.655000e+00	7.324935e-01	9.225065e-03	
330	1.660000e+00	7.328176e-01	9.271824e-03	
331	1.665000e+00	7.331402e-01	9.318598e-03	
332	1.670000e+00	7.334616e-01	9.365384e-03	
333	1.675000e+00	7.337817e-01	9.412183e-03	
334	1.680000e+00	7.341005e-01	9.458995e-03	
335	1.685000e+00	7.344180e-01	9.505820e-03	
336	1.690000e+00	7.347342e-01	9.552658e-03	
337	1.695000e+00	7.350492e-01	9.599508e-03	
338	1.700000e+00	7.353630e-01	9.646370e-03	
339	1.705000e+00	7.356755e-01	9.693245e-03	
340	1.710000e+00	7.359867e-01	9.740133e-03	
341	1.715000e+00	7.362968e-01	9.787032e-03	
342	1.720000e+00	7.366057e-01	9.833943e-03	
343	1.725000e+00	7.369134e-01	9.880866e-03	
344	1.730000e+00	7.372198e-01	9.927802e-03	

Index   v-sweep         v(7)            i(vreg)         
--------------------------------------------------------------------------------
345	1.735000e+00	7.375252e-01	9.974748e-03	
346	1.740000e+00	7.378293e-01	1.002171e-02	
347	1.745000e+00	7.381323e-01	1.006868e-02	
348	1.750000e+00	7.384342e-01	1.011566e-02	
349	1.755000e+00	7.387349e-01	1.016265e-02	
350	1.760000e+00	7.390345e-01	1.020965e-02	
351	1.765000e+00	7.393330e-01	1.025667e-02	
352	1.770000e+00	7.396304e-01	1.030370e-02	
353	1.775000e+00	7.399267e-01	1.035073e-02	
354	1.780000e+00	7.402219e-01	1.039778e-02	
355	1.785000e+00	7.405160e-01	1.044484e-02	
356	1.790000e+00	7.408090e-01	1.049191e-02	
357	1.795000e+00	7.411010e-01	1.053899e-02	
358	1.800000e+00	7.413919e-01	1.058608e-02	
359	1.805000e+00	7.416818e-01	1.063318e-02	
360	1.810000e+00	7.419707e-01	1.068029e-02	
361	1.815000e+00	7.422585e-01	1.072742e-02	
362	1.820000e+00	7.425453e-01	1.077455e-02	
363	1.825000e+00	7.428311e-01	1.082169e-02	
364	1.830000e+00	7.431159e-01	1.086884e-02	
365	1.835000e+00	7.433996e-01	1.091600e-02	
366	1.840000e+00	7.436824e-01	1.096318e-02	
367	1.845000e+00	7.439643e-01	1.101036e-02	
368	1.850000e+00	7.442451e-01	1.105755e-02	
369	1.855000e+00	7.445250e-01	1.110475e-02	
370	1.860000e+00	7.448039e-01	1.115196e-02	
371	1.865000e+00	7.450818e-01	1.119918e-02	
372	1.870000e+00	7.453589e-01	1.124641e-02	
373	1.875000e+00	7.456349e-01	1.129365e-02	
374	1.880000e+00	7.459101e-01	1.134090e-02	
375	1.885000e+00	7.461843e-01	1.138816e-02	
376	1.890000e+00	7.464576e-01	1.143542e-02	
377	1.895000e+00	7.467300e-01	1.148270e-02	
378	1.900000e+00	7.470015e-01	1.152998e-02	
379	1.905000e+00	7.472721e-01	1.157728e-02	
380	1.910000e+00	7.475418e-01	1.162458e-02	
381	1.915000e+00	7.478106e-01	1.167189e-02	
382	1.920000e+00	7.480786e-01	1.171921e-02	
383	1.925000e+00	7.483457e-01	1.176654e-02	
384	1.930000e+00	7.486119e-01	1.181388e-02	
385	1.935000e+00	7.488772e-01	1.186123e-02	
386	1.940000e+00	7.491417e-01	1.190858e-02	
387	1.945000e+00	7.494054e-01	1.195595e-02	
388	1.950000e+00	7.496682e-01	1.200332e-02	
389	1.955000e+00	7.499302e-01	1.205070e-02	
390	1.960000e+00	7.501913e-01	1.209809e-02	
391	1.965000e+00	7.504517e-01	1.214548e-02	
392	1.970000e+00	7.507112e-01	1.219289e-02	
393	1.975000e+00	7.509699e-01	1.224030e-02	
394	1.980000e+00	7.512278e-01	1.228772e-02	
395	1.985000e+00	7.514849e-01	1.233515e-02	
396	1.990000e+00	7.517412e-01	1.238259e-02	
397	1.995000e+00	7.519967e-01	1.243003e-02	
398	2.000000e+00	7.522514e-01	1.247749e-02	
399	2.005000e+00	7.525054e-01	1.252495e-02	
400	2.010000e+00	7.527586e-01	1.257241e-02	
401	2.015000e+00	7.530110e-01	1.261989e-02	
402	2.020000e+00	7.532626e-01	1.266737e-02	

Index   v-sweep         v(7)            i(vreg)         
--------------------------------------------------------------------------------
403	2.025000e+00	7.535135e-01	1.271486e-02	
404	2.030000e+00	7.537637e-01	1.276236e-02	
405	2.035000e+00	7.540131e-01	1.280987e-02	
406	2.040000e+00	7.542617e-01	1.285738e-02	
407	2.045000e+00	7.545097e-01	1.290490e-02	
408	2.050000e+00	7.547568e-01	1.295243e-02	
409	2.055000e+00	7.550033e-01	1.299997e-02	
410	2.060000e+00	7.552490e-01	1.304751e-02	
411	2.065000e+00	7.554941e-01	1.309506e-02	
412	2.070000e+00	7.557384e-01	1.314262e-02	
413	2.075000e+00	7.559820e-01	1.319018e-02	
414	2.080000e+00	7.562249e-01	1.323775e-02	
415	2.085000e+00	7.564671e-01	1.328533e-02	
416	2.090000e+00	7.567086e-01	1.333291e-02	
417	2.095000e+00	7.569494e-01	1.338051e-02	
418	2.100000e+00	7.571895e-01	1.342810e-02	
419	2.105000e+00	7.574290e-01	1.347571e-02	
420	2.110000e+00	7.576678e-01	1.352332e-02	
421	2.115000e+00	7.579059e-01	1.357094e-02	
422	2.120000e+00	7.581433e-01	1.361857e-02	
423	2.125000e+00	7.583801e-01	1.366620e-02	
424	2.130000e+00	7.586162e-01	1.371384e-02	
425	2.135000e+00	7.588516e-01	1.376148e-02	
