                     diode i-v characteristic and band gap
                     DC transfer characteristic  Wed Aug 10 19:45:34  2022
--------------------------------------------------------------------------------
Index   v-sweep         v(11)           i(vwhite)       
--------------------------------------------------------------------------------
0	1.000000e-02	1.000000e-02	1.013068e-14	
1	1.500000e-02	1.500000e-02	1.520114e-14	
2	2.000000e-02	2.000000e-02	2.027504e-14	
3	2.500000e-02	2.500000e-02	2.535250e-14	
4	3.000000e-02	3.000000e-02	3.043355e-14	
5	3.500000e-02	3.500000e-02	3.551911e-14	
6	4.000000e-02	4.000000e-02	4.060836e-14	
7	4.500000e-02	4.500000e-02	4.570259e-14	
8	5.000000e-02	5.000000e-02	5.080062e-14	
9	5.500000e-02	5.500000e-02	5.590548e-14	
10	6.000000e-02	6.000000e-02	6.101424e-14	
11	6.500000e-02	6.500000e-02	6.612874e-14	
12	7.000000e-02	7.000000e-02	7.124704e-14	
13	7.500000e-02	7.500000e-02	7.637489e-14	
14	8.000000e-02	8.000000e-02	8.150577e-14	
15	8.500000e-02	8.500000e-02	8.664488e-14	
16	9.000000e-02	9.000000e-02	9.178834e-14	
17	9.500000e-02	9.500000e-02	9.694274e-14	
18	1.000000e-01	1.000000e-01	1.021032e-13	
19	1.050000e-01	1.050000e-01	1.072694e-13	
20	1.100000e-01	1.100000e-01	1.124472e-13	
21	1.150000e-01	1.150000e-01	1.176336e-13	
22	1.200000e-01	1.200000e-01	1.228249e-13	
23	1.250000e-01	1.250000e-01	1.280315e-13	
24	1.300000e-01	1.300000e-01	1.332452e-13	
25	1.350000e-01	1.350000e-01	1.384697e-13	
26	1.400000e-01	1.400000e-01	1.437062e-13	
27	1.450000e-01	1.450000e-01	1.489540e-13	
28	1.500000e-01	1.500000e-01	1.542150e-13	
29	1.550000e-01	1.550000e-01	1.594887e-13	
30	1.600000e-01	1.600000e-01	1.647729e-13	
31	1.650000e-01	1.650000e-01	1.700740e-13	
32	1.700000e-01	1.700000e-01	1.753910e-13	
33	1.750000e-01	1.750000e-01	1.807192e-13	
34	1.800000e-01	1.800000e-01	1.860697e-13	
35	1.850000e-01	1.850000e-01	1.914376e-13	
36	1.900000e-01	1.900000e-01	1.968172e-13	
37	1.950000e-01	1.950000e-01	2.022169e-13	
38	2.000000e-01	2.000000e-01	2.076425e-13	
39	2.050000e-01	2.050000e-01	2.130874e-13	
40	2.100000e-01	2.100000e-01	2.185504e-13	
41	2.150000e-01	2.150000e-01	2.240395e-13	
42	2.200000e-01	2.200000e-01	2.295551e-13	
43	2.250000e-01	2.250000e-01	2.350884e-13	
44	2.300000e-01	2.300000e-01	2.406521e-13	
45	2.350000e-01	2.350000e-01	2.462427e-13	
46	2.400000e-01	2.400000e-01	2.518671e-13	
47	2.450000e-01	2.450000e-01	2.575171e-13	
48	2.500000e-01	2.500000e-01	2.632070e-13	
49	2.550000e-01	2.550000e-01	2.689264e-13	
50	2.600000e-01	2.600000e-01	2.746774e-13	
51	2.650000e-01	2.650000e-01	2.804753e-13	
52	2.700000e-01	2.700000e-01	2.863044e-13	
53	2.750000e-01	2.750000e-01	2.921756e-13	
54	2.800000e-01	2.800000e-01	2.980957e-13	

Index   v-sweep         v(11)           i(vwhite)       
--------------------------------------------------------------------------------
55	2.850000e-01	2.850000e-01	3.040589e-13	
56	2.900000e-01	2.900000e-01	3.100649e-13	
57	2.950000e-01	2.950000e-01	3.161330e-13	
58	3.000000e-01	3.000000e-01	3.222422e-13	
59	3.050000e-01	3.050000e-01	3.284087e-13	
60	3.100000e-01	3.100000e-01	3.346269e-13	
61	3.150000e-01	3.150000e-01	3.409252e-13	
62	3.200000e-01	3.200000e-01	3.472760e-13	
63	3.250000e-01	3.250000e-01	3.536824e-13	
64	3.300000e-01	3.300000e-01	3.601750e-13	
65	3.350000e-01	3.350000e-01	3.667349e-13	
66	3.400000e-01	3.400000e-01	3.733767e-13	
67	3.450000e-01	3.450000e-01	3.800909e-13	
68	3.500000e-01	3.500000e-01	3.869023e-13	
69	3.550000e-01	3.550000e-01	3.938000e-13	
70	3.600000e-01	3.600000e-01	4.007888e-13	
71	3.650000e-01	3.650000e-01	4.078760e-13	
72	3.700000e-01	3.700000e-01	4.150751e-13	
73	3.750000e-01	3.750000e-01	4.223627e-13	
74	3.800000e-01	3.800000e-01	4.297821e-13	
75	3.850000e-01	3.850000e-01	4.373168e-13	
76	3.900000e-01	3.900000e-01	4.449835e-13	
77	3.950000e-01	3.950000e-01	4.527706e-13	
78	4.000000e-01	4.000000e-01	4.606975e-13	
79	4.050000e-01	4.050000e-01	4.687830e-13	
80	4.100000e-01	4.100000e-01	4.770117e-13	
81	4.150000e-01	4.150000e-01	4.854069e-13	
82	4.200000e-01	4.200000e-01	4.939660e-13	
83	4.250000e-01	4.250000e-01	5.026960e-13	
84	4.300000e-01	4.300000e-01	5.116203e-13	
85	4.350000e-01	4.350000e-01	5.207336e-13	
86	4.400000e-01	4.400000e-01	5.300526e-13	
87	4.450000e-01	4.450000e-01	5.395883e-13	
88	4.500000e-01	4.500000e-01	5.493479e-13	
89	4.550000e-01	4.550000e-01	5.593442e-13	
90	4.600000e-01	4.600000e-01	5.695878e-13	
91	4.650000e-01	4.650000e-01	5.800933e-13	
92	4.700000e-01	4.700000e-01	5.908668e-13	
93	4.750000e-01	4.750000e-01	6.019256e-13	
94	4.800000e-01	4.800000e-01	6.132846e-13	
95	4.850000e-01	4.850000e-01	6.249818e-13	
96	4.900000e-01	4.900000e-01	6.369861e-13	
97	4.950000e-01	4.950000e-01	6.493478e-13	
98	5.000000e-01	5.000000e-01	6.620642e-13	
99	5.050000e-01	5.050000e-01	6.751735e-13	
100	5.100000e-01	5.100000e-01	6.886982e-13	
101	5.150000e-01	5.150000e-01	7.026177e-13	
102	5.200000e-01	5.200000e-01	7.170124e-13	
103	5.250000e-01	5.250000e-01	7.318573e-13	
104	5.300000e-01	5.300000e-01	7.471758e-13	
105	5.350000e-01	5.350000e-01	7.630346e-13	
106	5.400000e-01	5.400000e-01	7.794095e-13	
107	5.450000e-01	5.450000e-01	7.963534e-13	
108	5.500000e-01	5.500000e-01	8.138976e-13	
109	5.550000e-01	5.550000e-01	8.320584e-13	
110	5.600000e-01	5.600000e-01	8.508706e-13	
111	5.650000e-01	5.650000e-01	8.703689e-13	
112	5.700000e-01	5.700000e-01	8.906062e-13	

Index   v-sweep         v(11)           i(vwhite)       
--------------------------------------------------------------------------------
113	5.750000e-01	5.750000e-01	9.115850e-13	
114	5.800000e-01	5.800000e-01	9.333428e-13	
115	5.850000e-01	5.850000e-01	9.559636e-13	
116	5.900000e-01	5.900000e-01	9.794309e-13	
117	5.950000e-01	5.950000e-01	1.003829e-12	
118	6.000000e-01	6.000000e-01	1.029195e-12	
119	6.050000e-01	6.050000e-01	1.055566e-12	
120	6.100000e-01	6.100000e-01	1.083001e-12	
121	6.150000e-01	6.150000e-01	1.111536e-12	
122	6.200000e-01	6.200000e-01	1.141256e-12	
123	6.250000e-01	6.250000e-01	1.172184e-12	
124	6.300000e-01	6.300000e-01	1.204422e-12	
125	6.350000e-01	6.350000e-01	1.237997e-12	
126	6.400000e-01	6.400000e-01	1.272994e-12	
127	6.450000e-01	6.450000e-01	1.309482e-12	
128	6.500000e-01	6.500000e-01	1.347522e-12	
129	6.550000e-01	6.550000e-01	1.387233e-12	
130	6.600000e-01	6.600000e-01	1.428626e-12	
131	6.650000e-01	6.650000e-01	1.471863e-12	
132	6.700000e-01	6.700000e-01	1.516971e-12	
133	6.750000e-01	6.750000e-01	1.564078e-12	
134	6.800000e-01	6.800000e-01	1.613266e-12	
135	6.850000e-01	6.850000e-01	1.664679e-12	
136	6.900000e-01	6.900000e-01	1.718375e-12	
137	6.950000e-01	6.950000e-01	1.774479e-12	
138	7.000000e-01	7.000000e-01	1.833133e-12	
139	7.050000e-01	7.050000e-01	1.894455e-12	
140	7.100000e-01	7.100000e-01	1.958564e-12	
141	7.150000e-01	7.150000e-01	2.025598e-12	
142	7.200000e-01	7.200000e-01	2.095738e-12	
143	7.250000e-01	7.250000e-01	2.169077e-12	
144	7.300000e-01	7.300000e-01	2.245824e-12	
145	7.350000e-01	7.350000e-01	2.326146e-12	
146	7.400000e-01	7.400000e-01	2.410202e-12	
147	7.450000e-01	7.450000e-01	2.498170e-12	
148	7.500000e-01	7.500000e-01	2.590269e-12	
149	7.550000e-01	7.550000e-01	2.686692e-12	
150	7.600000e-01	7.600000e-01	2.787647e-12	
151	7.650000e-01	7.650000e-01	2.893377e-12	
152	7.700000e-01	7.700000e-01	3.004083e-12	
153	7.750000e-01	7.750000e-01	3.120067e-12	
154	7.800000e-01	7.800000e-01	3.241534e-12	
155	7.850000e-01	7.850000e-01	3.368790e-12	
156	7.900000e-01	7.900000e-01	3.502110e-12	
157	7.950000e-01	7.950000e-01	3.641823e-12	
158	8.000000e-01	8.000000e-01	3.788192e-12	
159	8.050000e-01	8.050000e-01	3.941614e-12	
160	8.100000e-01	8.100000e-01	4.102385e-12	
161	8.150000e-01	8.150000e-01	4.270875e-12	
162	8.200000e-01	8.200000e-01	4.447501e-12	
163	8.250000e-01	8.250000e-01	4.632641e-12	
164	8.300000e-01	8.300000e-01	4.826710e-12	
165	8.350000e-01	8.350000e-01	5.030172e-12	
166	8.400000e-01	8.400000e-01	5.243517e-12	
167	8.450000e-01	8.450000e-01	5.467172e-12	
168	8.500000e-01	8.500000e-01	5.701682e-12	
169	8.550000e-01	8.550000e-01	5.947604e-12	
170	8.600000e-01	8.600000e-01	6.205482e-12	

Index   v-sweep         v(11)           i(vwhite)       
--------------------------------------------------------------------------------
171	8.650000e-01	8.650000e-01	6.475879e-12	
172	8.700000e-01	8.700000e-01	6.759489e-12	
173	8.750000e-01	8.750000e-01	7.056923e-12	
174	8.800000e-01	8.800000e-01	7.368862e-12	
175	8.850000e-01	8.850000e-01	7.696049e-12	
176	8.900000e-01	8.900000e-01	8.039226e-12	
177	8.950000e-01	8.950000e-01	8.399181e-12	
178	9.000000e-01	9.000000e-01	8.776764e-12	
179	9.050000e-01	9.050000e-01	9.172850e-12	
180	9.100000e-01	9.100000e-01	9.588358e-12	
181	9.150000e-01	9.150000e-01	1.002423e-11	
182	9.200000e-01	9.200000e-01	1.048148e-11	
183	9.250000e-01	9.250000e-01	1.096122e-11	
184	9.300000e-01	9.300000e-01	1.146450e-11	
185	9.350000e-01	9.350000e-01	1.199251e-11	
186	9.400000e-01	9.400000e-01	1.254649e-11	
187	9.450000e-01	9.450000e-01	1.312773e-11	
188	9.500000e-01	9.500000e-01	1.373755e-11	
189	9.550000e-01	9.550000e-01	1.437741e-11	
190	9.600000e-01	9.600000e-01	1.504881e-11	
191	9.650000e-01	9.650000e-01	1.575325e-11	
192	9.700000e-01	9.700000e-01	1.649244e-11	
193	9.750000e-01	9.750000e-01	1.726808e-11	
194	9.800000e-01	9.800000e-01	1.808196e-11	
195	9.850000e-01	9.850000e-01	1.893598e-11	
196	9.900000e-01	9.900000e-01	1.983217e-11	
197	9.950000e-01	9.950000e-01	2.077262e-11	
198	1.000000e+00	1.000000e+00	2.175946e-11	
199	1.005000e+00	1.005000e+00	2.279509e-11	
200	1.010000e+00	1.010000e+00	2.388183e-11	
201	1.015000e+00	1.015000e+00	2.502229e-11	
202	1.020000e+00	1.020000e+00	2.621913e-11	
203	1.025000e+00	1.025000e+00	2.747512e-11	
204	1.030000e+00	1.030000e+00	2.879322e-11	
205	1.035000e+00	1.035000e+00	3.017650e-11	
206	1.040000e+00	1.040000e+00	3.162822e-11	
207	1.045000e+00	1.045000e+00	3.315173e-11	
208	1.050000e+00	1.050000e+00	3.475066e-11	
209	1.055000e+00	1.055000e+00	3.642868e-11	
210	1.060000e+00	1.060000e+00	3.818975e-11	
211	1.065000e+00	1.065000e+00	4.003803e-11	
212	1.070000e+00	1.070000e+00	4.197780e-11	
213	1.075000e+00	1.075000e+00	4.401360e-11	
214	1.080000e+00	1.080000e+00	4.615022e-11	
215	1.085000e+00	1.085000e+00	4.839263e-11	
216	1.090000e+00	1.090000e+00	5.074615e-11	
217	1.095000e+00	1.095000e+00	5.321627e-11	
218	1.100000e+00	1.100000e+00	5.580872e-11	
219	1.105000e+00	1.105000e+00	5.852962e-11	
220	1.110000e+00	1.110000e+00	6.138537e-11	
221	1.115000e+00	1.115000e+00	6.438261e-11	
222	1.120000e+00	1.120000e+00	6.752841e-11	
223	1.125000e+00	1.125000e+00	7.083012e-11	
224	1.130000e+00	1.130000e+00	7.429548e-11	
225	1.135000e+00	1.135000e+00	7.793262e-11	
226	1.140000e+00	1.140000e+00	8.175006e-11	
227	1.145000e+00	1.145000e+00	8.575679e-11	
228	1.150000e+00	1.150000e+00	8.996213e-11	

Index   v-sweep         v(11)           i(vwhite)       
--------------------------------------------------------------------------------
229	1.155000e+00	1.155000e+00	9.437602e-11	
230	1.160000e+00	1.160000e+00	9.900874e-11	
231	1.165000e+00	1.165000e+00	1.038712e-10	
232	1.170000e+00	1.170000e+00	1.089748e-10	
233	1.175000e+00	1.175000e+00	1.143315e-10	
234	1.180000e+00	1.180000e+00	1.199539e-10	
235	1.185000e+00	1.185000e+00	1.258551e-10	
236	1.190000e+00	1.190000e+00	1.320490e-10	
237	1.195000e+00	1.195000e+00	1.385502e-10	
238	1.200000e+00	1.200000e+00	1.453739e-10	
239	1.205000e+00	1.205000e+00	1.525360e-10	
240	1.210000e+00	1.210000e+00	1.600534e-10	
241	1.215000e+00	1.215000e+00	1.679438e-10	
242	1.220000e+00	1.220000e+00	1.762256e-10	
243	1.225000e+00	1.225000e+00	1.849183e-10	
244	1.230000e+00	1.230000e+00	1.940423e-10	
245	1.235000e+00	1.235000e+00	2.036189e-10	
246	1.240000e+00	1.240000e+00	2.136707e-10	
247	1.245000e+00	1.245000e+00	2.242212e-10	
248	1.250000e+00	1.250000e+00	2.352953e-10	
249	1.255000e+00	1.255000e+00	2.469188e-10	
250	1.260000e+00	1.260000e+00	2.591191e-10	
251	1.265000e+00	1.265000e+00	2.719248e-10	
252	1.270000e+00	1.270000e+00	2.853660e-10	
253	1.275000e+00	1.275000e+00	2.994741e-10	
254	1.280000e+00	1.280000e+00	3.142824e-10	
255	1.285000e+00	1.285000e+00	3.298255e-10	
256	1.290000e+00	1.290000e+00	3.461399e-10	
257	1.295000e+00	1.295000e+00	3.632640e-10	
258	1.300000e+00	1.300000e+00	3.812380e-10	
259	1.305000e+00	1.305000e+00	4.001039e-10	
260	1.310000e+00	1.310000e+00	4.199061e-10	
261	1.315000e+00	1.315000e+00	4.406911e-10	
262	1.320000e+00	1.320000e+00	4.625076e-10	
263	1.325000e+00	1.325000e+00	4.854070e-10	
264	1.330000e+00	1.330000e+00	5.094428e-10	
265	1.335000e+00	1.335000e+00	5.346716e-10	
266	1.340000e+00	1.340000e+00	5.611526e-10	
267	1.345000e+00	1.345000e+00	5.889477e-10	
268	1.350000e+00	1.350000e+00	6.181226e-10	
269	1.355000e+00	1.355000e+00	6.487454e-10	
270	1.360000e+00	1.360000e+00	6.808882e-10	
271	1.365000e+00	1.365000e+00	7.146264e-10	
272	1.370000e+00	1.370000e+00	7.500391e-10	
273	1.375000e+00	1.375000e+00	7.872096e-10	
274	1.380000e+00	1.380000e+00	8.262250e-10	
275	1.385000e+00	1.385000e+00	8.671769e-10	
276	1.390000e+00	1.390000e+00	9.101616e-10	
277	1.395000e+00	1.395000e+00	9.552798e-10	
278	1.400000e+00	1.400000e+00	1.002638e-09	
279	1.405000e+00	1.405000e+00	1.052346e-09	
280	1.410000e+00	1.410000e+00	1.104522e-09	
281	1.415000e+00	1.415000e+00	1.159287e-09	
282	1.420000e+00	1.420000e+00	1.216772e-09	
283	1.425000e+00	1.425000e+00	1.277109e-09	
284	1.430000e+00	1.430000e+00	1.340441e-09	
285	1.435000e+00	1.435000e+00	1.406918e-09	
286	1.440000e+00	1.440000e+00	1.476693e-09	

Index   v-sweep         v(11)           i(vwhite)       
--------------------------------------------------------------------------------
287	1.445000e+00	1.445000e+00	1.549933e-09	
288	1.450000e+00	1.450000e+00	1.626808e-09	
289	1.455000e+00	1.455000e+00	1.707499e-09	
290	1.460000e+00	1.460000e+00	1.792195e-09	
291	1.465000e+00	1.465000e+00	1.881096e-09	
292	1.470000e+00	1.470000e+00	1.974409e-09	
293	1.475000e+00	1.475000e+00	2.072354e-09	
294	1.480000e+00	1.480000e+00	2.175162e-09	
295	1.485000e+00	1.485000e+00	2.283072e-09	
296	1.490000e+00	1.490000e+00	2.396340e-09	
297	1.495000e+00	1.495000e+00	2.515230e-09	
298	1.500000e+00	1.500000e+00	2.640021e-09	
299	1.505000e+00	1.505000e+00	2.771007e-09	
300	1.510000e+00	1.510000e+00	2.908495e-09	
301	1.515000e+00	1.515000e+00	3.052809e-09	
302	1.520000e+00	1.520000e+00	3.204285e-09	
303	1.525000e+00	1.525000e+00	3.363281e-09	
304	1.530000e+00	1.530000e+00	3.530170e-09	
305	1.535000e+00	1.535000e+00	3.705343e-09	
306	1.540000e+00	1.540000e+00	3.889212e-09	
307	1.545000e+00	1.545000e+00	4.082208e-09	
308	1.550000e+00	1.550000e+00	4.284784e-09	
309	1.555000e+00	1.555000e+00	4.497416e-09	
310	1.560000e+00	1.560000e+00	4.720604e-09	
311	1.565000e+00	1.565000e+00	4.954870e-09	
312	1.570000e+00	1.569999e+00	5.200766e-09	
313	1.575000e+00	1.574999e+00	5.458868e-09	
314	1.580000e+00	1.579999e+00	5.729782e-09	
315	1.585000e+00	1.584999e+00	6.014145e-09	
316	1.590000e+00	1.589999e+00	6.312623e-09	
317	1.595000e+00	1.594999e+00	6.625918e-09	
318	1.600000e+00	1.599999e+00	6.954766e-09	
319	1.605000e+00	1.604999e+00	7.299937e-09	
320	1.610000e+00	1.609999e+00	7.662243e-09	
321	1.615000e+00	1.614999e+00	8.042534e-09	
322	1.620000e+00	1.619999e+00	8.441702e-09	
323	1.625000e+00	1.624999e+00	8.860686e-09	
324	1.630000e+00	1.629999e+00	9.300468e-09	
325	1.635000e+00	1.634999e+00	9.762081e-09	
326	1.640000e+00	1.639999e+00	1.024661e-08	
327	1.645000e+00	1.644999e+00	1.075519e-08	
328	1.650000e+00	1.649999e+00	1.128901e-08	
329	1.655000e+00	1.654999e+00	1.184934e-08	
330	1.660000e+00	1.659999e+00	1.243748e-08	
331	1.665000e+00	1.664999e+00	1.305481e-08	
332	1.670000e+00	1.669999e+00	1.370279e-08	
333	1.675000e+00	1.674999e+00	1.438294e-08	
334	1.680000e+00	1.679998e+00	1.509685e-08	
335	1.685000e+00	1.684998e+00	1.584620e-08	
336	1.690000e+00	1.689998e+00	1.663274e-08	
337	1.695000e+00	1.694998e+00	1.745833e-08	
338	1.700000e+00	1.699998e+00	1.832490e-08	
339	1.705000e+00	1.704998e+00	1.923448e-08	
340	1.710000e+00	1.709998e+00	2.018922e-08	
341	1.715000e+00	1.714998e+00	2.119135e-08	
342	1.720000e+00	1.719998e+00	2.224323e-08	
343	1.725000e+00	1.724998e+00	2.334732e-08	
344	1.730000e+00	1.729998e+00	2.450622e-08	

Index   v-sweep         v(11)           i(vwhite)       
--------------------------------------------------------------------------------
345	1.735000e+00	1.734997e+00	2.572264e-08	
346	1.740000e+00	1.739997e+00	2.699945e-08	
347	1.745000e+00	1.744997e+00	2.833963e-08	
348	1.750000e+00	1.749997e+00	2.974634e-08	
349	1.755000e+00	1.754997e+00	3.122288e-08	
350	1.760000e+00	1.759997e+00	3.277271e-08	
351	1.765000e+00	1.764997e+00	3.439947e-08	
352	1.770000e+00	1.769996e+00	3.610698e-08	
353	1.775000e+00	1.774996e+00	3.789925e-08	
354	1.780000e+00	1.779996e+00	3.978048e-08	
355	1.785000e+00	1.784996e+00	4.175509e-08	
356	1.790000e+00	1.789996e+00	4.382772e-08	
357	1.795000e+00	1.794995e+00	4.600323e-08	
358	1.800000e+00	1.799995e+00	4.828672e-08	
359	1.805000e+00	1.804995e+00	5.068355e-08	
360	1.810000e+00	1.809995e+00	5.319936e-08	
361	1.815000e+00	1.814994e+00	5.584004e-08	
362	1.820000e+00	1.819994e+00	5.861180e-08	
363	1.825000e+00	1.824994e+00	6.152113e-08	
364	1.830000e+00	1.829994e+00	6.457487e-08	
365	1.835000e+00	1.834993e+00	6.778018e-08	
366	1.840000e+00	1.839993e+00	7.114459e-08	
367	1.845000e+00	1.844993e+00	7.467598e-08	
368	1.850000e+00	1.849992e+00	7.838266e-08	
369	1.855000e+00	1.854992e+00	8.227330e-08	
370	1.860000e+00	1.859991e+00	8.635706e-08	
371	1.865000e+00	1.864991e+00	9.064350e-08	
372	1.870000e+00	1.869990e+00	9.514268e-08	
373	1.875000e+00	1.874990e+00	9.986517e-08	
374	1.880000e+00	1.879990e+00	1.048220e-07	
375	1.885000e+00	1.884989e+00	1.100249e-07	
376	1.890000e+00	1.889988e+00	1.154860e-07	
377	1.895000e+00	1.894988e+00	1.212182e-07	
378	1.900000e+00	1.899987e+00	1.272348e-07	
379	1.905000e+00	1.904987e+00	1.335500e-07	
380	1.910000e+00	1.909986e+00	1.401786e-07	
381	1.915000e+00	1.914985e+00	1.471362e-07	
382	1.920000e+00	1.919985e+00	1.544391e-07	
383	1.925000e+00	1.924984e+00	1.621043e-07	
384	1.930000e+00	1.929983e+00	1.701500e-07	
385	1.935000e+00	1.934982e+00	1.785949e-07	
386	1.940000e+00	1.939981e+00	1.874589e-07	
387	1.945000e+00	1.944980e+00	1.967627e-07	
388	1.950000e+00	1.949979e+00	2.065282e-07	
389	1.955000e+00	1.954978e+00	2.167782e-07	
390	1.960000e+00	1.959977e+00	2.275369e-07	
391	1.965000e+00	1.964976e+00	2.388294e-07	
392	1.970000e+00	1.969975e+00	2.506821e-07	
393	1.975000e+00	1.974974e+00	2.631229e-07	
394	1.980000e+00	1.979972e+00	2.761810e-07	
395	1.985000e+00	1.984971e+00	2.898869e-07	
396	1.990000e+00	1.989970e+00	3.042728e-07	
397	1.995000e+00	1.994968e+00	3.193724e-07	
398	2.000000e+00	1.999966e+00	3.352210e-07	
399	2.005000e+00	2.004965e+00	3.518558e-07	
400	2.010000e+00	2.009963e+00	3.693158e-07	
401	2.015000e+00	2.014961e+00	3.876418e-07	
402	2.020000e+00	2.019959e+00	4.068768e-07	

Index   v-sweep         v(11)           i(vwhite)       
--------------------------------------------------------------------------------
403	2.025000e+00	2.024957e+00	4.270658e-07	
404	2.030000e+00	2.029955e+00	4.482562e-07	
405	2.035000e+00	2.034953e+00	4.704975e-07	
406	2.040000e+00	2.039951e+00	4.938417e-07	
407	2.045000e+00	2.044948e+00	5.183436e-07	
408	2.050000e+00	2.049946e+00	5.440604e-07	
409	2.055000e+00	2.054943e+00	5.710524e-07	
410	2.060000e+00	2.059940e+00	5.993827e-07	
411	2.065000e+00	2.064937e+00	6.291176e-07	
412	2.070000e+00	2.069934e+00	6.603265e-07	
413	2.075000e+00	2.074931e+00	6.930825e-07	
414	2.080000e+00	2.079927e+00	7.274622e-07	
415	2.085000e+00	2.084924e+00	7.635459e-07	
416	2.090000e+00	2.089920e+00	8.014180e-07	
417	2.095000e+00	2.094916e+00	8.411668e-07	
418	2.100000e+00	2.099912e+00	8.828853e-07	
419	2.105000e+00	2.104907e+00	9.266709e-07	
420	2.110000e+00	2.109903e+00	9.726257e-07	
421	2.115000e+00	2.114898e+00	1.020857e-06	
422	2.120000e+00	2.119893e+00	1.071478e-06	
423	2.125000e+00	2.124888e+00	1.124605e-06	
424	2.130000e+00	2.129882e+00	1.180364e-06	
425	2.135000e+00	2.134876e+00	1.238883e-06	
