                          bridge rectifier using bat85
                          Transient Analysis  Mon Aug 22 18:48:01  2022
--------------------------------------------------------------------------------
Index   time            v(1)            v(2,3)          
--------------------------------------------------------------------------------
0	0.000000e+00	0.000000e+00	2.535671e-20	
1	1.000000e-08	1.570796e-05	-3.21873e-20	
2	2.000000e-08	3.141593e-05	2.544238e-10	
3	4.000000e-08	6.283185e-05	1.075051e-09	
4	8.000000e-08	1.256637e-04	3.080178e-09	
5	1.600000e-07	2.513274e-04	8.821359e-09	
6	3.200000e-07	5.026548e-04	2.727620e-08	
7	6.400000e-07	1.005310e-03	9.205907e-08	
8	1.280000e-06	2.010619e-03	3.331505e-07	
9	2.280000e-06	3.581415e-03	1.007725e-06	
10	3.280000e-06	5.152211e-03	2.046058e-06	
11	4.280000e-06	6.723006e-03	3.448994e-06	
12	5.280000e-06	8.293801e-03	5.217688e-06	
13	6.280000e-06	9.864595e-03	7.353597e-06	
14	7.280000e-06	1.143539e-02	9.858489e-06	
15	8.280000e-06	1.300618e-02	1.273444e-05	
16	9.280000e-06	1.457697e-02	1.598384e-05	
17	1.028000e-05	1.614776e-02	1.960938e-05	
18	1.128000e-05	1.771855e-02	2.361407e-05	
19	1.228000e-05	1.928933e-02	2.800126e-05	
20	1.328000e-05	2.086011e-02	3.277457e-05	
21	1.428000e-05	2.243090e-02	3.793799e-05	
22	1.528000e-05	2.400168e-02	4.349580e-05	
23	1.628000e-05	2.557245e-02	4.945263e-05	
24	1.728000e-05	2.714323e-02	5.581342e-05	
25	1.828000e-05	2.871400e-02	6.258346e-05	
26	1.928000e-05	3.028477e-02	6.976836e-05	
27	2.028000e-05	3.185553e-02	7.737409e-05	
28	2.128000e-05	3.342630e-02	8.540696e-05	
29	2.228000e-05	3.499706e-02	9.387362e-05	
30	2.328000e-05	3.656781e-02	1.027811e-04	
31	2.428000e-05	3.813856e-02	1.121367e-04	
32	2.528000e-05	3.970931e-02	1.219483e-04	
33	2.628000e-05	4.128006e-02	1.322238e-04	
34	2.728000e-05	4.285080e-02	1.429718e-04	
35	2.828000e-05	4.442154e-02	1.542012e-04	
36	2.928000e-05	4.599227e-02	1.659212e-04	
37	3.028000e-05	4.756300e-02	1.781414e-04	
38	3.128000e-05	4.913372e-02	1.908718e-04	
39	3.228000e-05	5.070444e-02	2.041229e-04	
40	3.328000e-05	5.227515e-02	2.179056e-04	
41	3.428000e-05	5.384586e-02	2.322311e-04	
42	3.528000e-05	5.541656e-02	2.471111e-04	
43	3.628000e-05	5.698726e-02	2.625578e-04	
44	3.728000e-05	5.855795e-02	2.785836e-04	
45	3.828000e-05	6.012863e-02	2.952017e-04	
46	3.928000e-05	6.169931e-02	3.124255e-04	
47	4.028000e-05	6.326999e-02	3.302689e-04	
48	4.128000e-05	6.484065e-02	3.487464e-04	
49	4.228000e-05	6.641132e-02	3.678729e-04	
50	4.328000e-05	6.798197e-02	3.876637e-04	
51	4.428000e-05	6.955262e-02	4.081347e-04	
52	4.528000e-05	7.112326e-02	4.293023e-04	
53	4.628000e-05	7.269389e-02	4.511835e-04	
54	4.728000e-05	7.426452e-02	4.737956e-04	

Index   time            v(1)            v(2,3)          
--------------------------------------------------------------------------------
55	4.828000e-05	7.583514e-02	4.971567e-04	
56	4.928000e-05	7.740575e-02	5.212853e-04	
57	5.028000e-05	7.897635e-02	5.462004e-04	
58	5.128000e-05	8.054695e-02	5.719218e-04	
59	5.228000e-05	8.211754e-02	5.984696e-04	
60	5.328000e-05	8.368812e-02	6.258646e-04	
61	5.428000e-05	8.525869e-02	6.541284e-04	
62	5.528000e-05	8.682926e-02	6.832828e-04	
63	5.628000e-05	8.839981e-02	7.133506e-04	
64	5.728000e-05	8.997036e-02	7.443550e-04	
65	5.828000e-05	9.154090e-02	7.763199e-04	
66	5.928000e-05	9.311142e-02	8.092699e-04	
67	6.028000e-05	9.468194e-02	8.432303e-04	
68	6.128000e-05	9.625245e-02	8.782270e-04	
69	6.228000e-05	9.782295e-02	9.142865e-04	
70	6.328000e-05	9.939344e-02	9.514361e-04	
71	6.428000e-05	1.009639e-01	9.897039e-04	
72	6.528000e-05	1.025344e-01	1.029119e-03	
73	6.628000e-05	1.041049e-01	1.069710e-03	
74	6.728000e-05	1.056753e-01	1.111507e-03	
75	6.828000e-05	1.072457e-01	1.154542e-03	
76	6.928000e-05	1.088162e-01	1.198846e-03	
77	7.028000e-05	1.103866e-01	1.244452e-03	
78	7.128000e-05	1.119570e-01	1.291392e-03	
79	7.228000e-05	1.135274e-01	1.339702e-03	
80	7.328000e-05	1.150978e-01	1.389415e-03	
81	7.428000e-05	1.166682e-01	1.440568e-03	
82	7.528000e-05	1.182385e-01	1.493197e-03	
83	7.628000e-05	1.198089e-01	1.547339e-03	
84	7.728000e-05	1.213792e-01	1.603032e-03	
85	7.828000e-05	1.229495e-01	1.660316e-03	
86	7.928000e-05	1.245199e-01	1.719230e-03	
87	8.028000e-05	1.260902e-01	1.779815e-03	
88	8.128000e-05	1.276605e-01	1.842113e-03	
89	8.228000e-05	1.292307e-01	1.906166e-03	
90	8.328000e-05	1.308010e-01	1.972018e-03	
91	8.428000e-05	1.323712e-01	2.039712e-03	
92	8.528000e-05	1.339415e-01	2.109294e-03	
93	8.628000e-05	1.355117e-01	2.180809e-03	
94	8.728000e-05	1.370819e-01	2.254305e-03	
95	8.828000e-05	1.386521e-01	2.329829e-03	
96	8.928000e-05	1.402223e-01	2.407430e-03	
97	9.028000e-05	1.417925e-01	2.487157e-03	
98	9.128000e-05	1.433626e-01	2.569061e-03	
99	9.228000e-05	1.449328e-01	2.653193e-03	
100	9.328000e-05	1.465029e-01	2.739606e-03	
101	9.428000e-05	1.480730e-01	2.828353e-03	
102	9.528000e-05	1.496431e-01	2.919487e-03	
103	9.628000e-05	1.512132e-01	3.013065e-03	
104	9.728000e-05	1.527833e-01	3.109142e-03	
105	9.828000e-05	1.543533e-01	3.207774e-03	
106	9.928000e-05	1.559234e-01	3.309019e-03	
107	1.002800e-04	1.574934e-01	3.412938e-03	
108	1.012800e-04	1.590634e-01	3.519591e-03	
109	1.022800e-04	1.606334e-01	3.629037e-03	
110	1.032800e-04	1.622034e-01	3.741338e-03	
111	1.042800e-04	1.637733e-01	3.856553e-03	
112	1.052800e-04	1.653433e-01	3.974746e-03	

Index   time            v(1)            v(2,3)          
--------------------------------------------------------------------------------
113	1.062800e-04	1.669132e-01	4.095980e-03	
114	1.072800e-04	1.684831e-01	4.220319e-03	
115	1.082800e-04	1.700530e-01	4.347826e-03	
116	1.092800e-04	1.716229e-01	4.478567e-03	
117	1.102800e-04	1.731928e-01	4.612608e-03	
118	1.112800e-04	1.747626e-01	4.750015e-03	
119	1.122800e-04	1.763324e-01	4.890856e-03	
120	1.132800e-04	1.779023e-01	5.035198e-03	
121	1.142800e-04	1.794720e-01	5.183109e-03	
122	1.152800e-04	1.810418e-01	5.334659e-03	
123	1.162800e-04	1.826116e-01	5.489916e-03	
124	1.172800e-04	1.841813e-01	5.648950e-03	
125	1.182800e-04	1.857510e-01	5.811831e-03	
126	1.192800e-04	1.873207e-01	5.978630e-03	
127	1.202800e-04	1.888904e-01	6.149416e-03	
128	1.212800e-04	1.904601e-01	6.324262e-03	
129	1.222800e-04	1.920297e-01	6.503239e-03	
130	1.232800e-04	1.935994e-01	6.686417e-03	
131	1.242800e-04	1.951690e-01	6.873869e-03	
132	1.252800e-04	1.967386e-01	7.065666e-03	
133	1.262800e-04	1.983081e-01	7.261879e-03	
134	1.272800e-04	1.998777e-01	7.462581e-03	
135	1.282800e-04	2.014472e-01	7.667842e-03	
136	1.292800e-04	2.030167e-01	7.877734e-03	
137	1.302800e-04	2.045862e-01	8.092328e-03	
138	1.312800e-04	2.061557e-01	8.311696e-03	
139	1.322800e-04	2.077251e-01	8.535907e-03	
140	1.332800e-04	2.092946e-01	8.765031e-03	
141	1.342800e-04	2.108640e-01	8.999140e-03	
142	1.352800e-04	2.124334e-01	9.238301e-03	
143	1.362800e-04	2.140027e-01	9.482585e-03	
144	1.372800e-04	2.155721e-01	9.732058e-03	
145	1.382800e-04	2.171414e-01	9.986788e-03	
146	1.392800e-04	2.187107e-01	1.024684e-02	
147	1.402800e-04	2.202800e-01	1.051229e-02	
148	1.412800e-04	2.218492e-01	1.078319e-02	
149	1.422800e-04	2.234185e-01	1.105961e-02	
150	1.432800e-04	2.249877e-01	1.134161e-02	
151	1.442800e-04	2.265569e-01	1.162925e-02	
152	1.452800e-04	2.281261e-01	1.192261e-02	
153	1.462800e-04	2.296952e-01	1.222172e-02	
154	1.472800e-04	2.312643e-01	1.252667e-02	
155	1.482800e-04	2.328334e-01	1.283749e-02	
156	1.492800e-04	2.344025e-01	1.315426e-02	
157	1.502800e-04	2.359716e-01	1.347701e-02	
158	1.512800e-04	2.375406e-01	1.380582e-02	
159	1.522800e-04	2.391096e-01	1.414072e-02	
160	1.532800e-04	2.406786e-01	1.448177e-02	
161	1.542800e-04	2.422476e-01	1.482902e-02	
162	1.552800e-04	2.438165e-01	1.518252e-02	
163	1.562800e-04	2.453854e-01	1.554231e-02	
164	1.572800e-04	2.469543e-01	1.590843e-02	
165	1.582800e-04	2.485232e-01	1.628093e-02	
166	1.592800e-04	2.500920e-01	1.665985e-02	
167	1.602800e-04	2.516609e-01	1.704523e-02	
168	1.612800e-04	2.532297e-01	1.743711e-02	
169	1.622800e-04	2.547984e-01	1.783551e-02	
170	1.632800e-04	2.563672e-01	1.824048e-02	

Index   time            v(1)            v(2,3)          
--------------------------------------------------------------------------------
171	1.642800e-04	2.579359e-01	1.865205e-02	
172	1.652800e-04	2.595046e-01	1.907024e-02	
173	1.662800e-04	2.610732e-01	1.949508e-02	
174	1.672800e-04	2.626419e-01	1.992661e-02	
175	1.682800e-04	2.642105e-01	2.036483e-02	
176	1.692800e-04	2.657791e-01	2.080979e-02	
177	1.702800e-04	2.673476e-01	2.126149e-02	
178	1.712800e-04	2.689162e-01	2.171996e-02	
179	1.722800e-04	2.704847e-01	2.218520e-02	
180	1.732800e-04	2.720532e-01	2.265724e-02	
181	1.742800e-04	2.736216e-01	2.313610e-02	
182	1.752800e-04	2.751901e-01	2.362177e-02	
183	1.762800e-04	2.767585e-01	2.411427e-02	
184	1.772800e-04	2.783268e-01	2.461360e-02	
185	1.782800e-04	2.798952e-01	2.511978e-02	
186	1.792800e-04	2.814635e-01	2.563279e-02	
187	1.802800e-04	2.830318e-01	2.615266e-02	
188	1.812800e-04	2.846001e-01	2.667937e-02	
189	1.822800e-04	2.861683e-01	2.721292e-02	
190	1.832800e-04	2.877365e-01	2.775331e-02	
191	1.842800e-04	2.893047e-01	2.830053e-02	
192	1.852800e-04	2.908728e-01	2.885458e-02	
193	1.862800e-04	2.924409e-01	2.941545e-02	
194	1.872800e-04	2.940090e-01	2.998312e-02	
195	1.882800e-04	2.955771e-01	3.055759e-02	
196	1.892800e-04	2.971451e-01	3.113884e-02	
197	1.902800e-04	2.987131e-01	3.172686e-02	
198	1.912800e-04	3.002811e-01	3.232162e-02	
199	1.922800e-04	3.018491e-01	3.292312e-02	
200	1.932800e-04	3.034170e-01	3.353133e-02	
201	1.942800e-04	3.049849e-01	3.414622e-02	
202	1.952800e-04	3.065527e-01	3.476779e-02	
203	1.962800e-04	3.081206e-01	3.539600e-02	
204	1.972800e-04	3.096883e-01	3.603082e-02	
205	1.982800e-04	3.112561e-01	3.667225e-02	
206	1.992800e-04	3.128238e-01	3.732023e-02	
207	2.002800e-04	3.143916e-01	3.797476e-02	
208	2.012800e-04	3.159592e-01	3.863579e-02	
209	2.022800e-04	3.175269e-01	3.930330e-02	
210	2.032800e-04	3.190945e-01	3.997726e-02	
211	2.042800e-04	3.206621e-01	4.065763e-02	
212	2.052800e-04	3.222296e-01	4.134438e-02	
213	2.062800e-04	3.237971e-01	4.203747e-02	
214	2.072800e-04	3.253646e-01	4.273688e-02	
215	2.082800e-04	3.269320e-01	4.344256e-02	
216	2.092800e-04	3.284995e-01	4.415448e-02	
217	2.102800e-04	3.300669e-01	4.487260e-02	
218	2.112800e-04	3.316342e-01	4.559688e-02	
219	2.122800e-04	3.332015e-01	4.632728e-02	
220	2.132800e-04	3.347688e-01	4.706377e-02	
221	2.142800e-04	3.363361e-01	4.780630e-02	
222	2.152800e-04	3.379033e-01	4.855484e-02	
223	2.162800e-04	3.394705e-01	4.930933e-02	
224	2.172800e-04	3.410376e-01	5.006975e-02	
225	2.182800e-04	3.426048e-01	5.083604e-02	
226	2.192800e-04	3.441718e-01	5.160818e-02	
227	2.202800e-04	3.457389e-01	5.238610e-02	
228	2.212800e-04	3.473059e-01	5.316978e-02	

Index   time            v(1)            v(2,3)          
--------------------------------------------------------------------------------
229	2.222800e-04	3.488729e-01	5.395916e-02	
230	2.232800e-04	3.504399e-01	5.475420e-02	
231	2.242800e-04	3.520068e-01	5.555487e-02	
232	2.252800e-04	3.535737e-01	5.636111e-02	
233	2.262800e-04	3.551405e-01	5.717288e-02	
234	2.272800e-04	3.567073e-01	5.799013e-02	
235	2.282800e-04	3.582741e-01	5.881283e-02	
236	2.292800e-04	3.598408e-01	5.964092e-02	
237	2.302800e-04	3.614075e-01	6.047437e-02	
238	2.312800e-04	3.629742e-01	6.131312e-02	
239	2.322800e-04	3.645408e-01	6.215714e-02	
240	2.332800e-04	3.661074e-01	6.300637e-02	
241	2.342800e-04	3.676740e-01	6.386078e-02	
242	2.352800e-04	3.692405e-01	6.472031e-02	
243	2.362800e-04	3.708070e-01	6.558492e-02	
244	2.372800e-04	3.723735e-01	6.645457e-02	
245	2.382800e-04	3.739399e-01	6.732922e-02	
246	2.392800e-04	3.755063e-01	6.820881e-02	
247	2.402800e-04	3.770726e-01	6.909330e-02	
248	2.412800e-04	3.786389e-01	6.998265e-02	
249	2.422800e-04	3.802052e-01	7.087682e-02	
250	2.432800e-04	3.817714e-01	7.177576e-02	
251	2.442800e-04	3.833376e-01	7.267942e-02	
252	2.452800e-04	3.849037e-01	7.358776e-02	
253	2.462800e-04	3.864699e-01	7.450075e-02	
254	2.472800e-04	3.880359e-01	7.541832e-02	
255	2.482800e-04	3.896020e-01	7.634045e-02	
256	2.492800e-04	3.911680e-01	7.726709e-02	
257	2.502800e-04	3.927339e-01	7.819819e-02	
258	2.512800e-04	3.942999e-01	7.913372e-02	
259	2.522800e-04	3.958658e-01	8.007362e-02	
260	2.532800e-04	3.974316e-01	8.101787e-02	
261	2.542800e-04	3.989974e-01	8.196641e-02	
262	2.552800e-04	4.005632e-01	8.291921e-02	
263	2.562800e-04	4.021289e-01	8.387622e-02	
264	2.572800e-04	4.036946e-01	8.483740e-02	
265	2.582800e-04	4.052602e-01	8.580272e-02	
266	2.592800e-04	4.068258e-01	8.677213e-02	
267	2.602800e-04	4.083914e-01	8.774559e-02	
268	2.612800e-04	4.099569e-01	8.872306e-02	
269	2.622800e-04	4.115224e-01	8.970450e-02	
270	2.632800e-04	4.130879e-01	9.068988e-02	
271	2.642800e-04	4.146533e-01	9.167916e-02	
272	2.652800e-04	4.162186e-01	9.267228e-02	
273	2.662800e-04	4.177840e-01	9.366923e-02	
274	2.672800e-04	4.193493e-01	9.466996e-02	
275	2.682800e-04	4.209145e-01	9.567443e-02	
276	2.692800e-04	4.224797e-01	9.668260e-02	
277	2.702800e-04	4.240449e-01	9.769444e-02	
278	2.712800e-04	4.256100e-01	9.870992e-02	
279	2.722800e-04	4.271750e-01	9.972899e-02	
280	2.732800e-04	4.287401e-01	1.007516e-01	
281	2.742800e-04	4.303051e-01	1.017778e-01	
282	2.752800e-04	4.318700e-01	1.028074e-01	
283	2.762800e-04	4.334349e-01	1.038405e-01	
284	2.772800e-04	4.349998e-01	1.048770e-01	
285	2.782800e-04	4.365646e-01	1.059169e-01	
286	2.792800e-04	4.381294e-01	1.069602e-01	

Index   time            v(1)            v(2,3)          
--------------------------------------------------------------------------------
287	2.802800e-04	4.396941e-01	1.080067e-01	
288	2.812800e-04	4.412588e-01	1.090566e-01	
289	2.822800e-04	4.428234e-01	1.101097e-01	
290	2.832800e-04	4.443880e-01	1.111660e-01	
291	2.842800e-04	4.459526e-01	1.122255e-01	
292	2.852800e-04	4.475171e-01	1.132882e-01	
293	2.862800e-04	4.490816e-01	1.143540e-01	
294	2.872800e-04	4.506460e-01	1.154229e-01	
295	2.882800e-04	4.522104e-01	1.164948e-01	
296	2.892800e-04	4.537747e-01	1.175698e-01	
297	2.902800e-04	4.553390e-01	1.186478e-01	
298	2.912800e-04	4.569033e-01	1.197287e-01	
299	2.922800e-04	4.584675e-01	1.208126e-01	
300	2.932800e-04	4.600316e-01	1.218994e-01	
301	2.942800e-04	4.615957e-01	1.229891e-01	
302	2.952800e-04	4.631598e-01	1.240817e-01	
303	2.962800e-04	4.647238e-01	1.251770e-01	
304	2.972800e-04	4.662878e-01	1.262752e-01	
305	2.982800e-04	4.678517e-01	1.273761e-01	
306	2.992800e-04	4.694156e-01	1.284798e-01	
307	3.002800e-04	4.709794e-01	1.295862e-01	
308	3.012800e-04	4.725432e-01	1.306953e-01	
309	3.022800e-04	4.741070e-01	1.318070e-01	
310	3.032800e-04	4.756707e-01	1.329214e-01	
311	3.042800e-04	4.772343e-01	1.340384e-01	
312	3.052800e-04	4.787979e-01	1.351580e-01	
313	3.062800e-04	4.803615e-01	1.362801e-01	
314	3.072800e-04	4.819250e-01	1.374048e-01	
315	3.082800e-04	4.834884e-01	1.385319e-01	
316	3.092800e-04	4.850518e-01	1.396616e-01	
317	3.102800e-04	4.866152e-01	1.407937e-01	
318	3.112800e-04	4.881785e-01	1.419283e-01	
319	3.122800e-04	4.897418e-01	1.430652e-01	
320	3.132800e-04	4.913050e-01	1.442046e-01	
321	3.142800e-04	4.928682e-01	1.453463e-01	
322	3.152800e-04	4.944313e-01	1.464904e-01	
323	3.162800e-04	4.959944e-01	1.476368e-01	
324	3.172800e-04	4.975574e-01	1.487855e-01	
325	3.182800e-04	4.991204e-01	1.499364e-01	
326	3.192800e-04	5.006833e-01	1.510897e-01	
327	3.202800e-04	5.022462e-01	1.522451e-01	
328	3.212800e-04	5.038090e-01	1.534028e-01	
329	3.222800e-04	5.053718e-01	1.545626e-01	
330	3.232800e-04	5.069345e-01	1.557247e-01	
331	3.242800e-04	5.084972e-01	1.568888e-01	
332	3.252800e-04	5.100598e-01	1.580551e-01	
333	3.262800e-04	5.116224e-01	1.592235e-01	
334	3.272800e-04	5.131849e-01	1.603940e-01	
335	3.282800e-04	5.147474e-01	1.615666e-01	
336	3.292800e-04	5.163098e-01	1.627412e-01	
337	3.302800e-04	5.178722e-01	1.639178e-01	
338	3.312800e-04	5.194345e-01	1.650965e-01	
339	3.322800e-04	5.209968e-01	1.662771e-01	
340	3.332800e-04	5.225590e-01	1.674597e-01	
341	3.342800e-04	5.241212e-01	1.686443e-01	
342	3.352800e-04	5.256833e-01	1.698308e-01	
343	3.362800e-04	5.272453e-01	1.710192e-01	
344	3.372800e-04	5.288074e-01	1.722095e-01	

Index   time            v(1)            v(2,3)          
--------------------------------------------------------------------------------
345	3.382800e-04	5.303693e-01	1.734017e-01	
346	3.392800e-04	5.319312e-01	1.745958e-01	
347	3.402800e-04	5.334931e-01	1.757917e-01	
348	3.412800e-04	5.350549e-01	1.769894e-01	
349	3.422800e-04	5.366166e-01	1.781890e-01	
350	3.432800e-04	5.381783e-01	1.793904e-01	
351	3.442800e-04	5.397400e-01	1.805935e-01	
352	3.452800e-04	5.413016e-01	1.817984e-01	
353	3.462800e-04	5.428631e-01	1.830050e-01	
354	3.472800e-04	5.444246e-01	1.842134e-01	
355	3.482800e-04	5.459860e-01	1.854235e-01	
356	3.492800e-04	5.475474e-01	1.866353e-01	
357	3.502800e-04	5.491087e-01	1.878488e-01	
358	3.512800e-04	5.506700e-01	1.890639e-01	
359	3.522800e-04	5.522312e-01	1.902807e-01	
360	3.532800e-04	5.537924e-01	1.914992e-01	
361	3.542800e-04	5.553535e-01	1.927193e-01	
362	3.552800e-04	5.569145e-01	1.939409e-01	
363	3.562800e-04	5.584755e-01	1.951642e-01	
364	3.572800e-04	5.600364e-01	1.963891e-01	
365	3.582800e-04	5.615973e-01	1.976155e-01	
366	3.592800e-04	5.631582e-01	1.988435e-01	
367	3.602800e-04	5.647189e-01	2.000730e-01	
368	3.612800e-04	5.662797e-01	2.013041e-01	
369	3.622800e-04	5.678403e-01	2.025366e-01	
370	3.632800e-04	5.694009e-01	2.037707e-01	
371	3.642800e-04	5.709615e-01	2.050063e-01	
372	3.652800e-04	5.725220e-01	2.062433e-01	
373	3.662800e-04	5.740824e-01	2.074818e-01	
374	3.672800e-04	5.756428e-01	2.087217e-01	
375	3.682800e-04	5.772031e-01	2.099631e-01	
376	3.692800e-04	5.787634e-01	2.112059e-01	
377	3.702800e-04	5.803236e-01	2.124501e-01	
378	3.712800e-04	5.818837e-01	2.136957e-01	
379	3.722800e-04	5.834438e-01	2.149427e-01	
380	3.732800e-04	5.850039e-01	2.161910e-01	
381	3.742800e-04	5.865638e-01	2.174408e-01	
382	3.752800e-04	5.881238e-01	2.186918e-01	
383	3.762800e-04	5.896836e-01	2.199443e-01	
384	3.772800e-04	5.912434e-01	2.211980e-01	
385	3.782800e-04	5.928032e-01	2.224531e-01	
386	3.792800e-04	5.943629e-01	2.237094e-01	
387	3.802800e-04	5.959225e-01	2.249671e-01	
388	3.812800e-04	5.974821e-01	2.262260e-01	
389	3.822800e-04	5.990416e-01	2.274863e-01	
390	3.832800e-04	6.006010e-01	2.287477e-01	
391	3.842800e-04	6.021604e-01	2.300105e-01	
392	3.852800e-04	6.037198e-01	2.312744e-01	
393	3.862800e-04	6.052790e-01	2.325396e-01	
394	3.872800e-04	6.068382e-01	2.338061e-01	
395	3.882800e-04	6.083974e-01	2.350737e-01	
396	3.892800e-04	6.099565e-01	2.363425e-01	
397	3.902800e-04	6.115155e-01	2.376125e-01	
398	3.912800e-04	6.130745e-01	2.388837e-01	
399	3.922800e-04	6.146334e-01	2.401561e-01	
400	3.932800e-04	6.161923e-01	2.414296e-01	
401	3.942800e-04	6.177511e-01	2.427043e-01	
402	3.952800e-04	6.193098e-01	2.439801e-01	

Index   time            v(1)            v(2,3)          
--------------------------------------------------------------------------------
403	3.962800e-04	6.208685e-01	2.452571e-01	
404	3.972800e-04	6.224271e-01	2.465352e-01	
405	3.982800e-04	6.239856e-01	2.478144e-01	
406	3.992800e-04	6.255441e-01	2.490947e-01	
407	4.002800e-04	6.271025e-01	2.503760e-01	
408	4.012800e-04	6.286609e-01	2.516585e-01	
409	4.022800e-04	6.302192e-01	2.529421e-01	
410	4.032800e-04	6.317774e-01	2.542267e-01	
411	4.042800e-04	6.333356e-01	2.555124e-01	
412	4.052800e-04	6.348937e-01	2.567991e-01	
413	4.062800e-04	6.364518e-01	2.580869e-01	
414	4.072800e-04	6.380097e-01	2.593757e-01	
415	4.082800e-04	6.395677e-01	2.606655e-01	
416	4.092800e-04	6.411255e-01	2.619564e-01	
417	4.102800e-04	6.426833e-01	2.632483e-01	
418	4.112800e-04	6.442411e-01	2.645411e-01	
419	4.122800e-04	6.457987e-01	2.658350e-01	
420	4.132800e-04	6.473563e-01	2.671299e-01	
421	4.142800e-04	6.489139e-01	2.684257e-01	
422	4.152800e-04	6.504714e-01	2.697225e-01	
423	4.162800e-04	6.520288e-01	2.710202e-01	
424	4.172800e-04	6.535861e-01	2.723190e-01	
425	4.182800e-04	6.551434e-01	2.736186e-01	
