                simulation exercise - iv characteristic of 1n914
                DC transfer characteristic  Thu Aug 11 17:33:21  2022
--------------------------------------------------------------------------------
Index   v-sweep         v(4)            i(v)            
--------------------------------------------------------------------------------
0	-2.00000e+02	-1.00308e+02	-4.26956e-01	
1	-1.99950e+02	-1.00308e+02	-4.26719e-01	
2	-1.99900e+02	-1.00308e+02	-4.26481e-01	
3	-1.99850e+02	-1.00308e+02	-4.26244e-01	
4	-1.99800e+02	-1.00308e+02	-4.26006e-01	
5	-1.99750e+02	-1.00308e+02	-4.25768e-01	
6	-1.99700e+02	-1.00308e+02	-4.25531e-01	
7	-1.99650e+02	-1.00308e+02	-4.25293e-01	
8	-1.99600e+02	-1.00308e+02	-4.25056e-01	
9	-1.99550e+02	-1.00307e+02	-4.24818e-01	
10	-1.99500e+02	-1.00307e+02	-4.24581e-01	
11	-1.99450e+02	-1.00307e+02	-4.24343e-01	
12	-1.99400e+02	-1.00307e+02	-4.24106e-01	
13	-1.99350e+02	-1.00307e+02	-4.23868e-01	
14	-1.99300e+02	-1.00307e+02	-4.23631e-01	
15	-1.99250e+02	-1.00307e+02	-4.23393e-01	
16	-1.99200e+02	-1.00307e+02	-4.23156e-01	
17	-1.99150e+02	-1.00307e+02	-4.22918e-01	
18	-1.99100e+02	-1.00306e+02	-4.22681e-01	
19	-1.99050e+02	-1.00306e+02	-4.22443e-01	
20	-1.99000e+02	-1.00306e+02	-4.22206e-01	
21	-1.98950e+02	-1.00306e+02	-4.21968e-01	
22	-1.98900e+02	-1.00306e+02	-4.21730e-01	
23	-1.98850e+02	-1.00306e+02	-4.21493e-01	
24	-1.98800e+02	-1.00306e+02	-4.21255e-01	
25	-1.98750e+02	-1.00306e+02	-4.21018e-01	
26	-1.98700e+02	-1.00306e+02	-4.20780e-01	
27	-1.98650e+02	-1.00305e+02	-4.20543e-01	
28	-1.98600e+02	-1.00305e+02	-4.20305e-01	
29	-1.98550e+02	-1.00305e+02	-4.20068e-01	
30	-1.98500e+02	-1.00305e+02	-4.19830e-01	
31	-1.98450e+02	-1.00305e+02	-4.19593e-01	
32	-1.98400e+02	-1.00305e+02	-4.19355e-01	
33	-1.98350e+02	-1.00305e+02	-4.19118e-01	
34	-1.98300e+02	-1.00305e+02	-4.18880e-01	
35	-1.98250e+02	-1.00305e+02	-4.18643e-01	
36	-1.98200e+02	-1.00304e+02	-4.18405e-01	
37	-1.98150e+02	-1.00304e+02	-4.18168e-01	
38	-1.98100e+02	-1.00304e+02	-4.17930e-01	
39	-1.98050e+02	-1.00304e+02	-4.17692e-01	
40	-1.98000e+02	-1.00304e+02	-4.17455e-01	
41	-1.97950e+02	-1.00304e+02	-4.17217e-01	
42	-1.97900e+02	-1.00304e+02	-4.16980e-01	
43	-1.97850e+02	-1.00304e+02	-4.16742e-01	
44	-1.97800e+02	-1.00304e+02	-4.16505e-01	
45	-1.97750e+02	-1.00304e+02	-4.16267e-01	
46	-1.97700e+02	-1.00303e+02	-4.16030e-01	
47	-1.97650e+02	-1.00303e+02	-4.15792e-01	
48	-1.97600e+02	-1.00303e+02	-4.15555e-01	
49	-1.97550e+02	-1.00303e+02	-4.15317e-01	
50	-1.97500e+02	-1.00303e+02	-4.15080e-01	
51	-1.97450e+02	-1.00303e+02	-4.14842e-01	
52	-1.97400e+02	-1.00303e+02	-4.14605e-01	
53	-1.97350e+02	-1.00303e+02	-4.14367e-01	
54	-1.97300e+02	-1.00303e+02	-4.14130e-01	

Index   v-sweep         v(4)            i(v)            
--------------------------------------------------------------------------------
55	-1.97250e+02	-1.00302e+02	-4.13892e-01	
56	-1.97200e+02	-1.00302e+02	-4.13654e-01	
57	-1.97150e+02	-1.00302e+02	-4.13417e-01	
58	-1.97100e+02	-1.00302e+02	-4.13179e-01	
59	-1.97050e+02	-1.00302e+02	-4.12942e-01	
60	-1.97000e+02	-1.00302e+02	-4.12704e-01	
61	-1.96950e+02	-1.00302e+02	-4.12467e-01	
62	-1.96900e+02	-1.00302e+02	-4.12229e-01	
63	-1.96850e+02	-1.00302e+02	-4.11992e-01	
64	-1.96800e+02	-1.00301e+02	-4.11754e-01	
65	-1.96750e+02	-1.00301e+02	-4.11517e-01	
66	-1.96700e+02	-1.00301e+02	-4.11279e-01	
67	-1.96650e+02	-1.00301e+02	-4.11042e-01	
68	-1.96600e+02	-1.00301e+02	-4.10804e-01	
69	-1.96550e+02	-1.00301e+02	-4.10567e-01	
70	-1.96500e+02	-1.00301e+02	-4.10329e-01	
71	-1.96450e+02	-1.00301e+02	-4.10092e-01	
72	-1.96400e+02	-1.00301e+02	-4.09854e-01	
73	-1.96350e+02	-1.00300e+02	-4.09617e-01	
74	-1.96300e+02	-1.00300e+02	-4.09379e-01	
75	-1.96250e+02	-1.00300e+02	-4.09141e-01	
76	-1.96200e+02	-1.00300e+02	-4.08904e-01	
77	-1.96150e+02	-1.00300e+02	-4.08666e-01	
78	-1.96100e+02	-1.00300e+02	-4.08429e-01	
79	-1.96050e+02	-1.00300e+02	-4.08191e-01	
80	-1.96000e+02	-1.00300e+02	-4.07954e-01	
81	-1.95950e+02	-1.00300e+02	-4.07716e-01	
82	-1.95900e+02	-1.00299e+02	-4.07479e-01	
83	-1.95850e+02	-1.00299e+02	-4.07241e-01	
84	-1.95800e+02	-1.00299e+02	-4.07004e-01	
85	-1.95750e+02	-1.00299e+02	-4.06766e-01	
86	-1.95700e+02	-1.00299e+02	-4.06529e-01	
87	-1.95650e+02	-1.00299e+02	-4.06291e-01	
88	-1.95600e+02	-1.00299e+02	-4.06054e-01	
89	-1.95550e+02	-1.00299e+02	-4.05816e-01	
90	-1.95500e+02	-1.00299e+02	-4.05579e-01	
91	-1.95450e+02	-1.00299e+02	-4.05341e-01	
92	-1.95400e+02	-1.00298e+02	-4.05104e-01	
93	-1.95350e+02	-1.00298e+02	-4.04866e-01	
94	-1.95300e+02	-1.00298e+02	-4.04629e-01	
95	-1.95250e+02	-1.00298e+02	-4.04391e-01	
96	-1.95200e+02	-1.00298e+02	-4.04153e-01	
97	-1.95150e+02	-1.00298e+02	-4.03916e-01	
98	-1.95100e+02	-1.00298e+02	-4.03678e-01	
99	-1.95050e+02	-1.00298e+02	-4.03441e-01	
100	-1.95000e+02	-1.00298e+02	-4.03203e-01	
101	-1.94950e+02	-1.00297e+02	-4.02966e-01	
102	-1.94900e+02	-1.00297e+02	-4.02728e-01	
103	-1.94850e+02	-1.00297e+02	-4.02491e-01	
104	-1.94800e+02	-1.00297e+02	-4.02253e-01	
105	-1.94750e+02	-1.00297e+02	-4.02016e-01	
106	-1.94700e+02	-1.00297e+02	-4.01778e-01	
107	-1.94650e+02	-1.00297e+02	-4.01541e-01	
108	-1.94600e+02	-1.00297e+02	-4.01303e-01	
109	-1.94550e+02	-1.00297e+02	-4.01066e-01	
110	-1.94500e+02	-1.00296e+02	-4.00828e-01	
111	-1.94450e+02	-1.00296e+02	-4.00591e-01	
112	-1.94400e+02	-1.00296e+02	-4.00353e-01	

Index   v-sweep         v(4)            i(v)            
--------------------------------------------------------------------------------
113	-1.94350e+02	-1.00296e+02	-4.00116e-01	
114	-1.94300e+02	-1.00296e+02	-3.99878e-01	
115	-1.94250e+02	-1.00296e+02	-3.99641e-01	
116	-1.94200e+02	-1.00296e+02	-3.99403e-01	
117	-1.94150e+02	-1.00296e+02	-3.99165e-01	
118	-1.94100e+02	-1.00296e+02	-3.98928e-01	
119	-1.94050e+02	-1.00295e+02	-3.98690e-01	
120	-1.94000e+02	-1.00295e+02	-3.98453e-01	
121	-1.93950e+02	-1.00295e+02	-3.98215e-01	
122	-1.93900e+02	-1.00295e+02	-3.97978e-01	
123	-1.93850e+02	-1.00295e+02	-3.97740e-01	
124	-1.93800e+02	-1.00295e+02	-3.97503e-01	
125	-1.93750e+02	-1.00295e+02	-3.97265e-01	
126	-1.93700e+02	-1.00295e+02	-3.97028e-01	
127	-1.93650e+02	-1.00295e+02	-3.96790e-01	
128	-1.93600e+02	-1.00294e+02	-3.96553e-01	
129	-1.93550e+02	-1.00294e+02	-3.96315e-01	
130	-1.93500e+02	-1.00294e+02	-3.96078e-01	
131	-1.93450e+02	-1.00294e+02	-3.95840e-01	
132	-1.93400e+02	-1.00294e+02	-3.95603e-01	
133	-1.93350e+02	-1.00294e+02	-3.95365e-01	
134	-1.93300e+02	-1.00294e+02	-3.95128e-01	
135	-1.93250e+02	-1.00294e+02	-3.94890e-01	
136	-1.93200e+02	-1.00294e+02	-3.94653e-01	
137	-1.93150e+02	-1.00293e+02	-3.94415e-01	
138	-1.93100e+02	-1.00293e+02	-3.94178e-01	
139	-1.93050e+02	-1.00293e+02	-3.93940e-01	
140	-1.93000e+02	-1.00293e+02	-3.93703e-01	
141	-1.92950e+02	-1.00293e+02	-3.93465e-01	
142	-1.92900e+02	-1.00293e+02	-3.93227e-01	
143	-1.92850e+02	-1.00293e+02	-3.92990e-01	
144	-1.92800e+02	-1.00293e+02	-3.92752e-01	
145	-1.92750e+02	-1.00293e+02	-3.92515e-01	
146	-1.92700e+02	-1.00292e+02	-3.92277e-01	
147	-1.92650e+02	-1.00292e+02	-3.92040e-01	
148	-1.92600e+02	-1.00292e+02	-3.91802e-01	
149	-1.92550e+02	-1.00292e+02	-3.91565e-01	
150	-1.92500e+02	-1.00292e+02	-3.91327e-01	
151	-1.92450e+02	-1.00292e+02	-3.91090e-01	
152	-1.92400e+02	-1.00292e+02	-3.90852e-01	
153	-1.92350e+02	-1.00292e+02	-3.90615e-01	
154	-1.92300e+02	-1.00292e+02	-3.90377e-01	
155	-1.92250e+02	-1.00292e+02	-3.90140e-01	
156	-1.92200e+02	-1.00291e+02	-3.89902e-01	
157	-1.92150e+02	-1.00291e+02	-3.89665e-01	
158	-1.92100e+02	-1.00291e+02	-3.89427e-01	
159	-1.92050e+02	-1.00291e+02	-3.89190e-01	
160	-1.92000e+02	-1.00291e+02	-3.88952e-01	
161	-1.91950e+02	-1.00291e+02	-3.88715e-01	
162	-1.91900e+02	-1.00291e+02	-3.88477e-01	
163	-1.91850e+02	-1.00291e+02	-3.88240e-01	
164	-1.91800e+02	-1.00291e+02	-3.88002e-01	
165	-1.91750e+02	-1.00290e+02	-3.87765e-01	
166	-1.91700e+02	-1.00290e+02	-3.87527e-01	
167	-1.91650e+02	-1.00290e+02	-3.87290e-01	
168	-1.91600e+02	-1.00290e+02	-3.87052e-01	
169	-1.91550e+02	-1.00290e+02	-3.86814e-01	
170	-1.91500e+02	-1.00290e+02	-3.86577e-01	

Index   v-sweep         v(4)            i(v)            
--------------------------------------------------------------------------------
171	-1.91450e+02	-1.00290e+02	-3.86339e-01	
172	-1.91400e+02	-1.00290e+02	-3.86102e-01	
173	-1.91350e+02	-1.00290e+02	-3.85864e-01	
174	-1.91300e+02	-1.00289e+02	-3.85627e-01	
175	-1.91250e+02	-1.00289e+02	-3.85389e-01	
176	-1.91200e+02	-1.00289e+02	-3.85152e-01	
177	-1.91150e+02	-1.00289e+02	-3.84914e-01	
178	-1.91100e+02	-1.00289e+02	-3.84677e-01	
179	-1.91050e+02	-1.00289e+02	-3.84439e-01	
180	-1.91000e+02	-1.00289e+02	-3.84202e-01	
181	-1.90950e+02	-1.00289e+02	-3.83964e-01	
182	-1.90900e+02	-1.00289e+02	-3.83727e-01	
183	-1.90850e+02	-1.00288e+02	-3.83489e-01	
184	-1.90800e+02	-1.00288e+02	-3.83252e-01	
185	-1.90750e+02	-1.00288e+02	-3.83014e-01	
186	-1.90700e+02	-1.00288e+02	-3.82777e-01	
187	-1.90650e+02	-1.00288e+02	-3.82539e-01	
188	-1.90600e+02	-1.00288e+02	-3.82302e-01	
189	-1.90550e+02	-1.00288e+02	-3.82064e-01	
190	-1.90500e+02	-1.00288e+02	-3.81827e-01	
191	-1.90450e+02	-1.00288e+02	-3.81589e-01	
192	-1.90400e+02	-1.00287e+02	-3.81352e-01	
193	-1.90350e+02	-1.00287e+02	-3.81114e-01	
194	-1.90300e+02	-1.00287e+02	-3.80877e-01	
195	-1.90250e+02	-1.00287e+02	-3.80639e-01	
196	-1.90200e+02	-1.00287e+02	-3.80402e-01	
197	-1.90150e+02	-1.00287e+02	-3.80164e-01	
198	-1.90100e+02	-1.00287e+02	-3.79927e-01	
199	-1.90050e+02	-1.00287e+02	-3.79689e-01	
200	-1.90000e+02	-1.00287e+02	-3.79452e-01	
201	-1.89950e+02	-1.00286e+02	-3.79214e-01	
202	-1.89900e+02	-1.00286e+02	-3.78976e-01	
203	-1.89850e+02	-1.00286e+02	-3.78739e-01	
204	-1.89800e+02	-1.00286e+02	-3.78501e-01	
205	-1.89750e+02	-1.00286e+02	-3.78264e-01	
206	-1.89700e+02	-1.00286e+02	-3.78026e-01	
207	-1.89650e+02	-1.00286e+02	-3.77789e-01	
208	-1.89600e+02	-1.00286e+02	-3.77551e-01	
209	-1.89550e+02	-1.00286e+02	-3.77314e-01	
210	-1.89500e+02	-1.00285e+02	-3.77076e-01	
211	-1.89450e+02	-1.00285e+02	-3.76839e-01	
212	-1.89400e+02	-1.00285e+02	-3.76601e-01	
213	-1.89350e+02	-1.00285e+02	-3.76364e-01	
214	-1.89300e+02	-1.00285e+02	-3.76126e-01	
215	-1.89250e+02	-1.00285e+02	-3.75889e-01	
216	-1.89200e+02	-1.00285e+02	-3.75651e-01	
217	-1.89150e+02	-1.00285e+02	-3.75414e-01	
218	-1.89100e+02	-1.00285e+02	-3.75176e-01	
219	-1.89050e+02	-1.00284e+02	-3.74939e-01	
220	-1.89000e+02	-1.00284e+02	-3.74701e-01	
221	-1.88950e+02	-1.00284e+02	-3.74464e-01	
222	-1.88900e+02	-1.00284e+02	-3.74226e-01	
223	-1.88850e+02	-1.00284e+02	-3.73989e-01	
224	-1.88800e+02	-1.00284e+02	-3.73751e-01	
225	-1.88750e+02	-1.00284e+02	-3.73514e-01	
226	-1.88700e+02	-1.00284e+02	-3.73276e-01	
227	-1.88650e+02	-1.00284e+02	-3.73039e-01	
228	-1.88600e+02	-1.00283e+02	-3.72801e-01	

Index   v-sweep         v(4)            i(v)            
--------------------------------------------------------------------------------
229	-1.88550e+02	-1.00283e+02	-3.72564e-01	
230	-1.88500e+02	-1.00283e+02	-3.72326e-01	
231	-1.88450e+02	-1.00283e+02	-3.72089e-01	
232	-1.88400e+02	-1.00283e+02	-3.71851e-01	
233	-1.88350e+02	-1.00283e+02	-3.71614e-01	
234	-1.88300e+02	-1.00283e+02	-3.71376e-01	
235	-1.88250e+02	-1.00283e+02	-3.71139e-01	
236	-1.88200e+02	-1.00283e+02	-3.70901e-01	
237	-1.88150e+02	-1.00282e+02	-3.70664e-01	
238	-1.88100e+02	-1.00282e+02	-3.70426e-01	
239	-1.88050e+02	-1.00282e+02	-3.70189e-01	
240	-1.88000e+02	-1.00282e+02	-3.69951e-01	
241	-1.87950e+02	-1.00282e+02	-3.69714e-01	
242	-1.87900e+02	-1.00282e+02	-3.69476e-01	
243	-1.87850e+02	-1.00282e+02	-3.69239e-01	
244	-1.87800e+02	-1.00282e+02	-3.69001e-01	
245	-1.87750e+02	-1.00282e+02	-3.68764e-01	
246	-1.87700e+02	-1.00281e+02	-3.68526e-01	
247	-1.87650e+02	-1.00281e+02	-3.68288e-01	
248	-1.87600e+02	-1.00281e+02	-3.68051e-01	
249	-1.87550e+02	-1.00281e+02	-3.67813e-01	
250	-1.87500e+02	-1.00281e+02	-3.67576e-01	
251	-1.87450e+02	-1.00281e+02	-3.67338e-01	
252	-1.87400e+02	-1.00281e+02	-3.67101e-01	
253	-1.87350e+02	-1.00281e+02	-3.66863e-01	
254	-1.87300e+02	-1.00281e+02	-3.66626e-01	
255	-1.87250e+02	-1.00280e+02	-3.66388e-01	
256	-1.87200e+02	-1.00280e+02	-3.66151e-01	
257	-1.87150e+02	-1.00280e+02	-3.65913e-01	
258	-1.87100e+02	-1.00280e+02	-3.65676e-01	
259	-1.87050e+02	-1.00280e+02	-3.65438e-01	
260	-1.87000e+02	-1.00280e+02	-3.65201e-01	
261	-1.86950e+02	-1.00280e+02	-3.64963e-01	
262	-1.86900e+02	-1.00280e+02	-3.64726e-01	
263	-1.86850e+02	-1.00279e+02	-3.64488e-01	
264	-1.86800e+02	-1.00279e+02	-3.64251e-01	
265	-1.86750e+02	-1.00279e+02	-3.64013e-01	
266	-1.86700e+02	-1.00279e+02	-3.63776e-01	
267	-1.86650e+02	-1.00279e+02	-3.63538e-01	
268	-1.86600e+02	-1.00279e+02	-3.63301e-01	
269	-1.86550e+02	-1.00279e+02	-3.63063e-01	
270	-1.86500e+02	-1.00279e+02	-3.62826e-01	
271	-1.86450e+02	-1.00279e+02	-3.62588e-01	
272	-1.86400e+02	-1.00278e+02	-3.62351e-01	
273	-1.86350e+02	-1.00278e+02	-3.62113e-01	
274	-1.86300e+02	-1.00278e+02	-3.61876e-01	
275	-1.86250e+02	-1.00278e+02	-3.61638e-01	
276	-1.86200e+02	-1.00278e+02	-3.61401e-01	
277	-1.86150e+02	-1.00278e+02	-3.61163e-01	
278	-1.86100e+02	-1.00278e+02	-3.60926e-01	
279	-1.86050e+02	-1.00278e+02	-3.60688e-01	
280	-1.86000e+02	-1.00278e+02	-3.60451e-01	
281	-1.85950e+02	-1.00277e+02	-3.60213e-01	
282	-1.85900e+02	-1.00277e+02	-3.59976e-01	
283	-1.85850e+02	-1.00277e+02	-3.59738e-01	
284	-1.85800e+02	-1.00277e+02	-3.59501e-01	
285	-1.85750e+02	-1.00277e+02	-3.59263e-01	
286	-1.85700e+02	-1.00277e+02	-3.59026e-01	

Index   v-sweep         v(4)            i(v)            
--------------------------------------------------------------------------------
287	-1.85650e+02	-1.00277e+02	-3.58788e-01	
288	-1.85600e+02	-1.00277e+02	-3.58551e-01	
289	-1.85550e+02	-1.00277e+02	-3.58313e-01	
290	-1.85500e+02	-1.00276e+02	-3.58076e-01	
291	-1.85450e+02	-1.00276e+02	-3.57838e-01	
292	-1.85400e+02	-1.00276e+02	-3.57601e-01	
293	-1.85350e+02	-1.00276e+02	-3.57363e-01	
294	-1.85300e+02	-1.00276e+02	-3.57126e-01	
295	-1.85250e+02	-1.00276e+02	-3.56888e-01	
296	-1.85200e+02	-1.00276e+02	-3.56651e-01	
297	-1.85150e+02	-1.00276e+02	-3.56413e-01	
298	-1.85100e+02	-1.00276e+02	-3.56176e-01	
299	-1.85050e+02	-1.00275e+02	-3.55938e-01	
300	-1.85000e+02	-1.00275e+02	-3.55701e-01	
301	-1.84950e+02	-1.00275e+02	-3.55463e-01	
302	-1.84900e+02	-1.00275e+02	-3.55226e-01	
303	-1.84850e+02	-1.00275e+02	-3.54988e-01	
304	-1.84800e+02	-1.00275e+02	-3.54751e-01	
305	-1.84750e+02	-1.00275e+02	-3.54513e-01	
306	-1.84700e+02	-1.00275e+02	-3.54276e-01	
307	-1.84650e+02	-1.00275e+02	-3.54038e-01	
308	-1.84600e+02	-1.00274e+02	-3.53801e-01	
309	-1.84550e+02	-1.00274e+02	-3.53563e-01	
310	-1.84500e+02	-1.00274e+02	-3.53326e-01	
311	-1.84450e+02	-1.00274e+02	-3.53088e-01	
312	-1.84400e+02	-1.00274e+02	-3.52851e-01	
313	-1.84350e+02	-1.00274e+02	-3.52613e-01	
314	-1.84300e+02	-1.00274e+02	-3.52376e-01	
315	-1.84250e+02	-1.00274e+02	-3.52138e-01	
316	-1.84200e+02	-1.00274e+02	-3.51901e-01	
317	-1.84150e+02	-1.00273e+02	-3.51663e-01	
318	-1.84100e+02	-1.00273e+02	-3.51426e-01	
319	-1.84050e+02	-1.00273e+02	-3.51188e-01	
320	-1.84000e+02	-1.00273e+02	-3.50951e-01	
321	-1.83950e+02	-1.00273e+02	-3.50713e-01	
322	-1.83900e+02	-1.00273e+02	-3.50476e-01	
323	-1.83850e+02	-1.00273e+02	-3.50238e-01	
324	-1.83800e+02	-1.00273e+02	-3.50001e-01	
325	-1.83750e+02	-1.00272e+02	-3.49763e-01	
326	-1.83700e+02	-1.00272e+02	-3.49526e-01	
327	-1.83650e+02	-1.00272e+02	-3.49288e-01	
328	-1.83600e+02	-1.00272e+02	-3.49051e-01	
329	-1.83550e+02	-1.00272e+02	-3.48813e-01	
330	-1.83500e+02	-1.00272e+02	-3.48576e-01	
331	-1.83450e+02	-1.00272e+02	-3.48338e-01	
332	-1.83400e+02	-1.00272e+02	-3.48101e-01	
333	-1.83350e+02	-1.00272e+02	-3.47863e-01	
334	-1.83300e+02	-1.00271e+02	-3.47626e-01	
335	-1.83250e+02	-1.00271e+02	-3.47388e-01	
336	-1.83200e+02	-1.00271e+02	-3.47151e-01	
337	-1.83150e+02	-1.00271e+02	-3.46913e-01	
338	-1.83100e+02	-1.00271e+02	-3.46676e-01	
339	-1.83050e+02	-1.00271e+02	-3.46438e-01	
340	-1.83000e+02	-1.00271e+02	-3.46201e-01	
341	-1.82950e+02	-1.00271e+02	-3.45963e-01	
342	-1.82900e+02	-1.00271e+02	-3.45726e-01	
343	-1.82850e+02	-1.00270e+02	-3.45488e-01	
344	-1.82800e+02	-1.00270e+02	-3.45251e-01	

Index   v-sweep         v(4)            i(v)            
--------------------------------------------------------------------------------
345	-1.82750e+02	-1.00270e+02	-3.45013e-01	
346	-1.82700e+02	-1.00270e+02	-3.44776e-01	
347	-1.82650e+02	-1.00270e+02	-3.44538e-01	
348	-1.82600e+02	-1.00270e+02	-3.44301e-01	
349	-1.82550e+02	-1.00270e+02	-3.44063e-01	
350	-1.82500e+02	-1.00270e+02	-3.43826e-01	
351	-1.82450e+02	-1.00270e+02	-3.43588e-01	
352	-1.82400e+02	-1.00269e+02	-3.43351e-01	
353	-1.82350e+02	-1.00269e+02	-3.43113e-01	
354	-1.82300e+02	-1.00269e+02	-3.42876e-01	
355	-1.82250e+02	-1.00269e+02	-3.42638e-01	
356	-1.82200e+02	-1.00269e+02	-3.42401e-01	
357	-1.82150e+02	-1.00269e+02	-3.42163e-01	
358	-1.82100e+02	-1.00269e+02	-3.41926e-01	
359	-1.82050e+02	-1.00269e+02	-3.41688e-01	
360	-1.82000e+02	-1.00268e+02	-3.41451e-01	
361	-1.81950e+02	-1.00268e+02	-3.41213e-01	
362	-1.81900e+02	-1.00268e+02	-3.40976e-01	
363	-1.81850e+02	-1.00268e+02	-3.40738e-01	
364	-1.81800e+02	-1.00268e+02	-3.40501e-01	
365	-1.81750e+02	-1.00268e+02	-3.40263e-01	
366	-1.81700e+02	-1.00268e+02	-3.40026e-01	
367	-1.81650e+02	-1.00268e+02	-3.39788e-01	
368	-1.81600e+02	-1.00268e+02	-3.39551e-01	
369	-1.81550e+02	-1.00267e+02	-3.39313e-01	
370	-1.81500e+02	-1.00267e+02	-3.39076e-01	
371	-1.81450e+02	-1.00267e+02	-3.38838e-01	
372	-1.81400e+02	-1.00267e+02	-3.38601e-01	
373	-1.81350e+02	-1.00267e+02	-3.38363e-01	
374	-1.81300e+02	-1.00267e+02	-3.38126e-01	
375	-1.81250e+02	-1.00267e+02	-3.37888e-01	
376	-1.81200e+02	-1.00267e+02	-3.37651e-01	
377	-1.81150e+02	-1.00267e+02	-3.37413e-01	
378	-1.81100e+02	-1.00266e+02	-3.37176e-01	
379	-1.81050e+02	-1.00266e+02	-3.36938e-01	
380	-1.81000e+02	-1.00266e+02	-3.36701e-01	
381	-1.80950e+02	-1.00266e+02	-3.36463e-01	
382	-1.80900e+02	-1.00266e+02	-3.36226e-01	
383	-1.80850e+02	-1.00266e+02	-3.35988e-01	
384	-1.80800e+02	-1.00266e+02	-3.35751e-01	
385	-1.80750e+02	-1.00266e+02	-3.35513e-01	
386	-1.80700e+02	-1.00266e+02	-3.35276e-01	
387	-1.80650e+02	-1.00265e+02	-3.35038e-01	
388	-1.80600e+02	-1.00265e+02	-3.34801e-01	
389	-1.80550e+02	-1.00265e+02	-3.34563e-01	
390	-1.80500e+02	-1.00265e+02	-3.34326e-01	
391	-1.80450e+02	-1.00265e+02	-3.34088e-01	
392	-1.80400e+02	-1.00265e+02	-3.33851e-01	
393	-1.80350e+02	-1.00265e+02	-3.33613e-01	
394	-1.80300e+02	-1.00265e+02	-3.33376e-01	
395	-1.80250e+02	-1.00264e+02	-3.33138e-01	
396	-1.80200e+02	-1.00264e+02	-3.32901e-01	
397	-1.80150e+02	-1.00264e+02	-3.32663e-01	
398	-1.80100e+02	-1.00264e+02	-3.32426e-01	
399	-1.80050e+02	-1.00264e+02	-3.32188e-01	
400	-1.80000e+02	-1.00264e+02	-3.31951e-01	
401	-1.79950e+02	-1.00264e+02	-3.31714e-01	
402	-1.79900e+02	-1.00264e+02	-3.31476e-01	

Index   v-sweep         v(4)            i(v)            
--------------------------------------------------------------------------------
403	-1.79850e+02	-1.00264e+02	-3.31239e-01	
404	-1.79800e+02	-1.00263e+02	-3.31001e-01	
405	-1.79750e+02	-1.00263e+02	-3.30764e-01	
406	-1.79700e+02	-1.00263e+02	-3.30526e-01	
407	-1.79650e+02	-1.00263e+02	-3.30289e-01	
408	-1.79600e+02	-1.00263e+02	-3.30051e-01	
409	-1.79550e+02	-1.00263e+02	-3.29814e-01	
410	-1.79500e+02	-1.00263e+02	-3.29576e-01	
411	-1.79450e+02	-1.00263e+02	-3.29339e-01	
412	-1.79400e+02	-1.00263e+02	-3.29101e-01	
413	-1.79350e+02	-1.00262e+02	-3.28864e-01	
414	-1.79300e+02	-1.00262e+02	-3.28626e-01	
415	-1.79250e+02	-1.00262e+02	-3.28389e-01	
416	-1.79200e+02	-1.00262e+02	-3.28151e-01	
417	-1.79150e+02	-1.00262e+02	-3.27914e-01	
418	-1.79100e+02	-1.00262e+02	-3.27676e-01	
419	-1.79050e+02	-1.00262e+02	-3.27439e-01	
420	-1.79000e+02	-1.00262e+02	-3.27201e-01	
421	-1.78950e+02	-1.00261e+02	-3.26964e-01	
422	-1.78900e+02	-1.00261e+02	-3.26726e-01	
423	-1.78850e+02	-1.00261e+02	-3.26489e-01	
424	-1.78800e+02	-1.00261e+02	-3.26251e-01	
425	-1.78750e+02	-1.00261e+02	-3.26014e-01	
