               simulation exercise - iv characteristic of zener 
               DC transfer characteristic  Thu Aug 11 17:33:31  2022
--------------------------------------------------------------------------------
Index   v-sweep         v(4)            i(v)            
--------------------------------------------------------------------------------
0	-2.00000e+02	-1.74544e+02	-3.81025e-02	
1	-1.99950e+02	-1.74500e+02	-3.80927e-02	
2	-1.99900e+02	-1.74457e+02	-3.80829e-02	
3	-1.99850e+02	-1.74413e+02	-3.80731e-02	
4	-1.99800e+02	-1.74370e+02	-3.80633e-02	
5	-1.99750e+02	-1.74326e+02	-3.80535e-02	
6	-1.99700e+02	-1.74283e+02	-3.80437e-02	
7	-1.99650e+02	-1.74239e+02	-3.80340e-02	
8	-1.99600e+02	-1.74195e+02	-3.80242e-02	
9	-1.99550e+02	-1.74152e+02	-3.80144e-02	
10	-1.99500e+02	-1.74108e+02	-3.80046e-02	
11	-1.99450e+02	-1.74065e+02	-3.79948e-02	
12	-1.99400e+02	-1.74021e+02	-3.79850e-02	
13	-1.99350e+02	-1.73977e+02	-3.79752e-02	
14	-1.99300e+02	-1.73934e+02	-3.79654e-02	
15	-1.99250e+02	-1.73890e+02	-3.79556e-02	
16	-1.99200e+02	-1.73847e+02	-3.79458e-02	
17	-1.99150e+02	-1.73803e+02	-3.79361e-02	
18	-1.99100e+02	-1.73760e+02	-3.79263e-02	
19	-1.99050e+02	-1.73716e+02	-3.79165e-02	
20	-1.99000e+02	-1.73672e+02	-3.79067e-02	
21	-1.98950e+02	-1.73629e+02	-3.78969e-02	
22	-1.98900e+02	-1.73585e+02	-3.78871e-02	
23	-1.98850e+02	-1.73542e+02	-3.78773e-02	
24	-1.98800e+02	-1.73498e+02	-3.78675e-02	
25	-1.98750e+02	-1.73454e+02	-3.78577e-02	
26	-1.98700e+02	-1.73411e+02	-3.78479e-02	
27	-1.98650e+02	-1.73367e+02	-3.78382e-02	
28	-1.98600e+02	-1.73324e+02	-3.78284e-02	
29	-1.98550e+02	-1.73280e+02	-3.78186e-02	
30	-1.98500e+02	-1.73237e+02	-3.78088e-02	
31	-1.98450e+02	-1.73193e+02	-3.77990e-02	
32	-1.98400e+02	-1.73149e+02	-3.77892e-02	
33	-1.98350e+02	-1.73106e+02	-3.77794e-02	
34	-1.98300e+02	-1.73062e+02	-3.77696e-02	
35	-1.98250e+02	-1.73019e+02	-3.77598e-02	
36	-1.98200e+02	-1.72975e+02	-3.77500e-02	
37	-1.98150e+02	-1.72931e+02	-3.77403e-02	
38	-1.98100e+02	-1.72888e+02	-3.77305e-02	
39	-1.98050e+02	-1.72844e+02	-3.77207e-02	
40	-1.98000e+02	-1.72801e+02	-3.77109e-02	
41	-1.97950e+02	-1.72757e+02	-3.77011e-02	
42	-1.97900e+02	-1.72713e+02	-3.76913e-02	
43	-1.97850e+02	-1.72670e+02	-3.76815e-02	
44	-1.97800e+02	-1.72626e+02	-3.76717e-02	
45	-1.97750e+02	-1.72583e+02	-3.76619e-02	
46	-1.97700e+02	-1.72539e+02	-3.76521e-02	
47	-1.97650e+02	-1.72496e+02	-3.76424e-02	
48	-1.97600e+02	-1.72452e+02	-3.76326e-02	
49	-1.97550e+02	-1.72408e+02	-3.76228e-02	
50	-1.97500e+02	-1.72365e+02	-3.76130e-02	
51	-1.97450e+02	-1.72321e+02	-3.76032e-02	
52	-1.97400e+02	-1.72278e+02	-3.75934e-02	
53	-1.97350e+02	-1.72234e+02	-3.75836e-02	
54	-1.97300e+02	-1.72190e+02	-3.75738e-02	

Index   v-sweep         v(4)            i(v)            
--------------------------------------------------------------------------------
55	-1.97250e+02	-1.72147e+02	-3.75640e-02	
56	-1.97200e+02	-1.72103e+02	-3.75542e-02	
57	-1.97150e+02	-1.72060e+02	-3.75445e-02	
58	-1.97100e+02	-1.72016e+02	-3.75347e-02	
59	-1.97050e+02	-1.71973e+02	-3.75249e-02	
60	-1.97000e+02	-1.71929e+02	-3.75151e-02	
61	-1.96950e+02	-1.71885e+02	-3.75053e-02	
62	-1.96900e+02	-1.71842e+02	-3.74955e-02	
63	-1.96850e+02	-1.71798e+02	-3.74857e-02	
64	-1.96800e+02	-1.71755e+02	-3.74759e-02	
65	-1.96750e+02	-1.71711e+02	-3.74661e-02	
66	-1.96700e+02	-1.71667e+02	-3.74563e-02	
67	-1.96650e+02	-1.71624e+02	-3.74466e-02	
68	-1.96600e+02	-1.71580e+02	-3.74368e-02	
69	-1.96550e+02	-1.71537e+02	-3.74270e-02	
70	-1.96500e+02	-1.71493e+02	-3.74172e-02	
71	-1.96450e+02	-1.71449e+02	-3.74074e-02	
72	-1.96400e+02	-1.71406e+02	-3.73976e-02	
73	-1.96350e+02	-1.71362e+02	-3.73878e-02	
74	-1.96300e+02	-1.71319e+02	-3.73780e-02	
75	-1.96250e+02	-1.71275e+02	-3.73682e-02	
76	-1.96200e+02	-1.71232e+02	-3.73584e-02	
77	-1.96150e+02	-1.71188e+02	-3.73487e-02	
78	-1.96100e+02	-1.71144e+02	-3.73389e-02	
79	-1.96050e+02	-1.71101e+02	-3.73291e-02	
80	-1.96000e+02	-1.71057e+02	-3.73193e-02	
81	-1.95950e+02	-1.71014e+02	-3.73095e-02	
82	-1.95900e+02	-1.70970e+02	-3.72997e-02	
83	-1.95850e+02	-1.70926e+02	-3.72899e-02	
84	-1.95800e+02	-1.70883e+02	-3.72801e-02	
85	-1.95750e+02	-1.70839e+02	-3.72703e-02	
86	-1.95700e+02	-1.70796e+02	-3.72605e-02	
87	-1.95650e+02	-1.70752e+02	-3.72508e-02	
88	-1.95600e+02	-1.70709e+02	-3.72410e-02	
89	-1.95550e+02	-1.70665e+02	-3.72312e-02	
90	-1.95500e+02	-1.70621e+02	-3.72214e-02	
91	-1.95450e+02	-1.70578e+02	-3.72116e-02	
92	-1.95400e+02	-1.70534e+02	-3.72018e-02	
93	-1.95350e+02	-1.70491e+02	-3.71920e-02	
94	-1.95300e+02	-1.70447e+02	-3.71822e-02	
95	-1.95250e+02	-1.70403e+02	-3.71724e-02	
96	-1.95200e+02	-1.70360e+02	-3.71626e-02	
97	-1.95150e+02	-1.70316e+02	-3.71529e-02	
98	-1.95100e+02	-1.70273e+02	-3.71431e-02	
99	-1.95050e+02	-1.70229e+02	-3.71333e-02	
100	-1.95000e+02	-1.70186e+02	-3.71235e-02	
101	-1.94950e+02	-1.70142e+02	-3.71137e-02	
102	-1.94900e+02	-1.70098e+02	-3.71039e-02	
103	-1.94850e+02	-1.70055e+02	-3.70941e-02	
104	-1.94800e+02	-1.70011e+02	-3.70843e-02	
105	-1.94750e+02	-1.69968e+02	-3.70745e-02	
106	-1.94700e+02	-1.69924e+02	-3.70648e-02	
107	-1.94650e+02	-1.69880e+02	-3.70550e-02	
108	-1.94600e+02	-1.69837e+02	-3.70452e-02	
109	-1.94550e+02	-1.69793e+02	-3.70354e-02	
110	-1.94500e+02	-1.69750e+02	-3.70256e-02	
111	-1.94450e+02	-1.69706e+02	-3.70158e-02	
112	-1.94400e+02	-1.69662e+02	-3.70060e-02	

Index   v-sweep         v(4)            i(v)            
--------------------------------------------------------------------------------
113	-1.94350e+02	-1.69619e+02	-3.69962e-02	
114	-1.94300e+02	-1.69575e+02	-3.69864e-02	
115	-1.94250e+02	-1.69532e+02	-3.69766e-02	
116	-1.94200e+02	-1.69488e+02	-3.69669e-02	
117	-1.94150e+02	-1.69445e+02	-3.69571e-02	
118	-1.94100e+02	-1.69401e+02	-3.69473e-02	
119	-1.94050e+02	-1.69357e+02	-3.69375e-02	
120	-1.94000e+02	-1.69314e+02	-3.69277e-02	
121	-1.93950e+02	-1.69270e+02	-3.69179e-02	
122	-1.93900e+02	-1.69227e+02	-3.69081e-02	
123	-1.93850e+02	-1.69183e+02	-3.68983e-02	
124	-1.93800e+02	-1.69139e+02	-3.68885e-02	
125	-1.93750e+02	-1.69096e+02	-3.68787e-02	
126	-1.93700e+02	-1.69052e+02	-3.68690e-02	
127	-1.93650e+02	-1.69009e+02	-3.68592e-02	
128	-1.93600e+02	-1.68965e+02	-3.68494e-02	
129	-1.93550e+02	-1.68922e+02	-3.68396e-02	
130	-1.93500e+02	-1.68878e+02	-3.68298e-02	
131	-1.93450e+02	-1.68834e+02	-3.68200e-02	
132	-1.93400e+02	-1.68791e+02	-3.68102e-02	
133	-1.93350e+02	-1.68747e+02	-3.68004e-02	
134	-1.93300e+02	-1.68704e+02	-3.67906e-02	
135	-1.93250e+02	-1.68660e+02	-3.67808e-02	
136	-1.93200e+02	-1.68616e+02	-3.67711e-02	
137	-1.93150e+02	-1.68573e+02	-3.67613e-02	
138	-1.93100e+02	-1.68529e+02	-3.67515e-02	
139	-1.93050e+02	-1.68486e+02	-3.67417e-02	
140	-1.93000e+02	-1.68442e+02	-3.67319e-02	
141	-1.92950e+02	-1.68399e+02	-3.67221e-02	
142	-1.92900e+02	-1.68355e+02	-3.67123e-02	
143	-1.92850e+02	-1.68311e+02	-3.67025e-02	
144	-1.92800e+02	-1.68268e+02	-3.66927e-02	
145	-1.92750e+02	-1.68224e+02	-3.66829e-02	
146	-1.92700e+02	-1.68181e+02	-3.66732e-02	
147	-1.92650e+02	-1.68137e+02	-3.66634e-02	
148	-1.92600e+02	-1.68093e+02	-3.66536e-02	
149	-1.92550e+02	-1.68050e+02	-3.66438e-02	
150	-1.92500e+02	-1.68006e+02	-3.66340e-02	
151	-1.92450e+02	-1.67963e+02	-3.66242e-02	
152	-1.92400e+02	-1.67919e+02	-3.66144e-02	
153	-1.92350e+02	-1.67875e+02	-3.66046e-02	
154	-1.92300e+02	-1.67832e+02	-3.65948e-02	
155	-1.92250e+02	-1.67788e+02	-3.65850e-02	
156	-1.92200e+02	-1.67745e+02	-3.65753e-02	
157	-1.92150e+02	-1.67701e+02	-3.65655e-02	
158	-1.92100e+02	-1.67658e+02	-3.65557e-02	
159	-1.92050e+02	-1.67614e+02	-3.65459e-02	
160	-1.92000e+02	-1.67570e+02	-3.65361e-02	
161	-1.91950e+02	-1.67527e+02	-3.65263e-02	
162	-1.91900e+02	-1.67483e+02	-3.65165e-02	
163	-1.91850e+02	-1.67440e+02	-3.65067e-02	
164	-1.91800e+02	-1.67396e+02	-3.64969e-02	
165	-1.91750e+02	-1.67352e+02	-3.64871e-02	
166	-1.91700e+02	-1.67309e+02	-3.64774e-02	
167	-1.91650e+02	-1.67265e+02	-3.64676e-02	
168	-1.91600e+02	-1.67222e+02	-3.64578e-02	
169	-1.91550e+02	-1.67178e+02	-3.64480e-02	
170	-1.91500e+02	-1.67135e+02	-3.64382e-02	

Index   v-sweep         v(4)            i(v)            
--------------------------------------------------------------------------------
171	-1.91450e+02	-1.67091e+02	-3.64284e-02	
172	-1.91400e+02	-1.67047e+02	-3.64186e-02	
173	-1.91350e+02	-1.67004e+02	-3.64088e-02	
174	-1.91300e+02	-1.66960e+02	-3.63990e-02	
175	-1.91250e+02	-1.66917e+02	-3.63893e-02	
176	-1.91200e+02	-1.66873e+02	-3.63795e-02	
177	-1.91150e+02	-1.66829e+02	-3.63697e-02	
178	-1.91100e+02	-1.66786e+02	-3.63599e-02	
179	-1.91050e+02	-1.66742e+02	-3.63501e-02	
180	-1.91000e+02	-1.66699e+02	-3.63403e-02	
181	-1.90950e+02	-1.66655e+02	-3.63305e-02	
182	-1.90900e+02	-1.66611e+02	-3.63207e-02	
183	-1.90850e+02	-1.66568e+02	-3.63109e-02	
184	-1.90800e+02	-1.66524e+02	-3.63011e-02	
185	-1.90750e+02	-1.66481e+02	-3.62914e-02	
186	-1.90700e+02	-1.66437e+02	-3.62816e-02	
187	-1.90650e+02	-1.66394e+02	-3.62718e-02	
188	-1.90600e+02	-1.66350e+02	-3.62620e-02	
189	-1.90550e+02	-1.66306e+02	-3.62522e-02	
190	-1.90500e+02	-1.66263e+02	-3.62424e-02	
191	-1.90450e+02	-1.66219e+02	-3.62326e-02	
192	-1.90400e+02	-1.66176e+02	-3.62228e-02	
193	-1.90350e+02	-1.66132e+02	-3.62130e-02	
194	-1.90300e+02	-1.66088e+02	-3.62032e-02	
195	-1.90250e+02	-1.66045e+02	-3.61935e-02	
196	-1.90200e+02	-1.66001e+02	-3.61837e-02	
197	-1.90150e+02	-1.65958e+02	-3.61739e-02	
198	-1.90100e+02	-1.65914e+02	-3.61641e-02	
199	-1.90050e+02	-1.65871e+02	-3.61543e-02	
200	-1.90000e+02	-1.65827e+02	-3.61445e-02	
201	-1.89950e+02	-1.65783e+02	-3.61347e-02	
202	-1.89900e+02	-1.65740e+02	-3.61249e-02	
203	-1.89850e+02	-1.65696e+02	-3.61151e-02	
204	-1.89800e+02	-1.65653e+02	-3.61053e-02	
205	-1.89750e+02	-1.65609e+02	-3.60956e-02	
206	-1.89700e+02	-1.65565e+02	-3.60858e-02	
207	-1.89650e+02	-1.65522e+02	-3.60760e-02	
208	-1.89600e+02	-1.65478e+02	-3.60662e-02	
209	-1.89550e+02	-1.65435e+02	-3.60564e-02	
210	-1.89500e+02	-1.65391e+02	-3.60466e-02	
211	-1.89450e+02	-1.65348e+02	-3.60368e-02	
212	-1.89400e+02	-1.65304e+02	-3.60270e-02	
213	-1.89350e+02	-1.65260e+02	-3.60172e-02	
214	-1.89300e+02	-1.65217e+02	-3.60074e-02	
215	-1.89250e+02	-1.65173e+02	-3.59977e-02	
216	-1.89200e+02	-1.65130e+02	-3.59879e-02	
217	-1.89150e+02	-1.65086e+02	-3.59781e-02	
218	-1.89100e+02	-1.65042e+02	-3.59683e-02	
219	-1.89050e+02	-1.64999e+02	-3.59585e-02	
220	-1.89000e+02	-1.64955e+02	-3.59487e-02	
221	-1.88950e+02	-1.64912e+02	-3.59389e-02	
222	-1.88900e+02	-1.64868e+02	-3.59291e-02	
223	-1.88850e+02	-1.64824e+02	-3.59193e-02	
224	-1.88800e+02	-1.64781e+02	-3.59096e-02	
225	-1.88750e+02	-1.64737e+02	-3.58998e-02	
226	-1.88700e+02	-1.64694e+02	-3.58900e-02	
227	-1.88650e+02	-1.64650e+02	-3.58802e-02	
228	-1.88600e+02	-1.64607e+02	-3.58704e-02	

Index   v-sweep         v(4)            i(v)            
--------------------------------------------------------------------------------
229	-1.88550e+02	-1.64563e+02	-3.58606e-02	
230	-1.88500e+02	-1.64519e+02	-3.58508e-02	
231	-1.88450e+02	-1.64476e+02	-3.58410e-02	
232	-1.88400e+02	-1.64432e+02	-3.58312e-02	
233	-1.88350e+02	-1.64389e+02	-3.58214e-02	
234	-1.88300e+02	-1.64345e+02	-3.58117e-02	
235	-1.88250e+02	-1.64301e+02	-3.58019e-02	
236	-1.88200e+02	-1.64258e+02	-3.57921e-02	
237	-1.88150e+02	-1.64214e+02	-3.57823e-02	
238	-1.88100e+02	-1.64171e+02	-3.57725e-02	
239	-1.88050e+02	-1.64127e+02	-3.57627e-02	
240	-1.88000e+02	-1.64084e+02	-3.57529e-02	
241	-1.87950e+02	-1.64040e+02	-3.57431e-02	
242	-1.87900e+02	-1.63996e+02	-3.57333e-02	
243	-1.87850e+02	-1.63953e+02	-3.57235e-02	
244	-1.87800e+02	-1.63909e+02	-3.57138e-02	
245	-1.87750e+02	-1.63866e+02	-3.57040e-02	
246	-1.87700e+02	-1.63822e+02	-3.56942e-02	
247	-1.87650e+02	-1.63778e+02	-3.56844e-02	
248	-1.87600e+02	-1.63735e+02	-3.56746e-02	
249	-1.87550e+02	-1.63691e+02	-3.56648e-02	
250	-1.87500e+02	-1.63648e+02	-3.56550e-02	
251	-1.87450e+02	-1.63604e+02	-3.56452e-02	
252	-1.87400e+02	-1.63561e+02	-3.56354e-02	
253	-1.87350e+02	-1.63517e+02	-3.56256e-02	
254	-1.87300e+02	-1.63473e+02	-3.56159e-02	
255	-1.87250e+02	-1.63430e+02	-3.56061e-02	
256	-1.87200e+02	-1.63386e+02	-3.55963e-02	
257	-1.87150e+02	-1.63343e+02	-3.55865e-02	
258	-1.87100e+02	-1.63299e+02	-3.55767e-02	
259	-1.87050e+02	-1.63255e+02	-3.55669e-02	
260	-1.87000e+02	-1.63212e+02	-3.55571e-02	
261	-1.86950e+02	-1.63168e+02	-3.55473e-02	
262	-1.86900e+02	-1.63125e+02	-3.55375e-02	
263	-1.86850e+02	-1.63081e+02	-3.55278e-02	
264	-1.86800e+02	-1.63037e+02	-3.55180e-02	
265	-1.86750e+02	-1.62994e+02	-3.55082e-02	
266	-1.86700e+02	-1.62950e+02	-3.54984e-02	
267	-1.86650e+02	-1.62907e+02	-3.54886e-02	
268	-1.86600e+02	-1.62863e+02	-3.54788e-02	
269	-1.86550e+02	-1.62820e+02	-3.54690e-02	
270	-1.86500e+02	-1.62776e+02	-3.54592e-02	
271	-1.86450e+02	-1.62732e+02	-3.54494e-02	
272	-1.86400e+02	-1.62689e+02	-3.54396e-02	
273	-1.86350e+02	-1.62645e+02	-3.54299e-02	
274	-1.86300e+02	-1.62602e+02	-3.54201e-02	
275	-1.86250e+02	-1.62558e+02	-3.54103e-02	
276	-1.86200e+02	-1.62514e+02	-3.54005e-02	
277	-1.86150e+02	-1.62471e+02	-3.53907e-02	
278	-1.86100e+02	-1.62427e+02	-3.53809e-02	
279	-1.86050e+02	-1.62384e+02	-3.53711e-02	
280	-1.86000e+02	-1.62340e+02	-3.53613e-02	
281	-1.85950e+02	-1.62297e+02	-3.53515e-02	
282	-1.85900e+02	-1.62253e+02	-3.53417e-02	
283	-1.85850e+02	-1.62209e+02	-3.53320e-02	
284	-1.85800e+02	-1.62166e+02	-3.53222e-02	
285	-1.85750e+02	-1.62122e+02	-3.53124e-02	
286	-1.85700e+02	-1.62079e+02	-3.53026e-02	

Index   v-sweep         v(4)            i(v)            
--------------------------------------------------------------------------------
287	-1.85650e+02	-1.62035e+02	-3.52928e-02	
288	-1.85600e+02	-1.61991e+02	-3.52830e-02	
289	-1.85550e+02	-1.61948e+02	-3.52732e-02	
290	-1.85500e+02	-1.61904e+02	-3.52634e-02	
291	-1.85450e+02	-1.61861e+02	-3.52536e-02	
292	-1.85400e+02	-1.61817e+02	-3.52438e-02	
293	-1.85350e+02	-1.61773e+02	-3.52341e-02	
294	-1.85300e+02	-1.61730e+02	-3.52243e-02	
295	-1.85250e+02	-1.61686e+02	-3.52145e-02	
296	-1.85200e+02	-1.61643e+02	-3.52047e-02	
297	-1.85150e+02	-1.61599e+02	-3.51949e-02	
298	-1.85100e+02	-1.61556e+02	-3.51851e-02	
299	-1.85050e+02	-1.61512e+02	-3.51753e-02	
300	-1.85000e+02	-1.61468e+02	-3.51655e-02	
301	-1.84950e+02	-1.61425e+02	-3.51557e-02	
302	-1.84900e+02	-1.61381e+02	-3.51460e-02	
303	-1.84850e+02	-1.61338e+02	-3.51362e-02	
304	-1.84800e+02	-1.61294e+02	-3.51264e-02	
305	-1.84750e+02	-1.61250e+02	-3.51166e-02	
306	-1.84700e+02	-1.61207e+02	-3.51068e-02	
307	-1.84650e+02	-1.61163e+02	-3.50970e-02	
308	-1.84600e+02	-1.61120e+02	-3.50872e-02	
309	-1.84550e+02	-1.61076e+02	-3.50774e-02	
310	-1.84500e+02	-1.61033e+02	-3.50676e-02	
311	-1.84450e+02	-1.60989e+02	-3.50578e-02	
312	-1.84400e+02	-1.60945e+02	-3.50481e-02	
313	-1.84350e+02	-1.60902e+02	-3.50383e-02	
314	-1.84300e+02	-1.60858e+02	-3.50285e-02	
315	-1.84250e+02	-1.60815e+02	-3.50187e-02	
316	-1.84200e+02	-1.60771e+02	-3.50089e-02	
317	-1.84150e+02	-1.60727e+02	-3.49991e-02	
318	-1.84100e+02	-1.60684e+02	-3.49893e-02	
319	-1.84050e+02	-1.60640e+02	-3.49795e-02	
320	-1.84000e+02	-1.60597e+02	-3.49697e-02	
321	-1.83950e+02	-1.60553e+02	-3.49599e-02	
322	-1.83900e+02	-1.60510e+02	-3.49502e-02	
323	-1.83850e+02	-1.60466e+02	-3.49404e-02	
324	-1.83800e+02	-1.60422e+02	-3.49306e-02	
325	-1.83750e+02	-1.60379e+02	-3.49208e-02	
326	-1.83700e+02	-1.60335e+02	-3.49110e-02	
327	-1.83650e+02	-1.60292e+02	-3.49012e-02	
328	-1.83600e+02	-1.60248e+02	-3.48914e-02	
329	-1.83550e+02	-1.60204e+02	-3.48816e-02	
330	-1.83500e+02	-1.60161e+02	-3.48718e-02	
331	-1.83450e+02	-1.60117e+02	-3.48621e-02	
332	-1.83400e+02	-1.60074e+02	-3.48523e-02	
333	-1.83350e+02	-1.60030e+02	-3.48425e-02	
334	-1.83300e+02	-1.59986e+02	-3.48327e-02	
335	-1.83250e+02	-1.59943e+02	-3.48229e-02	
336	-1.83200e+02	-1.59899e+02	-3.48131e-02	
337	-1.83150e+02	-1.59856e+02	-3.48033e-02	
338	-1.83100e+02	-1.59812e+02	-3.47935e-02	
339	-1.83050e+02	-1.59769e+02	-3.47837e-02	
340	-1.83000e+02	-1.59725e+02	-3.47739e-02	
341	-1.82950e+02	-1.59681e+02	-3.47642e-02	
342	-1.82900e+02	-1.59638e+02	-3.47544e-02	
343	-1.82850e+02	-1.59594e+02	-3.47446e-02	
344	-1.82800e+02	-1.59551e+02	-3.47348e-02	

Index   v-sweep         v(4)            i(v)            
--------------------------------------------------------------------------------
345	-1.82750e+02	-1.59507e+02	-3.47250e-02	
346	-1.82700e+02	-1.59463e+02	-3.47152e-02	
347	-1.82650e+02	-1.59420e+02	-3.47054e-02	
348	-1.82600e+02	-1.59376e+02	-3.46956e-02	
349	-1.82550e+02	-1.59333e+02	-3.46858e-02	
350	-1.82500e+02	-1.59289e+02	-3.46761e-02	
351	-1.82450e+02	-1.59246e+02	-3.46663e-02	
352	-1.82400e+02	-1.59202e+02	-3.46565e-02	
353	-1.82350e+02	-1.59158e+02	-3.46467e-02	
354	-1.82300e+02	-1.59115e+02	-3.46369e-02	
355	-1.82250e+02	-1.59071e+02	-3.46271e-02	
356	-1.82200e+02	-1.59028e+02	-3.46173e-02	
357	-1.82150e+02	-1.58984e+02	-3.46075e-02	
358	-1.82100e+02	-1.58940e+02	-3.45977e-02	
359	-1.82050e+02	-1.58897e+02	-3.45879e-02	
360	-1.82000e+02	-1.58853e+02	-3.45782e-02	
361	-1.81950e+02	-1.58810e+02	-3.45684e-02	
362	-1.81900e+02	-1.58766e+02	-3.45586e-02	
363	-1.81850e+02	-1.58723e+02	-3.45488e-02	
364	-1.81800e+02	-1.58679e+02	-3.45390e-02	
365	-1.81750e+02	-1.58635e+02	-3.45292e-02	
366	-1.81700e+02	-1.58592e+02	-3.45194e-02	
367	-1.81650e+02	-1.58548e+02	-3.45096e-02	
368	-1.81600e+02	-1.58505e+02	-3.44998e-02	
369	-1.81550e+02	-1.58461e+02	-3.44900e-02	
370	-1.81500e+02	-1.58417e+02	-3.44803e-02	
371	-1.81450e+02	-1.58374e+02	-3.44705e-02	
372	-1.81400e+02	-1.58330e+02	-3.44607e-02	
373	-1.81350e+02	-1.58287e+02	-3.44509e-02	
374	-1.81300e+02	-1.58243e+02	-3.44411e-02	
375	-1.81250e+02	-1.58199e+02	-3.44313e-02	
376	-1.81200e+02	-1.58156e+02	-3.44215e-02	
377	-1.81150e+02	-1.58112e+02	-3.44117e-02	
378	-1.81100e+02	-1.58069e+02	-3.44019e-02	
379	-1.81050e+02	-1.58025e+02	-3.43922e-02	
380	-1.81000e+02	-1.57982e+02	-3.43824e-02	
381	-1.80950e+02	-1.57938e+02	-3.43726e-02	
382	-1.80900e+02	-1.57894e+02	-3.43628e-02	
383	-1.80850e+02	-1.57851e+02	-3.43530e-02	
384	-1.80800e+02	-1.57807e+02	-3.43432e-02	
385	-1.80750e+02	-1.57764e+02	-3.43334e-02	
386	-1.80700e+02	-1.57720e+02	-3.43236e-02	
387	-1.80650e+02	-1.57676e+02	-3.43138e-02	
388	-1.80600e+02	-1.57633e+02	-3.43040e-02	
389	-1.80550e+02	-1.57589e+02	-3.42943e-02	
390	-1.80500e+02	-1.57546e+02	-3.42845e-02	
391	-1.80450e+02	-1.57502e+02	-3.42747e-02	
392	-1.80400e+02	-1.57459e+02	-3.42649e-02	
393	-1.80350e+02	-1.57415e+02	-3.42551e-02	
394	-1.80300e+02	-1.57371e+02	-3.42453e-02	
395	-1.80250e+02	-1.57328e+02	-3.42355e-02	
396	-1.80200e+02	-1.57284e+02	-3.42257e-02	
397	-1.80150e+02	-1.57241e+02	-3.42159e-02	
398	-1.80100e+02	-1.57197e+02	-3.42062e-02	
399	-1.80050e+02	-1.57153e+02	-3.41964e-02	
400	-1.80000e+02	-1.57110e+02	-3.41866e-02	
401	-1.79950e+02	-1.57066e+02	-3.41768e-02	
402	-1.79900e+02	-1.57023e+02	-3.41670e-02	

Index   v-sweep         v(4)            i(v)            
--------------------------------------------------------------------------------
403	-1.79850e+02	-1.56979e+02	-3.41572e-02	
404	-1.79800e+02	-1.56935e+02	-3.41474e-02	
405	-1.79750e+02	-1.56892e+02	-3.41376e-02	
406	-1.79700e+02	-1.56848e+02	-3.41278e-02	
407	-1.79650e+02	-1.56805e+02	-3.41180e-02	
408	-1.79600e+02	-1.56761e+02	-3.41083e-02	
409	-1.79550e+02	-1.56718e+02	-3.40985e-02	
410	-1.79500e+02	-1.56674e+02	-3.40887e-02	
411	-1.79450e+02	-1.56630e+02	-3.40789e-02	
412	-1.79400e+02	-1.56587e+02	-3.40691e-02	
413	-1.79350e+02	-1.56543e+02	-3.40593e-02	
414	-1.79300e+02	-1.56500e+02	-3.40495e-02	
415	-1.79250e+02	-1.56456e+02	-3.40397e-02	
416	-1.79200e+02	-1.56412e+02	-3.40299e-02	
417	-1.79150e+02	-1.56369e+02	-3.40202e-02	
418	-1.79100e+02	-1.56325e+02	-3.40104e-02	
419	-1.79050e+02	-1.56282e+02	-3.40006e-02	
420	-1.79000e+02	-1.56238e+02	-3.39908e-02	
421	-1.78950e+02	-1.56195e+02	-3.39810e-02	
422	-1.78900e+02	-1.56151e+02	-3.39712e-02	
423	-1.78850e+02	-1.56107e+02	-3.39614e-02	
424	-1.78800e+02	-1.56064e+02	-3.39516e-02	
425	-1.78750e+02	-1.56020e+02	-3.39418e-02	
