                                   photodiode
                                   DC transfer characteristic  Sat Oct  1 14:08:42  2022
--------------------------------------------------------------------------------
Index   v-sweep         v(2,5)          i(vdc_xs)       
--------------------------------------------------------------------------------
0	-2.00000e+00	-1.99991e+00	-8.06735e-04	
1	-1.99000e+00	-1.98991e+00	-8.02751e-04	
2	-1.98000e+00	-1.97991e+00	-7.98768e-04	
3	-1.97000e+00	-1.96991e+00	-7.94784e-04	
4	-1.96000e+00	-1.95991e+00	-7.90800e-04	
5	-1.95000e+00	-1.94991e+00	-7.86816e-04	
6	-1.94000e+00	-1.93991e+00	-7.82832e-04	
7	-1.93000e+00	-1.92991e+00	-7.78848e-04	
8	-1.92000e+00	-1.91991e+00	-7.74864e-04	
9	-1.91000e+00	-1.90991e+00	-7.70880e-04	
10	-1.90000e+00	-1.89991e+00	-7.66896e-04	
11	-1.89000e+00	-1.88991e+00	-7.62912e-04	
12	-1.88000e+00	-1.87991e+00	-7.58928e-04	
13	-1.87000e+00	-1.86991e+00	-7.54945e-04	
14	-1.86000e+00	-1.85991e+00	-7.50961e-04	
15	-1.85000e+00	-1.84991e+00	-7.46977e-04	
16	-1.84000e+00	-1.83991e+00	-7.42993e-04	
17	-1.83000e+00	-1.82991e+00	-7.39009e-04	
18	-1.82000e+00	-1.81991e+00	-7.35025e-04	
19	-1.81000e+00	-1.80991e+00	-7.31041e-04	
20	-1.80000e+00	-1.79991e+00	-7.27057e-04	
21	-1.79000e+00	-1.78991e+00	-7.23073e-04	
22	-1.78000e+00	-1.77991e+00	-7.19089e-04	
23	-1.77000e+00	-1.76991e+00	-7.15105e-04	
24	-1.76000e+00	-1.75992e+00	-7.11121e-04	
25	-1.75000e+00	-1.74992e+00	-7.07138e-04	
26	-1.74000e+00	-1.73992e+00	-7.03154e-04	
27	-1.73000e+00	-1.72992e+00	-6.99170e-04	
28	-1.72000e+00	-1.71992e+00	-6.95186e-04	
29	-1.71000e+00	-1.70992e+00	-6.91202e-04	
30	-1.70000e+00	-1.69992e+00	-6.87218e-04	
31	-1.69000e+00	-1.68992e+00	-6.83234e-04	
32	-1.68000e+00	-1.67992e+00	-6.79250e-04	
33	-1.67000e+00	-1.66992e+00	-6.75266e-04	
34	-1.66000e+00	-1.65992e+00	-6.71282e-04	
35	-1.65000e+00	-1.64992e+00	-6.67298e-04	
36	-1.64000e+00	-1.63992e+00	-6.63314e-04	
37	-1.63000e+00	-1.62992e+00	-6.59330e-04	
38	-1.62000e+00	-1.61992e+00	-6.55347e-04	
39	-1.61000e+00	-1.60992e+00	-6.51363e-04	
40	-1.60000e+00	-1.59992e+00	-6.47379e-04	
41	-1.59000e+00	-1.58992e+00	-6.43395e-04	
42	-1.58000e+00	-1.57992e+00	-6.39411e-04	
43	-1.57000e+00	-1.56992e+00	-6.35427e-04	
44	-1.56000e+00	-1.55992e+00	-6.31443e-04	
45	-1.55000e+00	-1.54992e+00	-6.27459e-04	
46	-1.54000e+00	-1.53992e+00	-6.23475e-04	
47	-1.53000e+00	-1.52992e+00	-6.19491e-04	
48	-1.52000e+00	-1.51992e+00	-6.15507e-04	
49	-1.51000e+00	-1.50992e+00	-6.11523e-04	
50	-1.50000e+00	-1.49992e+00	-6.07540e-04	
51	-1.49000e+00	-1.48993e+00	-6.03556e-04	
52	-1.48000e+00	-1.47993e+00	-5.99572e-04	
53	-1.47000e+00	-1.46993e+00	-5.95588e-04	
54	-1.46000e+00	-1.45993e+00	-5.91604e-04	

Index   v-sweep         v(2,5)          i(vdc_xs)       
--------------------------------------------------------------------------------
55	-1.45000e+00	-1.44993e+00	-5.87620e-04	
56	-1.44000e+00	-1.43993e+00	-5.83636e-04	
57	-1.43000e+00	-1.42993e+00	-5.79652e-04	
58	-1.42000e+00	-1.41993e+00	-5.75668e-04	
59	-1.41000e+00	-1.40993e+00	-5.71684e-04	
60	-1.40000e+00	-1.39993e+00	-5.67700e-04	
61	-1.39000e+00	-1.38993e+00	-5.63716e-04	
62	-1.38000e+00	-1.37993e+00	-5.59733e-04	
63	-1.37000e+00	-1.36993e+00	-5.55749e-04	
64	-1.36000e+00	-1.35993e+00	-5.51765e-04	
65	-1.35000e+00	-1.34993e+00	-5.47781e-04	
66	-1.34000e+00	-1.33993e+00	-5.43797e-04	
67	-1.33000e+00	-1.32993e+00	-5.39813e-04	
68	-1.32000e+00	-1.31993e+00	-5.35829e-04	
69	-1.31000e+00	-1.30993e+00	-5.31845e-04	
70	-1.30000e+00	-1.29993e+00	-5.27861e-04	
71	-1.29000e+00	-1.28993e+00	-5.23877e-04	
72	-1.28000e+00	-1.27993e+00	-5.19893e-04	
73	-1.27000e+00	-1.26993e+00	-5.15909e-04	
74	-1.26000e+00	-1.25993e+00	-5.11925e-04	
75	-1.25000e+00	-1.24993e+00	-5.07942e-04	
76	-1.24000e+00	-1.23993e+00	-5.03958e-04	
77	-1.23000e+00	-1.22993e+00	-4.99974e-04	
78	-1.22000e+00	-1.21994e+00	-4.95990e-04	
79	-1.21000e+00	-1.20994e+00	-4.92006e-04	
80	-1.20000e+00	-1.19994e+00	-4.88022e-04	
81	-1.19000e+00	-1.18994e+00	-4.84038e-04	
82	-1.18000e+00	-1.17994e+00	-4.80054e-04	
83	-1.17000e+00	-1.16994e+00	-4.76070e-04	
84	-1.16000e+00	-1.15994e+00	-4.72086e-04	
85	-1.15000e+00	-1.14994e+00	-4.68102e-04	
86	-1.14000e+00	-1.13994e+00	-4.64118e-04	
87	-1.13000e+00	-1.12994e+00	-4.60134e-04	
88	-1.12000e+00	-1.11994e+00	-4.56150e-04	
89	-1.11000e+00	-1.10994e+00	-4.52167e-04	
90	-1.10000e+00	-1.09994e+00	-4.48183e-04	
91	-1.09000e+00	-1.08994e+00	-4.44199e-04	
92	-1.08000e+00	-1.07994e+00	-4.40215e-04	
93	-1.07000e+00	-1.06994e+00	-4.36231e-04	
94	-1.06000e+00	-1.05994e+00	-4.32247e-04	
95	-1.05000e+00	-1.04994e+00	-4.28263e-04	
96	-1.04000e+00	-1.03994e+00	-4.24279e-04	
97	-1.03000e+00	-1.02994e+00	-4.20295e-04	
98	-1.02000e+00	-1.01994e+00	-4.16311e-04	
99	-1.01000e+00	-1.00994e+00	-4.12327e-04	
100	-1.00000e+00	-9.99944e-01	-4.08343e-04	
101	-9.90000e-01	-9.89944e-01	-4.04359e-04	
102	-9.80000e-01	-9.79944e-01	-4.00375e-04	
103	-9.70000e-01	-9.69945e-01	-3.96391e-04	
104	-9.60000e-01	-9.59945e-01	-3.92407e-04	
105	-9.50000e-01	-9.49945e-01	-3.88424e-04	
106	-9.40000e-01	-9.39946e-01	-3.84440e-04	
107	-9.30000e-01	-9.29946e-01	-3.80456e-04	
108	-9.20000e-01	-9.19947e-01	-3.76472e-04	
109	-9.10000e-01	-9.09947e-01	-3.72488e-04	
110	-9.00000e-01	-8.99947e-01	-3.68504e-04	
111	-8.90000e-01	-8.89948e-01	-3.64520e-04	
112	-8.80000e-01	-8.79948e-01	-3.60536e-04	

Index   v-sweep         v(2,5)          i(vdc_xs)       
--------------------------------------------------------------------------------
113	-8.70000e-01	-8.69948e-01	-3.56552e-04	
114	-8.60000e-01	-8.59949e-01	-3.52568e-04	
115	-8.50000e-01	-8.49949e-01	-3.48584e-04	
116	-8.40000e-01	-8.39950e-01	-3.44600e-04	
117	-8.30000e-01	-8.29950e-01	-3.40616e-04	
118	-8.20000e-01	-8.19950e-01	-3.36632e-04	
119	-8.10000e-01	-8.09951e-01	-3.32648e-04	
120	-8.00000e-01	-7.99951e-01	-3.28664e-04	
121	-7.90000e-01	-7.89951e-01	-3.24680e-04	
122	-7.80000e-01	-7.79952e-01	-3.20696e-04	
123	-7.70000e-01	-7.69952e-01	-3.16712e-04	
124	-7.60000e-01	-7.59953e-01	-3.12728e-04	
125	-7.50000e-01	-7.49953e-01	-3.08744e-04	
126	-7.40000e-01	-7.39953e-01	-3.04760e-04	
127	-7.30000e-01	-7.29954e-01	-3.00776e-04	
128	-7.20000e-01	-7.19954e-01	-2.96792e-04	
129	-7.10000e-01	-7.09954e-01	-2.92808e-04	
130	-7.00000e-01	-6.99955e-01	-2.88824e-04	
131	-6.90000e-01	-6.89955e-01	-2.84840e-04	
132	-6.80000e-01	-6.79955e-01	-2.80856e-04	
133	-6.70000e-01	-6.69956e-01	-2.76872e-04	
134	-6.60000e-01	-6.59956e-01	-2.72888e-04	
135	-6.50000e-01	-6.49957e-01	-2.68904e-04	
136	-6.40000e-01	-6.39957e-01	-2.64920e-04	
137	-6.30000e-01	-6.29957e-01	-2.60936e-04	
138	-6.20000e-01	-6.19958e-01	-2.56952e-04	
139	-6.10000e-01	-6.09958e-01	-2.52968e-04	
140	-6.00000e-01	-5.99958e-01	-2.48984e-04	
141	-5.90000e-01	-5.89959e-01	-2.45000e-04	
142	-5.80000e-01	-5.79959e-01	-2.41016e-04	
143	-5.70000e-01	-5.69960e-01	-2.37031e-04	
144	-5.60000e-01	-5.59960e-01	-2.33047e-04	
145	-5.50000e-01	-5.49960e-01	-2.29063e-04	
146	-5.40000e-01	-5.39961e-01	-2.25079e-04	
147	-5.30000e-01	-5.29961e-01	-2.21095e-04	
148	-5.20000e-01	-5.19961e-01	-2.17110e-04	
149	-5.10000e-01	-5.09962e-01	-2.13126e-04	
150	-5.00000e-01	-4.99962e-01	-2.09142e-04	
151	-4.90000e-01	-4.89963e-01	-2.05158e-04	
152	-4.80000e-01	-4.79963e-01	-2.01173e-04	
153	-4.70000e-01	-4.69963e-01	-1.97189e-04	
154	-4.60000e-01	-4.59964e-01	-1.93204e-04	
155	-4.50000e-01	-4.49964e-01	-1.89220e-04	
156	-4.40000e-01	-4.39964e-01	-1.85235e-04	
157	-4.30000e-01	-4.29965e-01	-1.81251e-04	
158	-4.20000e-01	-4.19965e-01	-1.77266e-04	
159	-4.10000e-01	-4.09966e-01	-1.73282e-04	
160	-4.00000e-01	-3.99966e-01	-1.69297e-04	
161	-3.90000e-01	-3.89966e-01	-1.65312e-04	
162	-3.80000e-01	-3.79967e-01	-1.61327e-04	
163	-3.70000e-01	-3.69967e-01	-1.57342e-04	
164	-3.60000e-01	-3.59967e-01	-1.53356e-04	
165	-3.50000e-01	-3.49968e-01	-1.49371e-04	
166	-3.40000e-01	-3.39968e-01	-1.45385e-04	
167	-3.30000e-01	-3.29968e-01	-1.41400e-04	
168	-3.20000e-01	-3.19969e-01	-1.37414e-04	
169	-3.10000e-01	-3.09969e-01	-1.33427e-04	
170	-3.00000e-01	-2.99970e-01	-1.29441e-04	

Index   v-sweep         v(2,5)          i(vdc_xs)       
--------------------------------------------------------------------------------
171	-2.90000e-01	-2.89970e-01	-1.25454e-04	
172	-2.80000e-01	-2.79970e-01	-1.21466e-04	
173	-2.70000e-01	-2.69971e-01	-1.17478e-04	
174	-2.60000e-01	-2.59971e-01	-1.13489e-04	
175	-2.50000e-01	-2.49971e-01	-1.09500e-04	
176	-2.40000e-01	-2.39972e-01	-1.05509e-04	
177	-2.30000e-01	-2.29972e-01	-1.01517e-04	
178	-2.20000e-01	-2.19973e-01	-9.75242e-05	
179	-2.10000e-01	-2.09973e-01	-9.35291e-05	
180	-2.00000e-01	-1.99973e-01	-8.95317e-05	
181	-1.90000e-01	-1.89974e-01	-8.55313e-05	
182	-1.80000e-01	-1.79974e-01	-8.15270e-05	
183	-1.70000e-01	-1.69974e-01	-7.75176e-05	
184	-1.60000e-01	-1.59975e-01	-7.35015e-05	
185	-1.50000e-01	-1.49975e-01	-6.94762e-05	
186	-1.40000e-01	-1.39976e-01	-6.54382e-05	
187	-1.30000e-01	-1.29976e-01	-6.13822e-05	
188	-1.20000e-01	-1.19976e-01	-5.73002e-05	
189	-1.10000e-01	-1.09977e-01	-5.31824e-05	
190	-1.00000e-01	-9.99770e-02	-4.90250e-05	
191	-9.00000e-02	-8.99774e-02	-4.48167e-05	
192	-8.00000e-02	-7.99778e-02	-4.05428e-05	
193	-7.00000e-02	-6.99781e-02	-3.61842e-05	
194	-6.00000e-02	-5.99785e-02	-3.17159e-05	
195	-5.00000e-02	-4.99789e-02	-2.71061e-05	
196	-4.00000e-02	-3.99793e-02	-2.23135e-05	
197	-3.00000e-02	-2.99796e-02	-1.72846e-05	
198	-2.00000e-02	-1.99800e-02	-1.19507e-05	
199	-1.00000e-02	-9.98038e-03	-6.22305e-06	
200	1.641048e-15	1.925198e-05	1.258135e-08	
201	1.000000e-02	1.001888e-02	6.903366e-06	
202	2.000000e-02	2.001851e-02	1.463848e-05	
203	3.000000e-02	3.001813e-02	2.346078e-05	
204	4.000000e-02	4.001776e-02	3.368136e-05	
205	5.000000e-02	5.001738e-02	4.569775e-05	
206	6.000000e-02	6.001700e-02	6.001622e-05	
207	7.000000e-02	7.001662e-02	7.727875e-05	
208	8.000000e-02	8.001624e-02	9.829499e-05	
209	9.000000e-02	9.001585e-02	1.240790e-04	
210	1.000000e-01	1.000155e-01	1.558894e-04	
211	1.100000e-01	1.100151e-01	1.952715e-04	
212	1.200000e-01	1.200147e-01	2.440954e-04	
213	1.300000e-01	1.300142e-01	3.045852e-04	
214	1.400000e-01	1.400138e-01	3.793287e-04	
215	1.500000e-01	1.500134e-01	4.712569e-04	
216	1.600000e-01	1.600129e-01	5.835822e-04	
217	1.700000e-01	1.700125e-01	7.196880e-04	
218	1.800000e-01	1.800120e-01	8.829696e-04	
219	1.900000e-01	1.900115e-01	1.076638e-03	
220	2.000000e-01	2.000109e-01	1.303515e-03	
221	2.100000e-01	2.100103e-01	1.565840e-03	
222	2.200000e-01	2.200098e-01	1.865144e-03	
223	2.300000e-01	2.300091e-01	2.202177e-03	
224	2.400000e-01	2.400085e-01	2.576930e-03	
225	2.500000e-01	2.500078e-01	2.988712e-03	
226	2.600000e-01	2.600071e-01	3.436277e-03	
227	2.700000e-01	2.700064e-01	3.917966e-03	
228	2.800000e-01	2.800056e-01	4.431845e-03	

Index   v-sweep         v(2,5)          i(vdc_xs)       
--------------------------------------------------------------------------------
229	2.900000e-01	2.900048e-01	4.975833e-03	
230	3.000000e-01	3.000040e-01	5.547800e-03	
231	3.100000e-01	3.100032e-01	6.145640e-03	
232	3.200000e-01	3.200024e-01	6.767326e-03	
233	3.300000e-01	3.300015e-01	7.410941e-03	
234	3.400000e-01	3.400006e-01	8.074698e-03	
235	3.500000e-01	3.499997e-01	8.756947e-03	
236	3.600000e-01	3.599988e-01	9.456175e-03	
237	3.700000e-01	3.699979e-01	1.017100e-02	
238	3.800000e-01	3.799970e-01	1.090017e-02	
239	3.900000e-01	3.899961e-01	1.164255e-02	
240	4.000000e-01	3.999951e-01	1.239710e-02	
241	4.100000e-01	4.099942e-01	1.316290e-02	
242	4.200000e-01	4.199932e-01	1.393909e-02	
243	4.300000e-01	4.299923e-01	1.472491e-02	
244	4.400000e-01	4.399913e-01	1.551967e-02	
245	4.500000e-01	4.499903e-01	1.632274e-02	
246	4.600000e-01	4.599893e-01	1.713355e-02	
247	4.700000e-01	4.699884e-01	1.795157e-02	
248	4.800000e-01	4.799874e-01	1.877632e-02	
249	4.900000e-01	4.899864e-01	1.960739e-02	
250	5.000000e-01	4.999854e-01	2.044436e-02	
251	5.100000e-01	5.099844e-01	2.128688e-02	
252	5.200000e-01	5.199833e-01	2.213461e-02	
253	5.300000e-01	5.299823e-01	2.298725e-02	
254	5.400000e-01	5.399813e-01	2.384452e-02	
255	5.500000e-01	5.499803e-01	2.470615e-02	
256	5.600000e-01	5.599793e-01	2.557191e-02	
257	5.700000e-01	5.699782e-01	2.644157e-02	
258	5.800000e-01	5.799772e-01	2.731494e-02	
259	5.900000e-01	5.899762e-01	2.819181e-02	
260	6.000000e-01	5.999751e-01	2.907202e-02	
261	6.100000e-01	6.099741e-01	2.995539e-02	
262	6.200000e-01	6.199731e-01	3.084178e-02	
263	6.300000e-01	6.299720e-01	3.173105e-02	
264	6.400000e-01	6.399710e-01	3.262305e-02	
265	6.500000e-01	6.499699e-01	3.351766e-02	
266	6.600000e-01	6.599689e-01	3.441478e-02	
267	6.700000e-01	6.699678e-01	3.531428e-02	
268	6.800000e-01	6.799668e-01	3.621607e-02	
269	6.900000e-01	6.899657e-01	3.712004e-02	
270	7.000000e-01	6.999647e-01	3.802612e-02	
271	7.100000e-01	7.099636e-01	3.893421e-02	
272	7.200000e-01	7.199626e-01	3.984423e-02	
273	7.300000e-01	7.274211e-01	4.052425e-02	
274	7.400000e-01	7.278734e-01	4.056552e-02	
275	7.500000e-01	7.280469e-01	4.058136e-02	
276	7.600000e-01	7.281412e-01	4.058996e-02	
277	7.700000e-01	7.281999e-01	4.059532e-02	
278	7.800000e-01	7.282490e-01	4.059980e-02	
279	7.900000e-01	7.282879e-01	4.060335e-02	
280	8.000000e-01	7.283173e-01	4.060603e-02	
281	8.100000e-01	7.283395e-01	4.060806e-02	
282	8.200000e-01	7.283561e-01	4.060957e-02	
283	8.300000e-01	7.283683e-01	4.061069e-02	
284	8.400000e-01	7.283771e-01	4.061149e-02	
285	8.500000e-01	7.283835e-01	4.061207e-02	
286	8.600000e-01	7.283879e-01	4.061248e-02	

Index   v-sweep         v(2,5)          i(vdc_xs)       
--------------------------------------------------------------------------------
287	8.700000e-01	7.283910e-01	4.061276e-02	
288	8.800000e-01	7.283932e-01	4.061296e-02	
289	8.900000e-01	7.283947e-01	4.061309e-02	
290	9.000000e-01	7.283957e-01	4.061319e-02	
291	9.100000e-01	7.283964e-01	4.061325e-02	
292	9.200000e-01	7.283969e-01	4.061330e-02	
293	9.300000e-01	7.283973e-01	4.061333e-02	
294	9.400000e-01	7.283975e-01	4.061335e-02	
295	9.500000e-01	7.283977e-01	4.061336e-02	
296	9.600000e-01	7.283978e-01	4.061338e-02	
297	9.700000e-01	7.283979e-01	4.061338e-02	
298	9.800000e-01	7.283979e-01	4.061339e-02	
299	9.900000e-01	7.283980e-01	4.061339e-02	
300	1.000000e+00	7.283980e-01	4.061340e-02	
301	1.010000e+00	7.283980e-01	4.061340e-02	
302	1.020000e+00	7.283980e-01	4.061340e-02	
303	1.030000e+00	7.283981e-01	4.061340e-02	
304	1.040000e+00	7.283981e-01	4.061340e-02	
305	1.050000e+00	7.283981e-01	4.061340e-02	
306	1.060000e+00	7.283981e-01	4.061341e-02	
307	1.070000e+00	7.283981e-01	4.061341e-02	
308	1.080000e+00	7.283981e-01	4.061341e-02	
309	1.090000e+00	7.283982e-01	4.061341e-02	
310	1.100000e+00	7.283982e-01	4.061341e-02	
311	1.110000e+00	7.283982e-01	4.061341e-02	
312	1.120000e+00	7.283982e-01	4.061341e-02	
313	1.130000e+00	7.283982e-01	4.061341e-02	
314	1.140000e+00	7.283982e-01	4.061342e-02	
315	1.150000e+00	7.283982e-01	4.061342e-02	
316	1.160000e+00	7.283982e-01	4.061342e-02	
317	1.170000e+00	7.283983e-01	4.061342e-02	
318	1.180000e+00	7.283983e-01	4.061342e-02	
319	1.190000e+00	7.283983e-01	4.061342e-02	
320	1.200000e+00	7.283983e-01	4.061342e-02	
321	1.210000e+00	7.283983e-01	4.061342e-02	
322	1.220000e+00	7.283983e-01	4.061343e-02	
323	1.230000e+00	7.283983e-01	4.061343e-02	
324	1.240000e+00	7.283984e-01	4.061343e-02	
325	1.250000e+00	7.283984e-01	4.061343e-02	
326	1.260000e+00	7.283984e-01	4.061343e-02	
327	1.270000e+00	7.283984e-01	4.061343e-02	
328	1.280000e+00	7.283984e-01	4.061343e-02	
329	1.290000e+00	7.283984e-01	4.061343e-02	
330	1.300000e+00	7.283984e-01	4.061344e-02	
331	1.310000e+00	7.283984e-01	4.061344e-02	
332	1.320000e+00	7.283985e-01	4.061344e-02	
333	1.330000e+00	7.283985e-01	4.061344e-02	
334	1.340000e+00	7.283985e-01	4.061344e-02	
335	1.350000e+00	7.283985e-01	4.061344e-02	
336	1.360000e+00	7.283985e-01	4.061344e-02	
337	1.370000e+00	7.283985e-01	4.061344e-02	
338	1.380000e+00	7.283985e-01	4.061344e-02	
339	1.390000e+00	7.283985e-01	4.061345e-02	
340	1.400000e+00	7.283986e-01	4.061345e-02	
341	1.410000e+00	7.283986e-01	4.061345e-02	
342	1.420000e+00	7.283986e-01	4.061345e-02	
343	1.430000e+00	7.283986e-01	4.061345e-02	
344	1.440000e+00	7.283986e-01	4.061345e-02	

Index   v-sweep         v(2,5)          i(vdc_xs)       
--------------------------------------------------------------------------------
345	1.450000e+00	7.283986e-01	4.061345e-02	
346	1.460000e+00	7.283986e-01	4.061345e-02	
347	1.470000e+00	7.283987e-01	4.061346e-02	
348	1.480000e+00	7.283987e-01	4.061346e-02	
349	1.490000e+00	7.283987e-01	4.061346e-02	
350	1.500000e+00	7.283987e-01	4.061346e-02	
351	1.510000e+00	7.283987e-01	4.061346e-02	
352	1.520000e+00	7.283987e-01	4.061346e-02	
353	1.530000e+00	7.283987e-01	4.061346e-02	
354	1.540000e+00	7.283987e-01	4.061346e-02	
355	1.550000e+00	7.283988e-01	4.061346e-02	
356	1.560000e+00	7.283988e-01	4.061347e-02	
357	1.570000e+00	7.283988e-01	4.061347e-02	
358	1.580000e+00	7.283988e-01	4.061347e-02	
359	1.590000e+00	7.283988e-01	4.061347e-02	
360	1.600000e+00	7.283988e-01	4.061347e-02	
361	1.610000e+00	7.283988e-01	4.061347e-02	
362	1.620000e+00	7.283988e-01	4.061347e-02	
363	1.630000e+00	7.283989e-01	4.061347e-02	
364	1.640000e+00	7.283989e-01	4.061348e-02	
365	1.650000e+00	7.283989e-01	4.061348e-02	
366	1.660000e+00	7.283989e-01	4.061348e-02	
367	1.670000e+00	7.283989e-01	4.061348e-02	
368	1.680000e+00	7.283989e-01	4.061348e-02	
369	1.690000e+00	7.283989e-01	4.061348e-02	
370	1.700000e+00	7.283990e-01	4.061348e-02	
371	1.710000e+00	7.283990e-01	4.061348e-02	
372	1.720000e+00	7.283990e-01	4.061349e-02	
373	1.730000e+00	7.283990e-01	4.061349e-02	
374	1.740000e+00	7.283990e-01	4.061349e-02	
375	1.750000e+00	7.283990e-01	4.061349e-02	
376	1.760000e+00	7.283990e-01	4.061349e-02	
377	1.770000e+00	7.283990e-01	4.061349e-02	
378	1.780000e+00	7.283991e-01	4.061349e-02	
379	1.790000e+00	7.283991e-01	4.061349e-02	
380	1.800000e+00	7.283991e-01	4.061349e-02	
381	1.810000e+00	7.283991e-01	4.061350e-02	
382	1.820000e+00	7.283991e-01	4.061350e-02	
383	1.830000e+00	7.283991e-01	4.061350e-02	
384	1.840000e+00	7.283991e-01	4.061350e-02	
385	1.850000e+00	7.283991e-01	4.061350e-02	
386	1.860000e+00	7.283992e-01	4.061350e-02	
387	1.870000e+00	7.283992e-01	4.061350e-02	
388	1.880000e+00	7.283992e-01	4.061350e-02	
389	1.890000e+00	7.283992e-01	4.061351e-02	
390	1.900000e+00	7.283992e-01	4.061351e-02	
391	1.910000e+00	7.283992e-01	4.061351e-02	
392	1.920000e+00	7.283992e-01	4.061351e-02	
393	1.930000e+00	7.283992e-01	4.061351e-02	
394	1.940000e+00	7.283993e-01	4.061351e-02	
395	1.950000e+00	7.283993e-01	4.061351e-02	
396	1.960000e+00	7.283993e-01	4.061351e-02	
397	1.970000e+00	7.283993e-01	4.061351e-02	
398	1.980000e+00	7.283993e-01	4.061352e-02	
399	1.990000e+00	7.283993e-01	4.061352e-02	
400	2.000000e+00	7.283993e-01	4.061352e-02	
