                                   photodiode
                                   DC transfer characteristic  Sat Oct  1 13:58:12  2022
--------------------------------------------------------------------------------
Index   v-sweep         i(vdc_xs3)      v(2,7)          
--------------------------------------------------------------------------------
0	-2.00000e+00	-2.29891e-03	-1.99990e+00	
1	-1.99000e+00	-2.29492e-03	-1.98990e+00	
2	-1.98000e+00	-2.29094e-03	-1.97990e+00	
3	-1.97000e+00	-2.28695e-03	-1.96990e+00	
4	-1.96000e+00	-2.28297e-03	-1.95990e+00	
5	-1.95000e+00	-2.27899e-03	-1.94990e+00	
6	-1.94000e+00	-2.27500e-03	-1.93990e+00	
7	-1.93000e+00	-2.27102e-03	-1.92990e+00	
8	-1.92000e+00	-2.26704e-03	-1.91990e+00	
9	-1.91000e+00	-2.26305e-03	-1.90990e+00	
10	-1.90000e+00	-2.25907e-03	-1.89990e+00	
11	-1.89000e+00	-2.25508e-03	-1.88990e+00	
12	-1.88000e+00	-2.25110e-03	-1.87990e+00	
13	-1.87000e+00	-2.24712e-03	-1.86990e+00	
14	-1.86000e+00	-2.24313e-03	-1.85990e+00	
15	-1.85000e+00	-2.23915e-03	-1.84990e+00	
16	-1.84000e+00	-2.23516e-03	-1.83990e+00	
17	-1.83000e+00	-2.23118e-03	-1.82990e+00	
18	-1.82000e+00	-2.22720e-03	-1.81990e+00	
19	-1.81000e+00	-2.22321e-03	-1.80990e+00	
20	-1.80000e+00	-2.21923e-03	-1.79990e+00	
21	-1.79000e+00	-2.21524e-03	-1.78990e+00	
22	-1.78000e+00	-2.21126e-03	-1.77990e+00	
23	-1.77000e+00	-2.20728e-03	-1.76990e+00	
24	-1.76000e+00	-2.20329e-03	-1.75990e+00	
25	-1.75000e+00	-2.19931e-03	-1.74991e+00	
26	-1.74000e+00	-2.19532e-03	-1.73991e+00	
27	-1.73000e+00	-2.19134e-03	-1.72991e+00	
28	-1.72000e+00	-2.18736e-03	-1.71991e+00	
29	-1.71000e+00	-2.18337e-03	-1.70991e+00	
30	-1.70000e+00	-2.17939e-03	-1.69991e+00	
31	-1.69000e+00	-2.17541e-03	-1.68991e+00	
32	-1.68000e+00	-2.17142e-03	-1.67991e+00	
33	-1.67000e+00	-2.16744e-03	-1.66991e+00	
34	-1.66000e+00	-2.16345e-03	-1.65991e+00	
35	-1.65000e+00	-2.15947e-03	-1.64991e+00	
36	-1.64000e+00	-2.15549e-03	-1.63991e+00	
37	-1.63000e+00	-2.15150e-03	-1.62991e+00	
38	-1.62000e+00	-2.14752e-03	-1.61991e+00	
39	-1.61000e+00	-2.14353e-03	-1.60991e+00	
40	-1.60000e+00	-2.13955e-03	-1.59991e+00	
41	-1.59000e+00	-2.13557e-03	-1.58991e+00	
42	-1.58000e+00	-2.13158e-03	-1.57991e+00	
43	-1.57000e+00	-2.12760e-03	-1.56991e+00	
44	-1.56000e+00	-2.12361e-03	-1.55991e+00	
45	-1.55000e+00	-2.11963e-03	-1.54991e+00	
46	-1.54000e+00	-2.11565e-03	-1.53991e+00	
47	-1.53000e+00	-2.11166e-03	-1.52991e+00	
48	-1.52000e+00	-2.10768e-03	-1.51991e+00	
49	-1.51000e+00	-2.10369e-03	-1.50991e+00	
50	-1.50000e+00	-2.09971e-03	-1.49991e+00	
51	-1.49000e+00	-2.09573e-03	-1.48992e+00	
52	-1.48000e+00	-2.09174e-03	-1.47992e+00	
53	-1.47000e+00	-2.08776e-03	-1.46992e+00	
54	-1.46000e+00	-2.08378e-03	-1.45992e+00	

Index   v-sweep         i(vdc_xs3)      v(2,7)          
--------------------------------------------------------------------------------
55	-1.45000e+00	-2.07979e-03	-1.44992e+00	
56	-1.44000e+00	-2.07581e-03	-1.43992e+00	
57	-1.43000e+00	-2.07182e-03	-1.42992e+00	
58	-1.42000e+00	-2.06784e-03	-1.41992e+00	
59	-1.41000e+00	-2.06386e-03	-1.40992e+00	
60	-1.40000e+00	-2.05987e-03	-1.39992e+00	
61	-1.39000e+00	-2.05589e-03	-1.38992e+00	
62	-1.38000e+00	-2.05190e-03	-1.37992e+00	
63	-1.37000e+00	-2.04792e-03	-1.36992e+00	
64	-1.36000e+00	-2.04394e-03	-1.35992e+00	
65	-1.35000e+00	-2.03995e-03	-1.34992e+00	
66	-1.34000e+00	-2.03597e-03	-1.33992e+00	
67	-1.33000e+00	-2.03198e-03	-1.32992e+00	
68	-1.32000e+00	-2.02800e-03	-1.31992e+00	
69	-1.31000e+00	-2.02402e-03	-1.30992e+00	
70	-1.30000e+00	-2.02003e-03	-1.29992e+00	
71	-1.29000e+00	-2.01605e-03	-1.28992e+00	
72	-1.28000e+00	-2.01206e-03	-1.27992e+00	
73	-1.27000e+00	-2.00808e-03	-1.26992e+00	
74	-1.26000e+00	-2.00410e-03	-1.25992e+00	
75	-1.25000e+00	-2.00011e-03	-1.24992e+00	
76	-1.24000e+00	-1.99613e-03	-1.23992e+00	
77	-1.23000e+00	-1.99215e-03	-1.22993e+00	
78	-1.22000e+00	-1.98816e-03	-1.21993e+00	
79	-1.21000e+00	-1.98418e-03	-1.20993e+00	
80	-1.20000e+00	-1.98019e-03	-1.19993e+00	
81	-1.19000e+00	-1.97621e-03	-1.18993e+00	
82	-1.18000e+00	-1.97223e-03	-1.17993e+00	
83	-1.17000e+00	-1.96824e-03	-1.16993e+00	
84	-1.16000e+00	-1.96426e-03	-1.15993e+00	
85	-1.15000e+00	-1.96027e-03	-1.14993e+00	
86	-1.14000e+00	-1.95629e-03	-1.13993e+00	
87	-1.13000e+00	-1.95231e-03	-1.12993e+00	
88	-1.12000e+00	-1.94832e-03	-1.11993e+00	
89	-1.11000e+00	-1.94434e-03	-1.10993e+00	
90	-1.10000e+00	-1.94035e-03	-1.09993e+00	
91	-1.09000e+00	-1.93637e-03	-1.08993e+00	
92	-1.08000e+00	-1.93239e-03	-1.07993e+00	
93	-1.07000e+00	-1.92840e-03	-1.06993e+00	
94	-1.06000e+00	-1.92442e-03	-1.05993e+00	
95	-1.05000e+00	-1.92043e-03	-1.04993e+00	
96	-1.04000e+00	-1.91645e-03	-1.03993e+00	
97	-1.03000e+00	-1.91247e-03	-1.02993e+00	
98	-1.02000e+00	-1.90848e-03	-1.01993e+00	
99	-1.01000e+00	-1.90450e-03	-1.00993e+00	
100	-1.00000e+00	-1.90052e-03	-9.99934e-01	
101	-9.90000e-01	-1.89653e-03	-9.89935e-01	
102	-9.80000e-01	-1.89255e-03	-9.79935e-01	
103	-9.70000e-01	-1.88856e-03	-9.69935e-01	
104	-9.60000e-01	-1.88458e-03	-9.59936e-01	
105	-9.50000e-01	-1.88060e-03	-9.49936e-01	
106	-9.40000e-01	-1.87661e-03	-9.39937e-01	
107	-9.30000e-01	-1.87263e-03	-9.29937e-01	
108	-9.20000e-01	-1.86864e-03	-9.19937e-01	
109	-9.10000e-01	-1.86466e-03	-9.09938e-01	
110	-9.00000e-01	-1.86068e-03	-8.99938e-01	
111	-8.90000e-01	-1.85669e-03	-8.89938e-01	
112	-8.80000e-01	-1.85271e-03	-8.79939e-01	

Index   v-sweep         i(vdc_xs3)      v(2,7)          
--------------------------------------------------------------------------------
113	-8.70000e-01	-1.84872e-03	-8.69939e-01	
114	-8.60000e-01	-1.84474e-03	-8.59940e-01	
115	-8.50000e-01	-1.84076e-03	-8.49940e-01	
116	-8.40000e-01	-1.83677e-03	-8.39940e-01	
117	-8.30000e-01	-1.83279e-03	-8.29941e-01	
118	-8.20000e-01	-1.82880e-03	-8.19941e-01	
119	-8.10000e-01	-1.82482e-03	-8.09942e-01	
120	-8.00000e-01	-1.82084e-03	-7.99942e-01	
121	-7.90000e-01	-1.81685e-03	-7.89942e-01	
122	-7.80000e-01	-1.81287e-03	-7.79943e-01	
123	-7.70000e-01	-1.80888e-03	-7.69943e-01	
124	-7.60000e-01	-1.80490e-03	-7.59943e-01	
125	-7.50000e-01	-1.80092e-03	-7.49944e-01	
126	-7.40000e-01	-1.79693e-03	-7.39944e-01	
127	-7.30000e-01	-1.79295e-03	-7.29945e-01	
128	-7.20000e-01	-1.78896e-03	-7.19945e-01	
129	-7.10000e-01	-1.78498e-03	-7.09945e-01	
130	-7.00000e-01	-1.78100e-03	-6.99946e-01	
131	-6.90000e-01	-1.77701e-03	-6.89946e-01	
132	-6.80000e-01	-1.77303e-03	-6.79947e-01	
133	-6.70000e-01	-1.76904e-03	-6.69947e-01	
134	-6.60000e-01	-1.76506e-03	-6.59947e-01	
135	-6.50000e-01	-1.76108e-03	-6.49948e-01	
136	-6.40000e-01	-1.75709e-03	-6.39948e-01	
137	-6.30000e-01	-1.75311e-03	-6.29948e-01	
138	-6.20000e-01	-1.74912e-03	-6.19949e-01	
139	-6.10000e-01	-1.74514e-03	-6.09949e-01	
140	-6.00000e-01	-1.74116e-03	-5.99950e-01	
141	-5.90000e-01	-1.73717e-03	-5.89950e-01	
142	-5.80000e-01	-1.73319e-03	-5.79950e-01	
143	-5.70000e-01	-1.72920e-03	-5.69951e-01	
144	-5.60000e-01	-1.72522e-03	-5.59951e-01	
145	-5.50000e-01	-1.72124e-03	-5.49952e-01	
146	-5.40000e-01	-1.71725e-03	-5.39952e-01	
147	-5.30000e-01	-1.71327e-03	-5.29952e-01	
148	-5.20000e-01	-1.70928e-03	-5.19953e-01	
149	-5.10000e-01	-1.70530e-03	-5.09953e-01	
150	-5.00000e-01	-1.70131e-03	-4.99953e-01	
151	-4.90000e-01	-1.69733e-03	-4.89954e-01	
152	-4.80000e-01	-1.69335e-03	-4.79954e-01	
153	-4.70000e-01	-1.68936e-03	-4.69955e-01	
154	-4.60000e-01	-1.68538e-03	-4.59955e-01	
155	-4.50000e-01	-1.68139e-03	-4.49955e-01	
156	-4.40000e-01	-1.67741e-03	-4.39956e-01	
157	-4.30000e-01	-1.67342e-03	-4.29956e-01	
158	-4.20000e-01	-1.66944e-03	-4.19957e-01	
159	-4.10000e-01	-1.66545e-03	-4.09957e-01	
160	-4.00000e-01	-1.66147e-03	-3.99957e-01	
161	-3.90000e-01	-1.65749e-03	-3.89958e-01	
162	-3.80000e-01	-1.65350e-03	-3.79958e-01	
163	-3.70000e-01	-1.64952e-03	-3.69959e-01	
164	-3.60000e-01	-1.64553e-03	-3.59959e-01	
165	-3.50000e-01	-1.64154e-03	-3.49959e-01	
166	-3.40000e-01	-1.63756e-03	-3.39960e-01	
167	-3.30000e-01	-1.63357e-03	-3.29960e-01	
168	-3.20000e-01	-1.62959e-03	-3.19960e-01	
169	-3.10000e-01	-1.62560e-03	-3.09961e-01	
170	-3.00000e-01	-1.62161e-03	-2.99961e-01	

Index   v-sweep         i(vdc_xs3)      v(2,7)          
--------------------------------------------------------------------------------
171	-2.90000e-01	-1.61763e-03	-2.89962e-01	
172	-2.80000e-01	-1.61364e-03	-2.79962e-01	
173	-2.70000e-01	-1.60965e-03	-2.69962e-01	
174	-2.60000e-01	-1.60566e-03	-2.59963e-01	
175	-2.50000e-01	-1.60167e-03	-2.49963e-01	
176	-2.40000e-01	-1.59768e-03	-2.39964e-01	
177	-2.30000e-01	-1.59369e-03	-2.29964e-01	
178	-2.20000e-01	-1.58970e-03	-2.19964e-01	
179	-2.10000e-01	-1.58570e-03	-2.09965e-01	
180	-2.00000e-01	-1.58170e-03	-1.99965e-01	
181	-1.90000e-01	-1.57770e-03	-1.89965e-01	
182	-1.80000e-01	-1.57369e-03	-1.79966e-01	
183	-1.70000e-01	-1.56968e-03	-1.69966e-01	
184	-1.60000e-01	-1.56566e-03	-1.59967e-01	
185	-1.50000e-01	-1.56163e-03	-1.49967e-01	
186	-1.40000e-01	-1.55758e-03	-1.39967e-01	
187	-1.30000e-01	-1.55350e-03	-1.29968e-01	
188	-1.20000e-01	-1.54939e-03	-1.19968e-01	
189	-1.10000e-01	-1.54525e-03	-1.09969e-01	
190	-1.00000e-01	-1.54106e-03	-9.99689e-02	
191	-9.00000e-02	-1.53681e-03	-8.99693e-02	
192	-8.00000e-02	-1.53248e-03	-7.99697e-02	
193	-7.00000e-02	-1.52805e-03	-6.99701e-02	
194	-6.00000e-02	-1.52349e-03	-5.99704e-02	
195	-5.00000e-02	-1.51875e-03	-4.99708e-02	
196	-4.00000e-02	-1.51380e-03	-3.99712e-02	
197	-3.00000e-02	-1.50856e-03	-2.99716e-02	
198	-2.00000e-02	-1.50296e-03	-1.99720e-02	
199	-1.00000e-02	-1.49687e-03	-9.97240e-03	
200	1.641048e-15	-1.49018e-03	2.719922e-05	
201	1.000000e-02	-1.48268e-03	1.002680e-02	
202	2.000000e-02	-1.47416e-03	2.002639e-02	
203	3.000000e-02	-1.46432e-03	3.002598e-02	
204	4.000000e-02	-1.45278e-03	4.002556e-02	
205	5.000000e-02	-1.43905e-03	5.002512e-02	
206	6.000000e-02	-1.42252e-03	6.002468e-02	
207	7.000000e-02	-1.40242e-03	7.002421e-02	
208	8.000000e-02	-1.37775e-03	8.002373e-02	
209	9.000000e-02	-1.34731e-03	9.002321e-02	
210	1.000000e-01	-1.30958e-03	1.000227e-01	
211	1.100000e-01	-1.26276e-03	1.100221e-01	
212	1.200000e-01	-1.20464e-03	1.200214e-01	
213	1.300000e-01	-1.13268e-03	1.300207e-01	
214	1.400000e-01	-1.04397e-03	1.400199e-01	
215	1.500000e-01	-9.35297e-04	1.500190e-01	
216	1.600000e-01	-8.03251e-04	1.600180e-01	
217	1.700000e-01	-6.44383e-04	1.700169e-01	
218	1.800000e-01	-4.55399e-04	1.800156e-01	
219	1.900000e-01	-2.33370e-04	1.900142e-01	
220	2.000000e-01	2.410991e-05	2.000126e-01	
221	2.100000e-01	3.186114e-04	2.100109e-01	
222	2.200000e-01	6.510283e-04	2.200090e-01	
223	2.300000e-01	1.021366e-03	2.300069e-01	
224	2.400000e-01	1.429136e-03	2.400046e-01	
225	2.500000e-01	1.873065e-03	2.500022e-01	
226	2.600000e-01	2.351507e-03	2.599996e-01	
227	2.700000e-01	2.862522e-03	2.699969e-01	
228	2.800000e-01	3.404012e-03	2.799940e-01	

Index   v-sweep         i(vdc_xs3)      v(2,7)          
--------------------------------------------------------------------------------
229	2.900000e-01	3.973819e-03	2.899911e-01	
230	3.000000e-01	4.569806e-03	2.999880e-01	
231	3.100000e-01	5.189913e-03	3.099848e-01	
232	3.200000e-01	5.832192e-03	3.199815e-01	
233	3.300000e-01	6.494824e-03	3.299781e-01	
234	3.400000e-01	6.830486e-03	3.349354e-01	
235	3.500000e-01	6.835768e-03	3.350129e-01	
236	3.600000e-01	6.838478e-03	3.350526e-01	
237	3.700000e-01	6.839169e-03	3.350628e-01	
238	3.800000e-01	6.839429e-03	3.350666e-01	
239	3.900000e-01	6.840134e-03	3.350769e-01	
240	4.000000e-01	6.840650e-03	3.350845e-01	
241	4.100000e-01	6.841051e-03	3.350904e-01	
242	4.200000e-01	6.841354e-03	3.350948e-01	
243	4.300000e-01	6.841578e-03	3.350981e-01	
244	4.400000e-01	6.841742e-03	3.351005e-01	
245	4.500000e-01	6.841859e-03	3.351022e-01	
246	4.600000e-01	6.841943e-03	3.351034e-01	
247	4.700000e-01	6.842001e-03	3.351043e-01	
248	4.800000e-01	6.842042e-03	3.351049e-01	
249	4.900000e-01	6.842070e-03	3.351053e-01	
250	5.000000e-01	6.842089e-03	3.351056e-01	
251	5.100000e-01	6.842102e-03	3.351058e-01	
252	5.200000e-01	6.842111e-03	3.351059e-01	
253	5.300000e-01	6.842118e-03	3.351060e-01	
254	5.400000e-01	6.842122e-03	3.351061e-01	
255	5.500000e-01	6.842125e-03	3.351061e-01	
256	5.600000e-01	6.842127e-03	3.351062e-01	
257	5.700000e-01	6.842128e-03	3.351062e-01	
258	5.800000e-01	6.842129e-03	3.351062e-01	
259	5.900000e-01	6.842130e-03	3.351062e-01	
260	6.000000e-01	6.842131e-03	3.351062e-01	
261	6.100000e-01	6.842131e-03	3.351062e-01	
262	6.200000e-01	6.842132e-03	3.351062e-01	
263	6.300000e-01	6.842132e-03	3.351062e-01	
264	6.400000e-01	6.842132e-03	3.351062e-01	
265	6.500000e-01	6.842133e-03	3.351062e-01	
266	6.600000e-01	6.842133e-03	3.351062e-01	
267	6.700000e-01	6.842133e-03	3.351062e-01	
268	6.800000e-01	6.842133e-03	3.351062e-01	
269	6.900000e-01	6.842133e-03	3.351062e-01	
270	7.000000e-01	6.842134e-03	3.351063e-01	
271	7.100000e-01	6.842134e-03	3.351063e-01	
272	7.200000e-01	6.842134e-03	3.351063e-01	
273	7.300000e-01	6.842134e-03	3.351063e-01	
274	7.400000e-01	6.842134e-03	3.351063e-01	
275	7.500000e-01	6.842135e-03	3.351063e-01	
276	7.600000e-01	6.842135e-03	3.351063e-01	
277	7.700000e-01	6.842135e-03	3.351063e-01	
278	7.800000e-01	6.842135e-03	3.351063e-01	
279	7.900000e-01	6.842135e-03	3.351063e-01	
280	8.000000e-01	6.842136e-03	3.351063e-01	
281	8.100000e-01	6.842136e-03	3.351063e-01	
282	8.200000e-01	6.842136e-03	3.351063e-01	
283	8.300000e-01	6.842136e-03	3.351063e-01	
284	8.400000e-01	6.842136e-03	3.351063e-01	
285	8.500000e-01	6.842137e-03	3.351063e-01	
286	8.600000e-01	6.842137e-03	3.351063e-01	

Index   v-sweep         i(vdc_xs3)      v(2,7)          
--------------------------------------------------------------------------------
287	8.700000e-01	6.842137e-03	3.351063e-01	
288	8.800000e-01	6.842137e-03	3.351063e-01	
289	8.900000e-01	6.842137e-03	3.351063e-01	
290	9.000000e-01	6.842138e-03	3.351063e-01	
291	9.100000e-01	6.842138e-03	3.351063e-01	
292	9.200000e-01	6.842138e-03	3.351063e-01	
293	9.300000e-01	6.842138e-03	3.351063e-01	
294	9.400000e-01	6.842138e-03	3.351063e-01	
295	9.500000e-01	6.842139e-03	3.351063e-01	
296	9.600000e-01	6.842139e-03	3.351063e-01	
297	9.700000e-01	6.842139e-03	3.351063e-01	
298	9.800000e-01	6.842139e-03	3.351063e-01	
299	9.900000e-01	6.842139e-03	3.351063e-01	
300	1.000000e+00	6.842140e-03	3.351063e-01	
301	1.010000e+00	6.842140e-03	3.351063e-01	
302	1.020000e+00	6.842140e-03	3.351063e-01	
303	1.030000e+00	6.842140e-03	3.351063e-01	
304	1.040000e+00	6.842140e-03	3.351063e-01	
305	1.050000e+00	6.842141e-03	3.351064e-01	
306	1.060000e+00	6.842141e-03	3.351064e-01	
307	1.070000e+00	6.842141e-03	3.351064e-01	
308	1.080000e+00	6.842141e-03	3.351064e-01	
309	1.090000e+00	6.842141e-03	3.351064e-01	
310	1.100000e+00	6.842142e-03	3.351064e-01	
311	1.110000e+00	6.842142e-03	3.351064e-01	
312	1.120000e+00	6.842142e-03	3.351064e-01	
313	1.130000e+00	6.842142e-03	3.351064e-01	
314	1.140000e+00	6.842142e-03	3.351064e-01	
315	1.150000e+00	6.842142e-03	3.351064e-01	
316	1.160000e+00	6.842143e-03	3.351064e-01	
317	1.170000e+00	6.842143e-03	3.351064e-01	
318	1.180000e+00	6.842143e-03	3.351064e-01	
319	1.190000e+00	6.842143e-03	3.351064e-01	
320	1.200000e+00	6.842143e-03	3.351064e-01	
321	1.210000e+00	6.842144e-03	3.351064e-01	
322	1.220000e+00	6.842144e-03	3.351064e-01	
323	1.230000e+00	6.842144e-03	3.351064e-01	
324	1.240000e+00	6.842144e-03	3.351064e-01	
325	1.250000e+00	6.842144e-03	3.351064e-01	
326	1.260000e+00	6.842145e-03	3.351064e-01	
327	1.270000e+00	6.842145e-03	3.351064e-01	
328	1.280000e+00	6.842145e-03	3.351064e-01	
329	1.290000e+00	6.842145e-03	3.351064e-01	
330	1.300000e+00	6.842145e-03	3.351064e-01	
331	1.310000e+00	6.842146e-03	3.351064e-01	
332	1.320000e+00	6.842146e-03	3.351064e-01	
333	1.330000e+00	6.842146e-03	3.351064e-01	
334	1.340000e+00	6.842146e-03	3.351064e-01	
335	1.350000e+00	6.842146e-03	3.351064e-01	
336	1.360000e+00	6.842147e-03	3.351064e-01	
337	1.370000e+00	6.842147e-03	3.351064e-01	
338	1.380000e+00	6.842147e-03	3.351064e-01	
339	1.390000e+00	6.842147e-03	3.351065e-01	
340	1.400000e+00	6.842147e-03	3.351065e-01	
341	1.410000e+00	6.842148e-03	3.351065e-01	
342	1.420000e+00	6.842148e-03	3.351065e-01	
343	1.430000e+00	6.842148e-03	3.351065e-01	
344	1.440000e+00	6.842148e-03	3.351065e-01	

Index   v-sweep         i(vdc_xs3)      v(2,7)          
--------------------------------------------------------------------------------
345	1.450000e+00	6.842148e-03	3.351065e-01	
346	1.460000e+00	6.842149e-03	3.351065e-01	
347	1.470000e+00	6.842149e-03	3.351065e-01	
348	1.480000e+00	6.842149e-03	3.351065e-01	
349	1.490000e+00	6.842149e-03	3.351065e-01	
350	1.500000e+00	6.842149e-03	3.351065e-01	
351	1.510000e+00	6.842150e-03	3.351065e-01	
352	1.520000e+00	6.842150e-03	3.351065e-01	
353	1.530000e+00	6.842150e-03	3.351065e-01	
354	1.540000e+00	6.842150e-03	3.351065e-01	
355	1.550000e+00	6.842150e-03	3.351065e-01	
356	1.560000e+00	6.842150e-03	3.351065e-01	
357	1.570000e+00	6.842151e-03	3.351065e-01	
358	1.580000e+00	6.842151e-03	3.351065e-01	
359	1.590000e+00	6.842151e-03	3.351065e-01	
360	1.600000e+00	6.842151e-03	3.351065e-01	
361	1.610000e+00	6.842151e-03	3.351065e-01	
362	1.620000e+00	6.842152e-03	3.351065e-01	
363	1.630000e+00	6.842152e-03	3.351065e-01	
364	1.640000e+00	6.842152e-03	3.351065e-01	
365	1.650000e+00	6.842152e-03	3.351065e-01	
366	1.660000e+00	6.842152e-03	3.351065e-01	
367	1.670000e+00	6.842153e-03	3.351065e-01	
368	1.680000e+00	6.842153e-03	3.351065e-01	
369	1.690000e+00	6.842153e-03	3.351065e-01	
370	1.700000e+00	6.842153e-03	3.351065e-01	
371	1.710000e+00	6.842153e-03	3.351065e-01	
372	1.720000e+00	6.842154e-03	3.351065e-01	
373	1.730000e+00	6.842154e-03	3.351065e-01	
374	1.740000e+00	6.842154e-03	3.351066e-01	
375	1.750000e+00	6.842154e-03	3.351066e-01	
376	1.760000e+00	6.842154e-03	3.351066e-01	
377	1.770000e+00	6.842155e-03	3.351066e-01	
378	1.780000e+00	6.842155e-03	3.351066e-01	
379	1.790000e+00	6.842155e-03	3.351066e-01	
380	1.800000e+00	6.842155e-03	3.351066e-01	
381	1.810000e+00	6.842155e-03	3.351066e-01	
382	1.820000e+00	6.842156e-03	3.351066e-01	
383	1.830000e+00	6.842156e-03	3.351066e-01	
384	1.840000e+00	6.842156e-03	3.351066e-01	
385	1.850000e+00	6.842156e-03	3.351066e-01	
386	1.860000e+00	6.842156e-03	3.351066e-01	
387	1.870000e+00	6.842157e-03	3.351066e-01	
388	1.880000e+00	6.842157e-03	3.351066e-01	
389	1.890000e+00	6.842157e-03	3.351066e-01	
390	1.900000e+00	6.842157e-03	3.351066e-01	
391	1.910000e+00	6.842157e-03	3.351066e-01	
392	1.920000e+00	6.842158e-03	3.351066e-01	
393	1.930000e+00	6.842158e-03	3.351066e-01	
394	1.940000e+00	6.842158e-03	3.351066e-01	
395	1.950000e+00	6.842158e-03	3.351066e-01	
396	1.960000e+00	6.842158e-03	3.351066e-01	
397	1.970000e+00	6.842158e-03	3.351066e-01	
398	1.980000e+00	6.842159e-03	3.351066e-01	
399	1.990000e+00	6.842159e-03	3.351066e-01	
400	2.000000e+00	6.842159e-03	3.351066e-01	
