                                   photodiode
                                   DC transfer characteristic  Sat Oct  1 16:52:38  2022
--------------------------------------------------------------------------------
Index   v-sweep         i(vdc_xs)       v(2,5)          
--------------------------------------------------------------------------------
0	-2.00000e+00	-2.10764e-03	-1.99990e+00	
1	-1.99000e+00	-2.10365e-03	-1.98990e+00	
2	-1.98000e+00	-2.09967e-03	-1.97990e+00	
3	-1.97000e+00	-2.09569e-03	-1.96990e+00	
4	-1.96000e+00	-2.09170e-03	-1.95990e+00	
5	-1.95000e+00	-2.08772e-03	-1.94990e+00	
6	-1.94000e+00	-2.08373e-03	-1.93990e+00	
7	-1.93000e+00	-2.07975e-03	-1.92990e+00	
8	-1.92000e+00	-2.07577e-03	-1.91990e+00	
9	-1.91000e+00	-2.07178e-03	-1.90990e+00	
10	-1.90000e+00	-2.06780e-03	-1.89990e+00	
11	-1.89000e+00	-2.06381e-03	-1.88990e+00	
12	-1.88000e+00	-2.05983e-03	-1.87990e+00	
13	-1.87000e+00	-2.05585e-03	-1.86991e+00	
14	-1.86000e+00	-2.05186e-03	-1.85991e+00	
15	-1.85000e+00	-2.04788e-03	-1.84991e+00	
16	-1.84000e+00	-2.04389e-03	-1.83991e+00	
17	-1.83000e+00	-2.03991e-03	-1.82991e+00	
18	-1.82000e+00	-2.03593e-03	-1.81991e+00	
19	-1.81000e+00	-2.03194e-03	-1.80991e+00	
20	-1.80000e+00	-2.02796e-03	-1.79991e+00	
21	-1.79000e+00	-2.02397e-03	-1.78991e+00	
22	-1.78000e+00	-2.01999e-03	-1.77991e+00	
23	-1.77000e+00	-2.01601e-03	-1.76991e+00	
24	-1.76000e+00	-2.01202e-03	-1.75991e+00	
25	-1.75000e+00	-2.00804e-03	-1.74991e+00	
26	-1.74000e+00	-2.00405e-03	-1.73991e+00	
27	-1.73000e+00	-2.00007e-03	-1.72991e+00	
28	-1.72000e+00	-1.99609e-03	-1.71991e+00	
29	-1.71000e+00	-1.99210e-03	-1.70991e+00	
30	-1.70000e+00	-1.98812e-03	-1.69991e+00	
31	-1.69000e+00	-1.98413e-03	-1.68991e+00	
32	-1.68000e+00	-1.98015e-03	-1.67991e+00	
33	-1.67000e+00	-1.97617e-03	-1.66991e+00	
34	-1.66000e+00	-1.97218e-03	-1.65991e+00	
35	-1.65000e+00	-1.96820e-03	-1.64991e+00	
36	-1.64000e+00	-1.96421e-03	-1.63991e+00	
37	-1.63000e+00	-1.96023e-03	-1.62991e+00	
38	-1.62000e+00	-1.95625e-03	-1.61992e+00	
39	-1.61000e+00	-1.95226e-03	-1.60992e+00	
40	-1.60000e+00	-1.94828e-03	-1.59992e+00	
41	-1.59000e+00	-1.94429e-03	-1.58992e+00	
42	-1.58000e+00	-1.94031e-03	-1.57992e+00	
43	-1.57000e+00	-1.93633e-03	-1.56992e+00	
44	-1.56000e+00	-1.93234e-03	-1.55992e+00	
45	-1.55000e+00	-1.92836e-03	-1.54992e+00	
46	-1.54000e+00	-1.92437e-03	-1.53992e+00	
47	-1.53000e+00	-1.92039e-03	-1.52992e+00	
48	-1.52000e+00	-1.91641e-03	-1.51992e+00	
49	-1.51000e+00	-1.91242e-03	-1.50992e+00	
50	-1.50000e+00	-1.90844e-03	-1.49992e+00	
51	-1.49000e+00	-1.90445e-03	-1.48992e+00	
52	-1.48000e+00	-1.90047e-03	-1.47992e+00	
53	-1.47000e+00	-1.89648e-03	-1.46992e+00	
54	-1.46000e+00	-1.89250e-03	-1.45992e+00	

Index   v-sweep         i(vdc_xs)       v(2,5)          
--------------------------------------------------------------------------------
55	-1.45000e+00	-1.88852e-03	-1.44992e+00	
56	-1.44000e+00	-1.88453e-03	-1.43992e+00	
57	-1.43000e+00	-1.88055e-03	-1.42992e+00	
58	-1.42000e+00	-1.87656e-03	-1.41992e+00	
59	-1.41000e+00	-1.87258e-03	-1.40992e+00	
60	-1.40000e+00	-1.86860e-03	-1.39992e+00	
61	-1.39000e+00	-1.86461e-03	-1.38992e+00	
62	-1.38000e+00	-1.86063e-03	-1.37993e+00	
63	-1.37000e+00	-1.85664e-03	-1.36993e+00	
64	-1.36000e+00	-1.85266e-03	-1.35993e+00	
65	-1.35000e+00	-1.84867e-03	-1.34993e+00	
66	-1.34000e+00	-1.84469e-03	-1.33993e+00	
67	-1.33000e+00	-1.84071e-03	-1.32993e+00	
68	-1.32000e+00	-1.83672e-03	-1.31993e+00	
69	-1.31000e+00	-1.83274e-03	-1.30993e+00	
70	-1.30000e+00	-1.82875e-03	-1.29993e+00	
71	-1.29000e+00	-1.82477e-03	-1.28993e+00	
72	-1.28000e+00	-1.82078e-03	-1.27993e+00	
73	-1.27000e+00	-1.81680e-03	-1.26993e+00	
74	-1.26000e+00	-1.81282e-03	-1.25993e+00	
75	-1.25000e+00	-1.80883e-03	-1.24993e+00	
76	-1.24000e+00	-1.80485e-03	-1.23993e+00	
77	-1.23000e+00	-1.80086e-03	-1.22993e+00	
78	-1.22000e+00	-1.79688e-03	-1.21993e+00	
79	-1.21000e+00	-1.79289e-03	-1.20993e+00	
80	-1.20000e+00	-1.78891e-03	-1.19993e+00	
81	-1.19000e+00	-1.78493e-03	-1.18993e+00	
82	-1.18000e+00	-1.78094e-03	-1.17993e+00	
83	-1.17000e+00	-1.77696e-03	-1.16993e+00	
84	-1.16000e+00	-1.77297e-03	-1.15993e+00	
85	-1.15000e+00	-1.76899e-03	-1.14993e+00	
86	-1.14000e+00	-1.76500e-03	-1.13993e+00	
87	-1.13000e+00	-1.76102e-03	-1.12994e+00	
88	-1.12000e+00	-1.75703e-03	-1.11994e+00	
89	-1.11000e+00	-1.75305e-03	-1.10994e+00	
90	-1.10000e+00	-1.74906e-03	-1.09994e+00	
91	-1.09000e+00	-1.74508e-03	-1.08994e+00	
92	-1.08000e+00	-1.74109e-03	-1.07994e+00	
93	-1.07000e+00	-1.73711e-03	-1.06994e+00	
94	-1.06000e+00	-1.73313e-03	-1.05994e+00	
95	-1.05000e+00	-1.72914e-03	-1.04994e+00	
96	-1.04000e+00	-1.72516e-03	-1.03994e+00	
97	-1.03000e+00	-1.72117e-03	-1.02994e+00	
98	-1.02000e+00	-1.71719e-03	-1.01994e+00	
99	-1.01000e+00	-1.71320e-03	-1.00994e+00	
100	-1.00000e+00	-1.70922e-03	-9.99940e-01	
101	-9.90000e-01	-1.70523e-03	-9.89941e-01	
102	-9.80000e-01	-1.70125e-03	-9.79941e-01	
103	-9.70000e-01	-1.69726e-03	-9.69942e-01	
104	-9.60000e-01	-1.69328e-03	-9.59942e-01	
105	-9.50000e-01	-1.68929e-03	-9.49942e-01	
106	-9.40000e-01	-1.68530e-03	-9.39943e-01	
107	-9.30000e-01	-1.68132e-03	-9.29943e-01	
108	-9.20000e-01	-1.67733e-03	-9.19944e-01	
109	-9.10000e-01	-1.67335e-03	-9.09944e-01	
110	-9.00000e-01	-1.66936e-03	-8.99944e-01	
111	-8.90000e-01	-1.66538e-03	-8.89945e-01	
112	-8.80000e-01	-1.66139e-03	-8.79945e-01	

Index   v-sweep         i(vdc_xs)       v(2,5)          
--------------------------------------------------------------------------------
113	-8.70000e-01	-1.65741e-03	-8.69946e-01	
114	-8.60000e-01	-1.65342e-03	-8.59946e-01	
115	-8.50000e-01	-1.64943e-03	-8.49947e-01	
116	-8.40000e-01	-1.64545e-03	-8.39947e-01	
117	-8.30000e-01	-1.64146e-03	-8.29947e-01	
118	-8.20000e-01	-1.63747e-03	-8.19948e-01	
119	-8.10000e-01	-1.63349e-03	-8.09948e-01	
120	-8.00000e-01	-1.62950e-03	-7.99949e-01	
121	-7.90000e-01	-1.62551e-03	-7.89949e-01	
122	-7.80000e-01	-1.62153e-03	-7.79949e-01	
123	-7.70000e-01	-1.61754e-03	-7.69950e-01	
124	-7.60000e-01	-1.61355e-03	-7.59950e-01	
125	-7.50000e-01	-1.60957e-03	-7.49951e-01	
126	-7.40000e-01	-1.60558e-03	-7.39951e-01	
127	-7.30000e-01	-1.60159e-03	-7.29951e-01	
128	-7.20000e-01	-1.59760e-03	-7.19952e-01	
129	-7.10000e-01	-1.59361e-03	-7.09952e-01	
130	-7.00000e-01	-1.58963e-03	-6.99953e-01	
131	-6.90000e-01	-1.58564e-03	-6.89953e-01	
132	-6.80000e-01	-1.58165e-03	-6.79953e-01	
133	-6.70000e-01	-1.57766e-03	-6.69954e-01	
134	-6.60000e-01	-1.57367e-03	-6.59954e-01	
135	-6.50000e-01	-1.56968e-03	-6.49955e-01	
136	-6.40000e-01	-1.56569e-03	-6.39955e-01	
137	-6.30000e-01	-1.56170e-03	-6.29955e-01	
138	-6.20000e-01	-1.55770e-03	-6.19956e-01	
139	-6.10000e-01	-1.55371e-03	-6.09956e-01	
140	-6.00000e-01	-1.54972e-03	-5.99957e-01	
141	-5.90000e-01	-1.54573e-03	-5.89957e-01	
142	-5.80000e-01	-1.54173e-03	-5.79957e-01	
143	-5.70000e-01	-1.53774e-03	-5.69958e-01	
144	-5.60000e-01	-1.53374e-03	-5.59958e-01	
145	-5.50000e-01	-1.52975e-03	-5.49959e-01	
146	-5.40000e-01	-1.52575e-03	-5.39959e-01	
147	-5.30000e-01	-1.52175e-03	-5.29959e-01	
148	-5.20000e-01	-1.51775e-03	-5.19960e-01	
149	-5.10000e-01	-1.51375e-03	-5.09960e-01	
150	-5.00000e-01	-1.50975e-03	-4.99961e-01	
151	-4.90000e-01	-1.50574e-03	-4.89961e-01	
152	-4.80000e-01	-1.50174e-03	-4.79961e-01	
153	-4.70000e-01	-1.49773e-03	-4.69962e-01	
154	-4.60000e-01	-1.49372e-03	-4.59962e-01	
155	-4.50000e-01	-1.48971e-03	-4.49963e-01	
156	-4.40000e-01	-1.48569e-03	-4.39963e-01	
157	-4.30000e-01	-1.48168e-03	-4.29963e-01	
158	-4.20000e-01	-1.47766e-03	-4.19964e-01	
159	-4.10000e-01	-1.47363e-03	-4.09964e-01	
160	-4.00000e-01	-1.46960e-03	-3.99965e-01	
161	-3.90000e-01	-1.46557e-03	-3.89965e-01	
162	-3.80000e-01	-1.46153e-03	-3.79965e-01	
163	-3.70000e-01	-1.45748e-03	-3.69966e-01	
164	-3.60000e-01	-1.45343e-03	-3.59966e-01	
165	-3.50000e-01	-1.44936e-03	-3.49967e-01	
166	-3.40000e-01	-1.44529e-03	-3.39967e-01	
167	-3.30000e-01	-1.44121e-03	-3.29967e-01	
168	-3.20000e-01	-1.43711e-03	-3.19968e-01	
169	-3.10000e-01	-1.43300e-03	-3.09968e-01	
170	-3.00000e-01	-1.42886e-03	-2.99969e-01	

Index   v-sweep         i(vdc_xs)       v(2,5)          
--------------------------------------------------------------------------------
171	-2.90000e-01	-1.42471e-03	-2.89969e-01	
172	-2.80000e-01	-1.42053e-03	-2.79969e-01	
173	-2.70000e-01	-1.41632e-03	-2.69970e-01	
174	-2.60000e-01	-1.41207e-03	-2.59970e-01	
175	-2.50000e-01	-1.40777e-03	-2.49971e-01	
176	-2.40000e-01	-1.40341e-03	-2.39971e-01	
177	-2.30000e-01	-1.39898e-03	-2.29971e-01	
178	-2.20000e-01	-1.39447e-03	-2.19972e-01	
179	-2.10000e-01	-1.38984e-03	-2.09972e-01	
180	-2.00000e-01	-1.38506e-03	-1.99973e-01	
181	-1.90000e-01	-1.38009e-03	-1.89973e-01	
182	-1.80000e-01	-1.37488e-03	-1.79973e-01	
183	-1.70000e-01	-1.36933e-03	-1.69974e-01	
184	-1.60000e-01	-1.36333e-03	-1.59974e-01	
185	-1.50000e-01	-1.35670e-03	-1.49975e-01	
186	-1.40000e-01	-1.34920e-03	-1.39975e-01	
187	-1.30000e-01	-1.34078e-03	-1.29975e-01	
188	-1.20000e-01	-1.33123e-03	-1.19976e-01	
189	-1.10000e-01	-1.32028e-03	-1.09976e-01	
190	-1.00000e-01	-1.30758e-03	-9.99767e-02	
191	-9.00000e-02	-1.29270e-03	-8.99771e-02	
192	-8.00000e-02	-1.27510e-03	-7.99775e-02	
193	-7.00000e-02	-1.25414e-03	-6.99779e-02	
194	-6.00000e-02	-1.22902e-03	-5.99784e-02	
195	-5.00000e-02	-1.19877e-03	-4.99788e-02	
196	-4.00000e-02	-1.16223e-03	-3.99792e-02	
197	-3.00000e-02	-1.11802e-03	-2.99796e-02	
198	-2.00000e-02	-1.06452e-03	-1.99801e-02	
199	-1.00000e-02	-9.99863e-04	-9.98054e-03	
200	1.641048e-15	-9.21910e-04	1.899546e-05	
201	1.000000e-02	-8.28303e-04	1.001852e-02	
202	2.000000e-02	-7.16493e-04	2.001803e-02	
203	3.000000e-02	-5.83813e-04	3.001752e-02	
204	4.000000e-02	-4.27575e-04	4.001700e-02	
205	5.000000e-02	-2.45195e-04	5.001645e-02	
206	6.000000e-02	-3.43174e-05	6.001588e-02	
207	7.000000e-02	2.070593e-04	7.001528e-02	
208	8.000000e-02	4.804790e-04	8.001466e-02	
209	9.000000e-02	7.869628e-04	9.001401e-02	
210	1.000000e-01	1.126984e-03	1.000133e-01	
211	1.100000e-01	1.500489e-03	1.100126e-01	
212	1.200000e-01	1.906947e-03	1.200119e-01	
213	1.300000e-01	2.345429e-03	1.300111e-01	
214	1.400000e-01	2.814698e-03	1.400104e-01	
215	1.500000e-01	3.313296e-03	1.500095e-01	
216	1.600000e-01	3.839627e-03	1.600087e-01	
217	1.700000e-01	4.392025e-03	1.700079e-01	
218	1.800000e-01	4.968811e-03	1.800070e-01	
219	1.900000e-01	5.568334e-03	1.900061e-01	
220	2.000000e-01	6.189001e-03	2.000052e-01	
221	2.100000e-01	6.829298e-03	2.100043e-01	
222	2.200000e-01	7.487800e-03	2.200033e-01	
223	2.300000e-01	8.163177e-03	2.300024e-01	
224	2.400000e-01	8.854196e-03	2.400014e-01	
225	2.500000e-01	9.559719e-03	2.500004e-01	
226	2.600000e-01	1.027870e-02	2.599994e-01	
227	2.700000e-01	1.101017e-02	2.699984e-01	
228	2.800000e-01	1.175326e-02	2.799974e-01	

Index   v-sweep         i(vdc_xs)       v(2,5)          
--------------------------------------------------------------------------------
229	2.900000e-01	1.250715e-02	2.899964e-01	
230	3.000000e-01	1.327111e-02	2.999954e-01	
231	3.100000e-01	1.404446e-02	3.099944e-01	
232	3.200000e-01	1.482658e-02	3.199933e-01	
233	3.300000e-01	1.561691e-02	3.299923e-01	
234	3.400000e-01	1.641491e-02	3.399912e-01	
235	3.500000e-01	1.722011e-02	3.499902e-01	
236	3.600000e-01	1.803208e-02	3.599891e-01	
237	3.700000e-01	1.885041e-02	3.699880e-01	
238	3.800000e-01	1.967472e-02	3.799870e-01	
239	3.900000e-01	2.050467e-02	3.899859e-01	
240	4.000000e-01	2.133995e-02	3.999848e-01	
241	4.100000e-01	2.218026e-02	4.099837e-01	
242	4.200000e-01	2.302533e-02	4.199826e-01	
243	4.300000e-01	2.387491e-02	4.299815e-01	
244	4.400000e-01	2.472877e-02	4.399804e-01	
245	4.500000e-01	2.558668e-02	4.499793e-01	
246	4.600000e-01	2.644845e-02	4.599782e-01	
247	4.700000e-01	2.731388e-02	4.699771e-01	
248	4.800000e-01	2.818281e-02	4.799760e-01	
249	4.900000e-01	2.905506e-02	4.899749e-01	
250	5.000000e-01	2.993049e-02	4.999738e-01	
251	5.100000e-01	3.080895e-02	5.099726e-01	
252	5.200000e-01	3.169031e-02	5.199715e-01	
253	5.300000e-01	3.257443e-02	5.299704e-01	
254	5.400000e-01	3.346121e-02	5.399693e-01	
255	5.500000e-01	3.435053e-02	5.499682e-01	
256	5.600000e-01	3.524228e-02	5.599670e-01	
257	5.700000e-01	3.613637e-02	5.699659e-01	
258	5.800000e-01	3.703270e-02	5.799648e-01	
259	5.900000e-01	3.793118e-02	5.899636e-01	
260	6.000000e-01	3.883174e-02	5.999625e-01	
261	6.100000e-01	3.973429e-02	6.099614e-01	
262	6.200000e-01	4.043401e-02	6.176985e-01	
263	6.300000e-01	4.048248e-02	6.182340e-01	
264	6.400000e-01	4.049930e-02	6.184198e-01	
265	6.500000e-01	4.051040e-02	6.185424e-01	
266	6.600000e-01	4.051743e-02	6.186201e-01	
267	6.700000e-01	4.052264e-02	6.186777e-01	
268	6.800000e-01	4.052678e-02	6.187234e-01	
269	6.900000e-01	4.053001e-02	6.187590e-01	
270	7.000000e-01	4.053251e-02	6.187867e-01	
271	7.100000e-01	4.053444e-02	6.188080e-01	
272	7.200000e-01	4.053591e-02	6.188243e-01	
273	7.300000e-01	4.053703e-02	6.188366e-01	
274	7.400000e-01	4.053786e-02	6.188458e-01	
275	7.500000e-01	4.053848e-02	6.188526e-01	
276	7.600000e-01	4.053893e-02	6.188576e-01	
277	7.700000e-01	4.053926e-02	6.188612e-01	
278	7.800000e-01	4.053949e-02	6.188638e-01	
279	7.900000e-01	4.053966e-02	6.188657e-01	
280	8.000000e-01	4.053979e-02	6.188670e-01	
281	8.100000e-01	4.053988e-02	6.188680e-01	
282	8.200000e-01	4.053994e-02	6.188687e-01	
283	8.300000e-01	4.053998e-02	6.188692e-01	
284	8.400000e-01	4.054002e-02	6.188696e-01	
285	8.500000e-01	4.054004e-02	6.188698e-01	
286	8.600000e-01	4.054006e-02	6.188700e-01	

Index   v-sweep         i(vdc_xs)       v(2,5)          
--------------------------------------------------------------------------------
287	8.700000e-01	4.054007e-02	6.188702e-01	
288	8.800000e-01	4.054008e-02	6.188703e-01	
289	8.900000e-01	4.054009e-02	6.188703e-01	
290	9.000000e-01	4.054009e-02	6.188704e-01	
291	9.100000e-01	4.054010e-02	6.188705e-01	
292	9.200000e-01	4.054010e-02	6.188705e-01	
293	9.300000e-01	4.054010e-02	6.188705e-01	
294	9.400000e-01	4.054010e-02	6.188705e-01	
295	9.500000e-01	4.054011e-02	6.188706e-01	
296	9.600000e-01	4.054011e-02	6.188706e-01	
297	9.700000e-01	4.054011e-02	6.188706e-01	
298	9.800000e-01	4.054011e-02	6.188706e-01	
299	9.900000e-01	4.054011e-02	6.188706e-01	
300	1.000000e+00	4.054012e-02	6.188707e-01	
301	1.010000e+00	4.054012e-02	6.188707e-01	
302	1.020000e+00	4.054012e-02	6.188707e-01	
303	1.030000e+00	4.054012e-02	6.188707e-01	
304	1.040000e+00	4.054012e-02	6.188707e-01	
305	1.050000e+00	4.054012e-02	6.188707e-01	
306	1.060000e+00	4.054012e-02	6.188708e-01	
307	1.070000e+00	4.054012e-02	6.188708e-01	
308	1.080000e+00	4.054013e-02	6.188708e-01	
309	1.090000e+00	4.054013e-02	6.188708e-01	
310	1.100000e+00	4.054013e-02	6.188708e-01	
311	1.110000e+00	4.054013e-02	6.188708e-01	
312	1.120000e+00	4.054013e-02	6.188708e-01	
313	1.130000e+00	4.054013e-02	6.188709e-01	
314	1.140000e+00	4.054013e-02	6.188709e-01	
315	1.150000e+00	4.054014e-02	6.188709e-01	
316	1.160000e+00	4.054014e-02	6.188709e-01	
317	1.170000e+00	4.054014e-02	6.188709e-01	
318	1.180000e+00	4.054014e-02	6.188709e-01	
319	1.190000e+00	4.054014e-02	6.188709e-01	
320	1.200000e+00	4.054014e-02	6.188710e-01	
321	1.210000e+00	4.054014e-02	6.188710e-01	
322	1.220000e+00	4.054014e-02	6.188710e-01	
323	1.230000e+00	4.054015e-02	6.188710e-01	
324	1.240000e+00	4.054015e-02	6.188710e-01	
325	1.250000e+00	4.054015e-02	6.188710e-01	
326	1.260000e+00	4.054015e-02	6.188710e-01	
327	1.270000e+00	4.054015e-02	6.188711e-01	
328	1.280000e+00	4.054015e-02	6.188711e-01	
329	1.290000e+00	4.054015e-02	6.188711e-01	
330	1.300000e+00	4.054016e-02	6.188711e-01	
331	1.310000e+00	4.054016e-02	6.188711e-01	
332	1.320000e+00	4.054016e-02	6.188711e-01	
333	1.330000e+00	4.054016e-02	6.188712e-01	
334	1.340000e+00	4.054016e-02	6.188712e-01	
335	1.350000e+00	4.054016e-02	6.188712e-01	
336	1.360000e+00	4.054016e-02	6.188712e-01	
337	1.370000e+00	4.054016e-02	6.188712e-01	
338	1.380000e+00	4.054017e-02	6.188712e-01	
339	1.390000e+00	4.054017e-02	6.188712e-01	
340	1.400000e+00	4.054017e-02	6.188713e-01	
341	1.410000e+00	4.054017e-02	6.188713e-01	
342	1.420000e+00	4.054017e-02	6.188713e-01	
343	1.430000e+00	4.054017e-02	6.188713e-01	
344	1.440000e+00	4.054017e-02	6.188713e-01	

Index   v-sweep         i(vdc_xs)       v(2,5)          
--------------------------------------------------------------------------------
345	1.450000e+00	4.054018e-02	6.188713e-01	
346	1.460000e+00	4.054018e-02	6.188713e-01	
347	1.470000e+00	4.054018e-02	6.188714e-01	
348	1.480000e+00	4.054018e-02	6.188714e-01	
349	1.490000e+00	4.054018e-02	6.188714e-01	
350	1.500000e+00	4.054018e-02	6.188714e-01	
351	1.510000e+00	4.054018e-02	6.188714e-01	
352	1.520000e+00	4.054018e-02	6.188714e-01	
353	1.530000e+00	4.054019e-02	6.188714e-01	
354	1.540000e+00	4.054019e-02	6.188715e-01	
355	1.550000e+00	4.054019e-02	6.188715e-01	
356	1.560000e+00	4.054019e-02	6.188715e-01	
357	1.570000e+00	4.054019e-02	6.188715e-01	
358	1.580000e+00	4.054019e-02	6.188715e-01	
359	1.590000e+00	4.054019e-02	6.188715e-01	
360	1.600000e+00	4.054020e-02	6.188716e-01	
361	1.610000e+00	4.054020e-02	6.188716e-01	
362	1.620000e+00	4.054020e-02	6.188716e-01	
363	1.630000e+00	4.054020e-02	6.188716e-01	
364	1.640000e+00	4.054020e-02	6.188716e-01	
365	1.650000e+00	4.054020e-02	6.188716e-01	
366	1.660000e+00	4.054020e-02	6.188716e-01	
367	1.670000e+00	4.054021e-02	6.188717e-01	
368	1.680000e+00	4.054021e-02	6.188717e-01	
369	1.690000e+00	4.054021e-02	6.188717e-01	
370	1.700000e+00	4.054021e-02	6.188717e-01	
371	1.710000e+00	4.054021e-02	6.188717e-01	
372	1.720000e+00	4.054021e-02	6.188717e-01	
373	1.730000e+00	4.054021e-02	6.188717e-01	
374	1.740000e+00	4.054021e-02	6.188718e-01	
375	1.750000e+00	4.054022e-02	6.188718e-01	
376	1.760000e+00	4.054022e-02	6.188718e-01	
377	1.770000e+00	4.054022e-02	6.188718e-01	
378	1.780000e+00	4.054022e-02	6.188718e-01	
379	1.790000e+00	4.054022e-02	6.188718e-01	
380	1.800000e+00	4.054022e-02	6.188718e-01	
381	1.810000e+00	4.054022e-02	6.188719e-01	
382	1.820000e+00	4.054023e-02	6.188719e-01	
383	1.830000e+00	4.054023e-02	6.188719e-01	
384	1.840000e+00	4.054023e-02	6.188719e-01	
385	1.850000e+00	4.054023e-02	6.188719e-01	
386	1.860000e+00	4.054023e-02	6.188719e-01	
387	1.870000e+00	4.054023e-02	6.188720e-01	
388	1.880000e+00	4.054023e-02	6.188720e-01	
389	1.890000e+00	4.054023e-02	6.188720e-01	
390	1.900000e+00	4.054024e-02	6.188720e-01	
391	1.910000e+00	4.054024e-02	6.188720e-01	
392	1.920000e+00	4.054024e-02	6.188720e-01	
393	1.930000e+00	4.054024e-02	6.188720e-01	
394	1.940000e+00	4.054024e-02	6.188721e-01	
395	1.950000e+00	4.054024e-02	6.188721e-01	
396	1.960000e+00	4.054024e-02	6.188721e-01	
397	1.970000e+00	4.054025e-02	6.188721e-01	
398	1.980000e+00	4.054025e-02	6.188721e-01	
399	1.990000e+00	4.054025e-02	6.188721e-01	
400	2.000000e+00	4.054025e-02	6.188721e-01	
