                                   photodiode
                                   DC transfer characteristic  Sat Oct  1 16:52:38  2022
--------------------------------------------------------------------------------
Index   v-sweep         i(vdc_xs)       v(2,5)          
--------------------------------------------------------------------------------
0	-2.00000e+00	-2.48494e-03	-1.99990e+00	
1	-1.99000e+00	-2.48096e-03	-1.98990e+00	
2	-1.98000e+00	-2.47698e-03	-1.97990e+00	
3	-1.97000e+00	-2.47299e-03	-1.96990e+00	
4	-1.96000e+00	-2.46901e-03	-1.95990e+00	
5	-1.95000e+00	-2.46502e-03	-1.94990e+00	
6	-1.94000e+00	-2.46104e-03	-1.93990e+00	
7	-1.93000e+00	-2.45706e-03	-1.92990e+00	
8	-1.92000e+00	-2.45307e-03	-1.91990e+00	
9	-1.91000e+00	-2.44909e-03	-1.90990e+00	
10	-1.90000e+00	-2.44510e-03	-1.89990e+00	
11	-1.89000e+00	-2.44112e-03	-1.88990e+00	
12	-1.88000e+00	-2.43713e-03	-1.87990e+00	
13	-1.87000e+00	-2.43315e-03	-1.86990e+00	
14	-1.86000e+00	-2.42917e-03	-1.85990e+00	
15	-1.85000e+00	-2.42518e-03	-1.84990e+00	
16	-1.84000e+00	-2.42120e-03	-1.83990e+00	
17	-1.83000e+00	-2.41721e-03	-1.82991e+00	
18	-1.82000e+00	-2.41323e-03	-1.81991e+00	
19	-1.81000e+00	-2.40925e-03	-1.80991e+00	
20	-1.80000e+00	-2.40526e-03	-1.79991e+00	
21	-1.79000e+00	-2.40128e-03	-1.78991e+00	
22	-1.78000e+00	-2.39729e-03	-1.77991e+00	
23	-1.77000e+00	-2.39331e-03	-1.76991e+00	
24	-1.76000e+00	-2.38933e-03	-1.75991e+00	
25	-1.75000e+00	-2.38534e-03	-1.74991e+00	
26	-1.74000e+00	-2.38136e-03	-1.73991e+00	
27	-1.73000e+00	-2.37737e-03	-1.72991e+00	
28	-1.72000e+00	-2.37339e-03	-1.71991e+00	
29	-1.71000e+00	-2.36940e-03	-1.70991e+00	
30	-1.70000e+00	-2.36542e-03	-1.69991e+00	
31	-1.69000e+00	-2.36144e-03	-1.68991e+00	
32	-1.68000e+00	-2.35745e-03	-1.67991e+00	
33	-1.67000e+00	-2.35347e-03	-1.66991e+00	
34	-1.66000e+00	-2.34948e-03	-1.65991e+00	
35	-1.65000e+00	-2.34550e-03	-1.64991e+00	
36	-1.64000e+00	-2.34151e-03	-1.63991e+00	
37	-1.63000e+00	-2.33753e-03	-1.62991e+00	
38	-1.62000e+00	-2.33355e-03	-1.61991e+00	
39	-1.61000e+00	-2.32956e-03	-1.60991e+00	
40	-1.60000e+00	-2.32558e-03	-1.59991e+00	
41	-1.59000e+00	-2.32159e-03	-1.58992e+00	
42	-1.58000e+00	-2.31761e-03	-1.57992e+00	
43	-1.57000e+00	-2.31362e-03	-1.56992e+00	
44	-1.56000e+00	-2.30964e-03	-1.55992e+00	
45	-1.55000e+00	-2.30566e-03	-1.54992e+00	
46	-1.54000e+00	-2.30167e-03	-1.53992e+00	
47	-1.53000e+00	-2.29769e-03	-1.52992e+00	
48	-1.52000e+00	-2.29370e-03	-1.51992e+00	
49	-1.51000e+00	-2.28972e-03	-1.50992e+00	
50	-1.50000e+00	-2.28573e-03	-1.49992e+00	
51	-1.49000e+00	-2.28175e-03	-1.48992e+00	
52	-1.48000e+00	-2.27776e-03	-1.47992e+00	
53	-1.47000e+00	-2.27378e-03	-1.46992e+00	
54	-1.46000e+00	-2.26980e-03	-1.45992e+00	

Index   v-sweep         i(vdc_xs)       v(2,5)          
--------------------------------------------------------------------------------
55	-1.45000e+00	-2.26581e-03	-1.44992e+00	
56	-1.44000e+00	-2.26183e-03	-1.43992e+00	
57	-1.43000e+00	-2.25784e-03	-1.42992e+00	
58	-1.42000e+00	-2.25386e-03	-1.41992e+00	
59	-1.41000e+00	-2.24987e-03	-1.40992e+00	
60	-1.40000e+00	-2.24589e-03	-1.39992e+00	
61	-1.39000e+00	-2.24190e-03	-1.38992e+00	
62	-1.38000e+00	-2.23792e-03	-1.37992e+00	
63	-1.37000e+00	-2.23393e-03	-1.36992e+00	
64	-1.36000e+00	-2.22995e-03	-1.35992e+00	
65	-1.35000e+00	-2.22597e-03	-1.34993e+00	
66	-1.34000e+00	-2.22198e-03	-1.33993e+00	
67	-1.33000e+00	-2.21800e-03	-1.32993e+00	
68	-1.32000e+00	-2.21401e-03	-1.31993e+00	
69	-1.31000e+00	-2.21003e-03	-1.30993e+00	
70	-1.30000e+00	-2.20604e-03	-1.29993e+00	
71	-1.29000e+00	-2.20206e-03	-1.28993e+00	
72	-1.28000e+00	-2.19807e-03	-1.27993e+00	
73	-1.27000e+00	-2.19409e-03	-1.26993e+00	
74	-1.26000e+00	-2.19010e-03	-1.25993e+00	
75	-1.25000e+00	-2.18612e-03	-1.24993e+00	
76	-1.24000e+00	-2.18213e-03	-1.23993e+00	
77	-1.23000e+00	-2.17815e-03	-1.22993e+00	
78	-1.22000e+00	-2.17416e-03	-1.21993e+00	
79	-1.21000e+00	-2.17018e-03	-1.20993e+00	
80	-1.20000e+00	-2.16619e-03	-1.19993e+00	
81	-1.19000e+00	-2.16221e-03	-1.18993e+00	
82	-1.18000e+00	-2.15822e-03	-1.17993e+00	
83	-1.17000e+00	-2.15424e-03	-1.16993e+00	
84	-1.16000e+00	-2.15025e-03	-1.15993e+00	
85	-1.15000e+00	-2.14626e-03	-1.14993e+00	
86	-1.14000e+00	-2.14228e-03	-1.13993e+00	
87	-1.13000e+00	-2.13829e-03	-1.12993e+00	
88	-1.12000e+00	-2.13431e-03	-1.11993e+00	
89	-1.11000e+00	-2.13032e-03	-1.10994e+00	
90	-1.10000e+00	-2.12634e-03	-1.09994e+00	
91	-1.09000e+00	-2.12235e-03	-1.08994e+00	
92	-1.08000e+00	-2.11836e-03	-1.07994e+00	
93	-1.07000e+00	-2.11438e-03	-1.06994e+00	
94	-1.06000e+00	-2.11039e-03	-1.05994e+00	
95	-1.05000e+00	-2.10641e-03	-1.04994e+00	
96	-1.04000e+00	-2.10242e-03	-1.03994e+00	
97	-1.03000e+00	-2.09843e-03	-1.02994e+00	
98	-1.02000e+00	-2.09445e-03	-1.01994e+00	
99	-1.01000e+00	-2.09046e-03	-1.00994e+00	
100	-1.00000e+00	-2.08647e-03	-9.99940e-01	
101	-9.90000e-01	-2.08249e-03	-9.89940e-01	
102	-9.80000e-01	-2.07850e-03	-9.79940e-01	
103	-9.70000e-01	-2.07451e-03	-9.69941e-01	
104	-9.60000e-01	-2.07053e-03	-9.59941e-01	
105	-9.50000e-01	-2.06654e-03	-9.49942e-01	
106	-9.40000e-01	-2.06255e-03	-9.39942e-01	
107	-9.30000e-01	-2.05857e-03	-9.29943e-01	
108	-9.20000e-01	-2.05458e-03	-9.19943e-01	
109	-9.10000e-01	-2.05059e-03	-9.09943e-01	
110	-9.00000e-01	-2.04660e-03	-8.99944e-01	
111	-8.90000e-01	-2.04261e-03	-8.89944e-01	
112	-8.80000e-01	-2.03862e-03	-8.79945e-01	

Index   v-sweep         i(vdc_xs)       v(2,5)          
--------------------------------------------------------------------------------
113	-8.70000e-01	-2.03464e-03	-8.69945e-01	
114	-8.60000e-01	-2.03065e-03	-8.59945e-01	
115	-8.50000e-01	-2.02666e-03	-8.49946e-01	
116	-8.40000e-01	-2.02267e-03	-8.39946e-01	
117	-8.30000e-01	-2.01868e-03	-8.29947e-01	
118	-8.20000e-01	-2.01469e-03	-8.19947e-01	
119	-8.10000e-01	-2.01070e-03	-8.09947e-01	
120	-8.00000e-01	-2.00671e-03	-7.99948e-01	
121	-7.90000e-01	-2.00272e-03	-7.89948e-01	
122	-7.80000e-01	-1.99873e-03	-7.79949e-01	
123	-7.70000e-01	-1.99473e-03	-7.69949e-01	
124	-7.60000e-01	-1.99074e-03	-7.59950e-01	
125	-7.50000e-01	-1.98675e-03	-7.49950e-01	
126	-7.40000e-01	-1.98276e-03	-7.39950e-01	
127	-7.30000e-01	-1.97876e-03	-7.29951e-01	
128	-7.20000e-01	-1.97477e-03	-7.19951e-01	
129	-7.10000e-01	-1.97077e-03	-7.09952e-01	
130	-7.00000e-01	-1.96678e-03	-6.99952e-01	
131	-6.90000e-01	-1.96278e-03	-6.89952e-01	
132	-6.80000e-01	-1.95879e-03	-6.79953e-01	
133	-6.70000e-01	-1.95479e-03	-6.69953e-01	
134	-6.60000e-01	-1.95079e-03	-6.59954e-01	
135	-6.50000e-01	-1.94679e-03	-6.49954e-01	
136	-6.40000e-01	-1.94279e-03	-6.39954e-01	
137	-6.30000e-01	-1.93879e-03	-6.29955e-01	
138	-6.20000e-01	-1.93479e-03	-6.19955e-01	
139	-6.10000e-01	-1.93078e-03	-6.09956e-01	
140	-6.00000e-01	-1.92678e-03	-5.99956e-01	
141	-5.90000e-01	-1.92277e-03	-5.89957e-01	
142	-5.80000e-01	-1.91876e-03	-5.79957e-01	
143	-5.70000e-01	-1.91475e-03	-5.69957e-01	
144	-5.60000e-01	-1.91074e-03	-5.59958e-01	
145	-5.50000e-01	-1.90672e-03	-5.49958e-01	
146	-5.40000e-01	-1.90271e-03	-5.39959e-01	
147	-5.30000e-01	-1.89869e-03	-5.29959e-01	
148	-5.20000e-01	-1.89466e-03	-5.19959e-01	
149	-5.10000e-01	-1.89064e-03	-5.09960e-01	
150	-5.00000e-01	-1.88661e-03	-4.99960e-01	
151	-4.90000e-01	-1.88258e-03	-4.89961e-01	
152	-4.80000e-01	-1.87854e-03	-4.79961e-01	
153	-4.70000e-01	-1.87450e-03	-4.69961e-01	
154	-4.60000e-01	-1.87045e-03	-4.59962e-01	
155	-4.50000e-01	-1.86639e-03	-4.49962e-01	
156	-4.40000e-01	-1.86233e-03	-4.39963e-01	
157	-4.30000e-01	-1.85826e-03	-4.29963e-01	
158	-4.20000e-01	-1.85419e-03	-4.19963e-01	
159	-4.10000e-01	-1.85010e-03	-4.09964e-01	
160	-4.00000e-01	-1.84600e-03	-3.99964e-01	
161	-3.90000e-01	-1.84189e-03	-3.89965e-01	
162	-3.80000e-01	-1.83777e-03	-3.79965e-01	
163	-3.70000e-01	-1.83363e-03	-3.69966e-01	
164	-3.60000e-01	-1.82947e-03	-3.59966e-01	
165	-3.50000e-01	-1.82529e-03	-3.49966e-01	
166	-3.40000e-01	-1.82108e-03	-3.39967e-01	
167	-3.30000e-01	-1.81685e-03	-3.29967e-01	
168	-3.20000e-01	-1.81258e-03	-3.19968e-01	
169	-3.10000e-01	-1.80827e-03	-3.09968e-01	
170	-3.00000e-01	-1.80391e-03	-2.99968e-01	

Index   v-sweep         i(vdc_xs)       v(2,5)          
--------------------------------------------------------------------------------
171	-2.90000e-01	-1.79949e-03	-2.89969e-01	
172	-2.80000e-01	-1.79501e-03	-2.79969e-01	
173	-2.70000e-01	-1.79045e-03	-2.69970e-01	
174	-2.60000e-01	-1.78578e-03	-2.59970e-01	
175	-2.50000e-01	-1.78100e-03	-2.49970e-01	
176	-2.40000e-01	-1.77606e-03	-2.39971e-01	
177	-2.30000e-01	-1.77094e-03	-2.29971e-01	
178	-2.20000e-01	-1.76558e-03	-2.19972e-01	
179	-2.10000e-01	-1.75993e-03	-2.09972e-01	
180	-2.00000e-01	-1.75389e-03	-1.99973e-01	
181	-1.90000e-01	-1.74735e-03	-1.89973e-01	
182	-1.80000e-01	-1.74015e-03	-1.79973e-01	
183	-1.70000e-01	-1.73206e-03	-1.69974e-01	
184	-1.60000e-01	-1.72276e-03	-1.59974e-01	
185	-1.50000e-01	-1.71179e-03	-1.49975e-01	
186	-1.40000e-01	-1.69894e-03	-1.39975e-01	
187	-1.30000e-01	-1.68394e-03	-1.29975e-01	
188	-1.20000e-01	-1.66629e-03	-1.19976e-01	
189	-1.10000e-01	-1.64537e-03	-1.09976e-01	
190	-1.00000e-01	-1.62043e-03	-9.99767e-02	
191	-9.00000e-02	-1.59056e-03	-8.99771e-02	
192	-8.00000e-02	-1.55469e-03	-7.99776e-02	
193	-7.00000e-02	-1.51153e-03	-6.99780e-02	
194	-6.00000e-02	-1.45959e-03	-5.99784e-02	
195	-5.00000e-02	-1.39713e-03	-4.99789e-02	
196	-4.00000e-02	-1.32218e-03	-3.99794e-02	
197	-3.00000e-02	-1.23257e-03	-2.99799e-02	
198	-2.00000e-02	-1.12592e-03	-1.99803e-02	
199	-1.00000e-02	-9.99744e-04	-9.98086e-03	
200	1.641048e-15	-8.51495e-04	1.861177e-05	
201	1.000000e-02	-6.78691e-04	1.001806e-02	
202	2.000000e-02	-4.79018e-04	2.001749e-02	
203	3.000000e-02	-2.50446e-04	3.001689e-02	
204	4.000000e-02	8.698882e-06	4.001627e-02	
205	5.000000e-02	2.995172e-04	5.001562e-02	
206	6.000000e-02	6.227836e-04	6.001494e-02	
207	7.000000e-02	9.786626e-04	7.001424e-02	
208	8.000000e-02	1.366882e-03	8.001350e-02	
209	9.000000e-02	1.786764e-03	9.001275e-02	
210	1.000000e-01	2.237301e-03	1.000120e-01	
211	1.100000e-01	2.717236e-03	1.100112e-01	
212	1.200000e-01	3.225137e-03	1.200103e-01	
213	1.300000e-01	3.759470e-03	1.300095e-01	
214	1.400000e-01	4.318655e-03	1.400086e-01	
215	1.500000e-01	4.901110e-03	1.500077e-01	
216	1.600000e-01	5.505290e-03	1.600068e-01	
217	1.700000e-01	6.129706e-03	1.700059e-01	
218	1.800000e-01	6.772945e-03	1.800049e-01	
219	1.900000e-01	7.433676e-03	1.900040e-01	
220	2.000000e-01	8.110657e-03	2.000030e-01	
221	2.100000e-01	8.802733e-03	2.100020e-01	
222	2.200000e-01	9.508836e-03	2.200010e-01	
223	2.300000e-01	1.022798e-02	2.300000e-01	
224	2.400000e-01	1.095927e-02	2.399990e-01	
225	2.500000e-01	1.170185e-02	2.499979e-01	
226	2.600000e-01	1.245498e-02	2.599969e-01	
227	2.700000e-01	1.321795e-02	2.699959e-01	
228	2.800000e-01	1.399010e-02	2.799948e-01	

Index   v-sweep         i(vdc_xs)       v(2,5)          
--------------------------------------------------------------------------------
229	2.900000e-01	1.477086e-02	2.899937e-01	
230	3.000000e-01	1.555968e-02	2.999927e-01	
231	3.100000e-01	1.635606e-02	3.099916e-01	
232	3.200000e-01	1.715954e-02	3.199905e-01	
233	3.300000e-01	1.796969e-02	3.299894e-01	
234	3.400000e-01	1.878613e-02	3.399884e-01	
235	3.500000e-01	1.960849e-02	3.499873e-01	
236	3.600000e-01	2.043645e-02	3.599862e-01	
237	3.700000e-01	2.126969e-02	3.699851e-01	
238	3.800000e-01	2.210793e-02	3.799839e-01	
239	3.900000e-01	2.295091e-02	3.899828e-01	
240	4.000000e-01	2.379837e-02	3.999817e-01	
241	4.100000e-01	2.465010e-02	4.099806e-01	
242	4.200000e-01	2.550587e-02	4.199795e-01	
243	4.300000e-01	2.636550e-02	4.299784e-01	
244	4.400000e-01	2.722879e-02	4.399772e-01	
245	4.500000e-01	2.809557e-02	4.499761e-01	
246	4.600000e-01	2.896568e-02	4.599750e-01	
247	4.700000e-01	2.983898e-02	4.699738e-01	
248	4.800000e-01	3.071532e-02	4.799727e-01	
249	4.900000e-01	3.159456e-02	4.899715e-01	
250	5.000000e-01	3.247658e-02	4.999704e-01	
251	5.100000e-01	3.336126e-02	5.099693e-01	
252	5.200000e-01	3.424850e-02	5.199681e-01	
253	5.300000e-01	3.513819e-02	5.299670e-01	
254	5.400000e-01	3.603023e-02	5.399658e-01	
255	5.500000e-01	3.692453e-02	5.499647e-01	
256	5.600000e-01	3.782101e-02	5.599635e-01	
257	5.700000e-01	3.871957e-02	5.699623e-01	
258	5.800000e-01	3.962014e-02	5.799612e-01	
259	5.900000e-01	4.039641e-02	5.885627e-01	
260	6.000000e-01	4.045755e-02	5.892396e-01	
261	6.100000e-01	4.047692e-02	5.894539e-01	
262	6.200000e-01	4.048894e-02	5.895869e-01	
263	6.300000e-01	4.049615e-02	5.896668e-01	
264	6.400000e-01	4.050160e-02	5.897271e-01	
265	6.500000e-01	4.050602e-02	5.897760e-01	
266	6.600000e-01	4.050947e-02	5.898142e-01	
267	6.700000e-01	4.051216e-02	5.898440e-01	
268	6.800000e-01	4.051425e-02	5.898671e-01	
269	6.900000e-01	4.051586e-02	5.898850e-01	
270	7.000000e-01	4.051709e-02	5.898986e-01	
271	7.100000e-01	4.051802e-02	5.899089e-01	
272	7.200000e-01	4.051872e-02	5.899165e-01	
273	7.300000e-01	4.051923e-02	5.899222e-01	
274	7.400000e-01	4.051961e-02	5.899264e-01	
275	7.500000e-01	4.051989e-02	5.899295e-01	
276	7.600000e-01	4.052009e-02	5.899317e-01	
277	7.700000e-01	4.052024e-02	5.899334e-01	
278	7.800000e-01	4.052034e-02	5.899345e-01	
279	7.900000e-01	4.052042e-02	5.899354e-01	
280	8.000000e-01	4.052048e-02	5.899360e-01	
281	8.100000e-01	4.052052e-02	5.899364e-01	
282	8.200000e-01	4.052055e-02	5.899368e-01	
283	8.300000e-01	4.052057e-02	5.899370e-01	
284	8.400000e-01	4.052058e-02	5.899372e-01	
285	8.500000e-01	4.052059e-02	5.899373e-01	
286	8.600000e-01	4.052060e-02	5.899374e-01	

Index   v-sweep         i(vdc_xs)       v(2,5)          
--------------------------------------------------------------------------------
287	8.700000e-01	4.052061e-02	5.899375e-01	
288	8.800000e-01	4.052062e-02	5.899375e-01	
289	8.900000e-01	4.052062e-02	5.899376e-01	
290	9.000000e-01	4.052062e-02	5.899376e-01	
291	9.100000e-01	4.052063e-02	5.899377e-01	
292	9.200000e-01	4.052063e-02	5.899377e-01	
293	9.300000e-01	4.052063e-02	5.899377e-01	
294	9.400000e-01	4.052063e-02	5.899377e-01	
295	9.500000e-01	4.052063e-02	5.899377e-01	
296	9.600000e-01	4.052064e-02	5.899378e-01	
297	9.700000e-01	4.052064e-02	5.899378e-01	
298	9.800000e-01	4.052064e-02	5.899378e-01	
299	9.900000e-01	4.052064e-02	5.899378e-01	
300	1.000000e+00	4.052064e-02	5.899378e-01	
301	1.010000e+00	4.052064e-02	5.899378e-01	
302	1.020000e+00	4.052064e-02	5.899379e-01	
303	1.030000e+00	4.052065e-02	5.899379e-01	
304	1.040000e+00	4.052065e-02	5.899379e-01	
305	1.050000e+00	4.052065e-02	5.899379e-01	
306	1.060000e+00	4.052065e-02	5.899379e-01	
307	1.070000e+00	4.052065e-02	5.899379e-01	
308	1.080000e+00	4.052065e-02	5.899380e-01	
309	1.090000e+00	4.052065e-02	5.899380e-01	
310	1.100000e+00	4.052066e-02	5.899380e-01	
311	1.110000e+00	4.052066e-02	5.899380e-01	
312	1.120000e+00	4.052066e-02	5.899380e-01	
313	1.130000e+00	4.052066e-02	5.899380e-01	
314	1.140000e+00	4.052066e-02	5.899380e-01	
315	1.150000e+00	4.052066e-02	5.899381e-01	
316	1.160000e+00	4.052066e-02	5.899381e-01	
317	1.170000e+00	4.052067e-02	5.899381e-01	
318	1.180000e+00	4.052067e-02	5.899381e-01	
319	1.190000e+00	4.052067e-02	5.899381e-01	
320	1.200000e+00	4.052067e-02	5.899381e-01	
321	1.210000e+00	4.052067e-02	5.899382e-01	
322	1.220000e+00	4.052067e-02	5.899382e-01	
323	1.230000e+00	4.052067e-02	5.899382e-01	
324	1.240000e+00	4.052067e-02	5.899382e-01	
325	1.250000e+00	4.052068e-02	5.899382e-01	
326	1.260000e+00	4.052068e-02	5.899382e-01	
327	1.270000e+00	4.052068e-02	5.899382e-01	
328	1.280000e+00	4.052068e-02	5.899383e-01	
329	1.290000e+00	4.052068e-02	5.899383e-01	
330	1.300000e+00	4.052068e-02	5.899383e-01	
331	1.310000e+00	4.052068e-02	5.899383e-01	
332	1.320000e+00	4.052069e-02	5.899383e-01	
333	1.330000e+00	4.052069e-02	5.899383e-01	
334	1.340000e+00	4.052069e-02	5.899384e-01	
335	1.350000e+00	4.052069e-02	5.899384e-01	
336	1.360000e+00	4.052069e-02	5.899384e-01	
337	1.370000e+00	4.052069e-02	5.899384e-01	
338	1.380000e+00	4.052069e-02	5.899384e-01	
339	1.390000e+00	4.052070e-02	5.899384e-01	
340	1.400000e+00	4.052070e-02	5.899384e-01	
341	1.410000e+00	4.052070e-02	5.899385e-01	
342	1.420000e+00	4.052070e-02	5.899385e-01	
343	1.430000e+00	4.052070e-02	5.899385e-01	
344	1.440000e+00	4.052070e-02	5.899385e-01	

Index   v-sweep         i(vdc_xs)       v(2,5)          
--------------------------------------------------------------------------------
345	1.450000e+00	4.052070e-02	5.899385e-01	
346	1.460000e+00	4.052070e-02	5.899385e-01	
347	1.470000e+00	4.052071e-02	5.899386e-01	
348	1.480000e+00	4.052071e-02	5.899386e-01	
349	1.490000e+00	4.052071e-02	5.899386e-01	
350	1.500000e+00	4.052071e-02	5.899386e-01	
351	1.510000e+00	4.052071e-02	5.899386e-01	
352	1.520000e+00	4.052071e-02	5.899386e-01	
353	1.530000e+00	4.052071e-02	5.899386e-01	
354	1.540000e+00	4.052072e-02	5.899387e-01	
355	1.550000e+00	4.052072e-02	5.899387e-01	
356	1.560000e+00	4.052072e-02	5.899387e-01	
357	1.570000e+00	4.052072e-02	5.899387e-01	
358	1.580000e+00	4.052072e-02	5.899387e-01	
359	1.590000e+00	4.052072e-02	5.899387e-01	
360	1.600000e+00	4.052072e-02	5.899387e-01	
361	1.610000e+00	4.052073e-02	5.899388e-01	
362	1.620000e+00	4.052073e-02	5.899388e-01	
363	1.630000e+00	4.052073e-02	5.899388e-01	
364	1.640000e+00	4.052073e-02	5.899388e-01	
365	1.650000e+00	4.052073e-02	5.899388e-01	
366	1.660000e+00	4.052073e-02	5.899388e-01	
367	1.670000e+00	4.052073e-02	5.899389e-01	
368	1.680000e+00	4.052074e-02	5.899389e-01	
369	1.690000e+00	4.052074e-02	5.899389e-01	
370	1.700000e+00	4.052074e-02	5.899389e-01	
371	1.710000e+00	4.052074e-02	5.899389e-01	
372	1.720000e+00	4.052074e-02	5.899389e-01	
373	1.730000e+00	4.052074e-02	5.899389e-01	
374	1.740000e+00	4.052074e-02	5.899390e-01	
375	1.750000e+00	4.052074e-02	5.899390e-01	
376	1.760000e+00	4.052075e-02	5.899390e-01	
377	1.770000e+00	4.052075e-02	5.899390e-01	
378	1.780000e+00	4.052075e-02	5.899390e-01	
379	1.790000e+00	4.052075e-02	5.899390e-01	
380	1.800000e+00	4.052075e-02	5.899391e-01	
381	1.810000e+00	4.052075e-02	5.899391e-01	
382	1.820000e+00	4.052075e-02	5.899391e-01	
383	1.830000e+00	4.052076e-02	5.899391e-01	
384	1.840000e+00	4.052076e-02	5.899391e-01	
385	1.850000e+00	4.052076e-02	5.899391e-01	
386	1.860000e+00	4.052076e-02	5.899391e-01	
387	1.870000e+00	4.052076e-02	5.899392e-01	
388	1.880000e+00	4.052076e-02	5.899392e-01	
389	1.890000e+00	4.052076e-02	5.899392e-01	
390	1.900000e+00	4.052077e-02	5.899392e-01	
391	1.910000e+00	4.052077e-02	5.899392e-01	
392	1.920000e+00	4.052077e-02	5.899392e-01	
393	1.930000e+00	4.052077e-02	5.899393e-01	
394	1.940000e+00	4.052077e-02	5.899393e-01	
395	1.950000e+00	4.052077e-02	5.899393e-01	
396	1.960000e+00	4.052077e-02	5.899393e-01	
397	1.970000e+00	4.052078e-02	5.899393e-01	
398	1.980000e+00	4.052078e-02	5.899393e-01	
399	1.990000e+00	4.052078e-02	5.899393e-01	
400	2.000000e+00	4.052078e-02	5.899394e-01	
