                                   photodiode
                                   DC transfer characteristic  Sat Oct  1 16:52:38  2022
--------------------------------------------------------------------------------
Index   v-sweep         i(vdc_xs)       v(2,5)          
--------------------------------------------------------------------------------
0	-2.00000e+00	-1.92954e-03	-1.99990e+00	
1	-1.99000e+00	-1.92556e-03	-1.98990e+00	
2	-1.98000e+00	-1.92157e-03	-1.97990e+00	
3	-1.97000e+00	-1.91759e-03	-1.96990e+00	
4	-1.96000e+00	-1.91361e-03	-1.95990e+00	
5	-1.95000e+00	-1.90962e-03	-1.94990e+00	
6	-1.94000e+00	-1.90564e-03	-1.93990e+00	
7	-1.93000e+00	-1.90165e-03	-1.92990e+00	
8	-1.92000e+00	-1.89767e-03	-1.91990e+00	
9	-1.91000e+00	-1.89369e-03	-1.90990e+00	
10	-1.90000e+00	-1.88970e-03	-1.89991e+00	
11	-1.89000e+00	-1.88572e-03	-1.88991e+00	
12	-1.88000e+00	-1.88173e-03	-1.87991e+00	
13	-1.87000e+00	-1.87775e-03	-1.86991e+00	
14	-1.86000e+00	-1.87377e-03	-1.85991e+00	
15	-1.85000e+00	-1.86978e-03	-1.84991e+00	
16	-1.84000e+00	-1.86580e-03	-1.83991e+00	
17	-1.83000e+00	-1.86182e-03	-1.82991e+00	
18	-1.82000e+00	-1.85783e-03	-1.81991e+00	
19	-1.81000e+00	-1.85385e-03	-1.80991e+00	
20	-1.80000e+00	-1.84986e-03	-1.79991e+00	
21	-1.79000e+00	-1.84588e-03	-1.78991e+00	
22	-1.78000e+00	-1.84190e-03	-1.77991e+00	
23	-1.77000e+00	-1.83791e-03	-1.76991e+00	
24	-1.76000e+00	-1.83393e-03	-1.75991e+00	
25	-1.75000e+00	-1.82994e-03	-1.74991e+00	
26	-1.74000e+00	-1.82596e-03	-1.73991e+00	
27	-1.73000e+00	-1.82198e-03	-1.72991e+00	
28	-1.72000e+00	-1.81799e-03	-1.71991e+00	
29	-1.71000e+00	-1.81401e-03	-1.70991e+00	
30	-1.70000e+00	-1.81002e-03	-1.69991e+00	
31	-1.69000e+00	-1.80604e-03	-1.68991e+00	
32	-1.68000e+00	-1.80206e-03	-1.67991e+00	
33	-1.67000e+00	-1.79807e-03	-1.66991e+00	
34	-1.66000e+00	-1.79409e-03	-1.65991e+00	
35	-1.65000e+00	-1.79010e-03	-1.64992e+00	
36	-1.64000e+00	-1.78612e-03	-1.63992e+00	
37	-1.63000e+00	-1.78214e-03	-1.62992e+00	
38	-1.62000e+00	-1.77815e-03	-1.61992e+00	
39	-1.61000e+00	-1.77417e-03	-1.60992e+00	
40	-1.60000e+00	-1.77018e-03	-1.59992e+00	
41	-1.59000e+00	-1.76620e-03	-1.58992e+00	
42	-1.58000e+00	-1.76222e-03	-1.57992e+00	
43	-1.57000e+00	-1.75823e-03	-1.56992e+00	
44	-1.56000e+00	-1.75425e-03	-1.55992e+00	
45	-1.55000e+00	-1.75026e-03	-1.54992e+00	
46	-1.54000e+00	-1.74628e-03	-1.53992e+00	
47	-1.53000e+00	-1.74230e-03	-1.52992e+00	
48	-1.52000e+00	-1.73831e-03	-1.51992e+00	
49	-1.51000e+00	-1.73433e-03	-1.50992e+00	
50	-1.50000e+00	-1.73034e-03	-1.49992e+00	
51	-1.49000e+00	-1.72636e-03	-1.48992e+00	
52	-1.48000e+00	-1.72238e-03	-1.47992e+00	
53	-1.47000e+00	-1.71839e-03	-1.46992e+00	
54	-1.46000e+00	-1.71441e-03	-1.45992e+00	

Index   v-sweep         i(vdc_xs)       v(2,5)          
--------------------------------------------------------------------------------
55	-1.45000e+00	-1.71042e-03	-1.44992e+00	
56	-1.44000e+00	-1.70644e-03	-1.43992e+00	
57	-1.43000e+00	-1.70246e-03	-1.42992e+00	
58	-1.42000e+00	-1.69847e-03	-1.41992e+00	
59	-1.41000e+00	-1.69449e-03	-1.40992e+00	
60	-1.40000e+00	-1.69050e-03	-1.39993e+00	
61	-1.39000e+00	-1.68652e-03	-1.38993e+00	
62	-1.38000e+00	-1.68254e-03	-1.37993e+00	
63	-1.37000e+00	-1.67855e-03	-1.36993e+00	
64	-1.36000e+00	-1.67457e-03	-1.35993e+00	
65	-1.35000e+00	-1.67058e-03	-1.34993e+00	
66	-1.34000e+00	-1.66660e-03	-1.33993e+00	
67	-1.33000e+00	-1.66262e-03	-1.32993e+00	
68	-1.32000e+00	-1.65863e-03	-1.31993e+00	
69	-1.31000e+00	-1.65465e-03	-1.30993e+00	
70	-1.30000e+00	-1.65066e-03	-1.29993e+00	
71	-1.29000e+00	-1.64668e-03	-1.28993e+00	
72	-1.28000e+00	-1.64270e-03	-1.27993e+00	
73	-1.27000e+00	-1.63871e-03	-1.26993e+00	
74	-1.26000e+00	-1.63473e-03	-1.25993e+00	
75	-1.25000e+00	-1.63074e-03	-1.24993e+00	
76	-1.24000e+00	-1.62676e-03	-1.23993e+00	
77	-1.23000e+00	-1.62278e-03	-1.22993e+00	
78	-1.22000e+00	-1.61879e-03	-1.21993e+00	
79	-1.21000e+00	-1.61481e-03	-1.20993e+00	
80	-1.20000e+00	-1.61082e-03	-1.19993e+00	
81	-1.19000e+00	-1.60684e-03	-1.18993e+00	
82	-1.18000e+00	-1.60285e-03	-1.17993e+00	
83	-1.17000e+00	-1.59887e-03	-1.16993e+00	
84	-1.16000e+00	-1.59489e-03	-1.15993e+00	
85	-1.15000e+00	-1.59090e-03	-1.14994e+00	
86	-1.14000e+00	-1.58692e-03	-1.13994e+00	
87	-1.13000e+00	-1.58293e-03	-1.12994e+00	
88	-1.12000e+00	-1.57895e-03	-1.11994e+00	
89	-1.11000e+00	-1.57497e-03	-1.10994e+00	
90	-1.10000e+00	-1.57098e-03	-1.09994e+00	
91	-1.09000e+00	-1.56700e-03	-1.08994e+00	
92	-1.08000e+00	-1.56301e-03	-1.07994e+00	
93	-1.07000e+00	-1.55903e-03	-1.06994e+00	
94	-1.06000e+00	-1.55504e-03	-1.05994e+00	
95	-1.05000e+00	-1.55106e-03	-1.04994e+00	
96	-1.04000e+00	-1.54708e-03	-1.03994e+00	
97	-1.03000e+00	-1.54309e-03	-1.02994e+00	
98	-1.02000e+00	-1.53911e-03	-1.01994e+00	
99	-1.01000e+00	-1.53512e-03	-1.00994e+00	
100	-1.00000e+00	-1.53114e-03	-9.99941e-01	
101	-9.90000e-01	-1.52715e-03	-9.89942e-01	
102	-9.80000e-01	-1.52317e-03	-9.79942e-01	
103	-9.70000e-01	-1.51919e-03	-9.69942e-01	
104	-9.60000e-01	-1.51520e-03	-9.59943e-01	
105	-9.50000e-01	-1.51122e-03	-9.49943e-01	
106	-9.40000e-01	-1.50723e-03	-9.39943e-01	
107	-9.30000e-01	-1.50325e-03	-9.29944e-01	
108	-9.20000e-01	-1.49926e-03	-9.19944e-01	
109	-9.10000e-01	-1.49528e-03	-9.09945e-01	
110	-9.00000e-01	-1.49129e-03	-8.99945e-01	
111	-8.90000e-01	-1.48731e-03	-8.89945e-01	
112	-8.80000e-01	-1.48332e-03	-8.79946e-01	

Index   v-sweep         i(vdc_xs)       v(2,5)          
--------------------------------------------------------------------------------
113	-8.70000e-01	-1.47934e-03	-8.69946e-01	
114	-8.60000e-01	-1.47536e-03	-8.59947e-01	
115	-8.50000e-01	-1.47137e-03	-8.49947e-01	
116	-8.40000e-01	-1.46739e-03	-8.39947e-01	
117	-8.30000e-01	-1.46340e-03	-8.29948e-01	
118	-8.20000e-01	-1.45942e-03	-8.19948e-01	
119	-8.10000e-01	-1.45543e-03	-8.09949e-01	
120	-8.00000e-01	-1.45145e-03	-7.99949e-01	
121	-7.90000e-01	-1.44746e-03	-7.89949e-01	
122	-7.80000e-01	-1.44348e-03	-7.79950e-01	
123	-7.70000e-01	-1.43949e-03	-7.69950e-01	
124	-7.60000e-01	-1.43551e-03	-7.59951e-01	
125	-7.50000e-01	-1.43152e-03	-7.49951e-01	
126	-7.40000e-01	-1.42753e-03	-7.39951e-01	
127	-7.30000e-01	-1.42355e-03	-7.29952e-01	
128	-7.20000e-01	-1.41956e-03	-7.19952e-01	
129	-7.10000e-01	-1.41558e-03	-7.09953e-01	
130	-7.00000e-01	-1.41159e-03	-6.99953e-01	
131	-6.90000e-01	-1.40761e-03	-6.89953e-01	
132	-6.80000e-01	-1.40362e-03	-6.79954e-01	
133	-6.70000e-01	-1.39963e-03	-6.69954e-01	
134	-6.60000e-01	-1.39565e-03	-6.59955e-01	
135	-6.50000e-01	-1.39166e-03	-6.49955e-01	
136	-6.40000e-01	-1.38768e-03	-6.39955e-01	
137	-6.30000e-01	-1.38369e-03	-6.29956e-01	
138	-6.20000e-01	-1.37970e-03	-6.19956e-01	
139	-6.10000e-01	-1.37571e-03	-6.09957e-01	
140	-6.00000e-01	-1.37173e-03	-5.99957e-01	
141	-5.90000e-01	-1.36774e-03	-5.89957e-01	
142	-5.80000e-01	-1.36375e-03	-5.79958e-01	
143	-5.70000e-01	-1.35976e-03	-5.69958e-01	
144	-5.60000e-01	-1.35578e-03	-5.59958e-01	
145	-5.50000e-01	-1.35179e-03	-5.49959e-01	
146	-5.40000e-01	-1.34780e-03	-5.39959e-01	
147	-5.30000e-01	-1.34381e-03	-5.29960e-01	
148	-5.20000e-01	-1.33982e-03	-5.19960e-01	
149	-5.10000e-01	-1.33583e-03	-5.09960e-01	
150	-5.00000e-01	-1.33184e-03	-4.99961e-01	
151	-4.90000e-01	-1.32784e-03	-4.89961e-01	
152	-4.80000e-01	-1.32385e-03	-4.79962e-01	
153	-4.70000e-01	-1.31986e-03	-4.69962e-01	
154	-4.60000e-01	-1.31586e-03	-4.59962e-01	
155	-4.50000e-01	-1.31187e-03	-4.49963e-01	
156	-4.40000e-01	-1.30787e-03	-4.39963e-01	
157	-4.30000e-01	-1.30388e-03	-4.29964e-01	
158	-4.20000e-01	-1.29988e-03	-4.19964e-01	
159	-4.10000e-01	-1.29588e-03	-4.09964e-01	
160	-4.00000e-01	-1.29188e-03	-3.99965e-01	
161	-3.90000e-01	-1.28787e-03	-3.89965e-01	
162	-3.80000e-01	-1.28387e-03	-3.79966e-01	
163	-3.70000e-01	-1.27986e-03	-3.69966e-01	
164	-3.60000e-01	-1.27585e-03	-3.59966e-01	
165	-3.50000e-01	-1.27183e-03	-3.49967e-01	
166	-3.40000e-01	-1.26782e-03	-3.39967e-01	
167	-3.30000e-01	-1.26379e-03	-3.29968e-01	
168	-3.20000e-01	-1.25976e-03	-3.19968e-01	
169	-3.10000e-01	-1.25573e-03	-3.09968e-01	
170	-3.00000e-01	-1.25169e-03	-2.99969e-01	

Index   v-sweep         i(vdc_xs)       v(2,5)          
--------------------------------------------------------------------------------
171	-2.90000e-01	-1.24764e-03	-2.89969e-01	
172	-2.80000e-01	-1.24358e-03	-2.79970e-01	
173	-2.70000e-01	-1.23951e-03	-2.69970e-01	
174	-2.60000e-01	-1.23542e-03	-2.59970e-01	
175	-2.50000e-01	-1.23132e-03	-2.49971e-01	
176	-2.40000e-01	-1.22719e-03	-2.39971e-01	
177	-2.30000e-01	-1.22303e-03	-2.29971e-01	
178	-2.20000e-01	-1.21884e-03	-2.19972e-01	
179	-2.10000e-01	-1.21461e-03	-2.09972e-01	
180	-2.00000e-01	-1.21032e-03	-1.99973e-01	
181	-1.90000e-01	-1.20597e-03	-1.89973e-01	
182	-1.80000e-01	-1.20151e-03	-1.79973e-01	
183	-1.70000e-01	-1.19693e-03	-1.69974e-01	
184	-1.60000e-01	-1.19218e-03	-1.59974e-01	
185	-1.50000e-01	-1.18719e-03	-1.49975e-01	
186	-1.40000e-01	-1.18187e-03	-1.39975e-01	
187	-1.30000e-01	-1.17613e-03	-1.29975e-01	
188	-1.20000e-01	-1.16992e-03	-1.19976e-01	
189	-1.10000e-01	-1.16313e-03	-1.09976e-01	
190	-1.00000e-01	-1.15559e-03	-9.99766e-02	
191	-9.00000e-02	-1.14713e-03	-8.99770e-02	
192	-8.00000e-02	-1.13750e-03	-7.99774e-02	
193	-7.00000e-02	-1.12639e-03	-6.99778e-02	
194	-6.00000e-02	-1.11343e-03	-5.99782e-02	
195	-5.00000e-02	-1.09815e-03	-4.99786e-02	
196	-4.00000e-02	-1.07996e-03	-3.99790e-02	
197	-3.00000e-02	-1.05815e-03	-2.99794e-02	
198	-2.00000e-02	-1.03183e-03	-1.99798e-02	
199	-1.00000e-02	-9.99931e-04	-9.98026e-03	
200	1.641048e-15	-9.61150e-04	1.932146e-05	
201	1.000000e-02	-9.13947e-04	1.001889e-02	
202	2.000000e-02	-8.56507e-04	2.001846e-02	
203	3.000000e-02	-7.86739e-04	3.001801e-02	
204	4.000000e-02	-7.02280e-04	4.001755e-02	
205	5.000000e-02	-6.00527e-04	5.001708e-02	
206	6.000000e-02	-4.78706e-04	6.001659e-02	
207	7.000000e-02	-3.33960e-04	7.001609e-02	
208	8.000000e-02	-1.63476e-04	8.001556e-02	
209	9.000000e-02	3.537043e-05	9.001501e-02	
210	1.000000e-01	2.648736e-04	1.000144e-01	
211	1.100000e-01	5.268691e-04	1.100138e-01	
212	1.200000e-01	8.226417e-04	1.200132e-01	
213	1.300000e-01	1.152881e-03	1.300126e-01	
214	1.400000e-01	1.517690e-03	1.400119e-01	
215	1.500000e-01	1.916628e-03	1.500112e-01	
216	1.600000e-01	2.348802e-03	1.600104e-01	
217	1.700000e-01	2.812955e-03	1.700097e-01	
218	1.800000e-01	3.307573e-03	1.800089e-01	
219	1.900000e-01	3.830977e-03	1.900081e-01	
220	2.000000e-01	4.381404e-03	2.000072e-01	
221	2.100000e-01	4.957070e-03	2.100064e-01	
222	2.200000e-01	5.556220e-03	2.200055e-01	
223	2.300000e-01	6.177162e-03	2.300046e-01	
224	2.400000e-01	6.818288e-03	2.400037e-01	
225	2.500000e-01	7.478091e-03	2.500028e-01	
226	2.600000e-01	8.155166e-03	2.600018e-01	
227	2.700000e-01	8.848214e-03	2.700009e-01	
228	2.800000e-01	9.556040e-03	2.799999e-01	

Index   v-sweep         i(vdc_xs)       v(2,5)          
--------------------------------------------------------------------------------
229	2.900000e-01	1.027755e-02	2.899990e-01	
230	3.000000e-01	1.101173e-02	2.999980e-01	
231	3.100000e-01	1.175767e-02	3.099970e-01	
232	3.200000e-01	1.251454e-02	3.199960e-01	
233	3.300000e-01	1.328156e-02	3.299950e-01	
234	3.400000e-01	1.405803e-02	3.399940e-01	
235	3.500000e-01	1.484333e-02	3.499929e-01	
236	3.600000e-01	1.563686e-02	3.599919e-01	
237	3.700000e-01	1.643809e-02	3.699909e-01	
238	3.800000e-01	1.724653e-02	3.799898e-01	
239	3.900000e-01	1.806174e-02	3.899888e-01	
240	4.000000e-01	1.888329e-02	3.999877e-01	
241	4.100000e-01	1.971082e-02	4.099867e-01	
242	4.200000e-01	2.054396e-02	4.199856e-01	
243	4.300000e-01	2.138241e-02	4.299846e-01	
244	4.400000e-01	2.222587e-02	4.399835e-01	
245	4.500000e-01	2.307405e-02	4.499824e-01	
246	4.600000e-01	2.392671e-02	4.599814e-01	
247	4.700000e-01	2.478361e-02	4.699803e-01	
248	4.800000e-01	2.564453e-02	4.799792e-01	
249	4.900000e-01	2.650926e-02	4.899781e-01	
250	5.000000e-01	2.737763e-02	4.999770e-01	
251	5.100000e-01	2.824946e-02	5.099759e-01	
252	5.200000e-01	2.912457e-02	5.199748e-01	
253	5.300000e-01	3.000281e-02	5.299737e-01	
254	5.400000e-01	3.088405e-02	5.399726e-01	
255	5.500000e-01	3.176815e-02	5.499715e-01	
256	5.600000e-01	3.265498e-02	5.599704e-01	
257	5.700000e-01	3.354442e-02	5.699693e-01	
258	5.800000e-01	3.443636e-02	5.799682e-01	
259	5.900000e-01	3.533071e-02	5.899671e-01	
260	6.000000e-01	3.622735e-02	5.999660e-01	
261	6.100000e-01	3.712620e-02	6.099649e-01	
262	6.200000e-01	3.802717e-02	6.199638e-01	
263	6.300000e-01	3.893018e-02	6.299627e-01	
264	6.400000e-01	3.983514e-02	6.399616e-01	
265	6.500000e-01	4.046549e-02	6.469138e-01	
266	6.600000e-01	4.050653e-02	6.473662e-01	
267	6.700000e-01	4.052277e-02	6.475452e-01	
268	6.800000e-01	4.053229e-02	6.476501e-01	
269	6.900000e-01	4.053848e-02	6.477183e-01	
270	7.000000e-01	4.054344e-02	6.477729e-01	
271	7.100000e-01	4.054736e-02	6.478161e-01	
272	7.200000e-01	4.055038e-02	6.478494e-01	
273	7.300000e-01	4.055270e-02	6.478750e-01	
274	7.400000e-01	4.055448e-02	6.478946e-01	
275	7.500000e-01	4.055583e-02	6.479095e-01	
276	7.600000e-01	4.055684e-02	6.479206e-01	
277	7.700000e-01	4.055758e-02	6.479288e-01	
278	7.800000e-01	4.055812e-02	6.479348e-01	
279	7.900000e-01	4.055852e-02	6.479391e-01	
280	8.000000e-01	4.055880e-02	6.479422e-01	
281	8.100000e-01	4.055900e-02	6.479444e-01	
282	8.200000e-01	4.055915e-02	6.479460e-01	
283	8.300000e-01	4.055925e-02	6.479472e-01	
284	8.400000e-01	4.055932e-02	6.479480e-01	
285	8.500000e-01	4.055937e-02	6.479485e-01	
286	8.600000e-01	4.055941e-02	6.479489e-01	

Index   v-sweep         i(vdc_xs)       v(2,5)          
--------------------------------------------------------------------------------
287	8.700000e-01	4.055944e-02	6.479492e-01	
288	8.800000e-01	4.055946e-02	6.479494e-01	
289	8.900000e-01	4.055947e-02	6.479496e-01	
290	9.000000e-01	4.055948e-02	6.479497e-01	
291	9.100000e-01	4.055949e-02	6.479498e-01	
292	9.200000e-01	4.055949e-02	6.479498e-01	
293	9.300000e-01	4.055950e-02	6.479499e-01	
294	9.400000e-01	4.055950e-02	6.479499e-01	
295	9.500000e-01	4.055950e-02	6.479500e-01	
296	9.600000e-01	4.055951e-02	6.479500e-01	
297	9.700000e-01	4.055951e-02	6.479500e-01	
298	9.800000e-01	4.055951e-02	6.479500e-01	
299	9.900000e-01	4.055951e-02	6.479500e-01	
300	1.000000e+00	4.055951e-02	6.479501e-01	
301	1.010000e+00	4.055951e-02	6.479501e-01	
302	1.020000e+00	4.055952e-02	6.479501e-01	
303	1.030000e+00	4.055952e-02	6.479501e-01	
304	1.040000e+00	4.055952e-02	6.479501e-01	
305	1.050000e+00	4.055952e-02	6.479501e-01	
306	1.060000e+00	4.055952e-02	6.479502e-01	
307	1.070000e+00	4.055952e-02	6.479502e-01	
308	1.080000e+00	4.055952e-02	6.479502e-01	
309	1.090000e+00	4.055952e-02	6.479502e-01	
310	1.100000e+00	4.055953e-02	6.479502e-01	
311	1.110000e+00	4.055953e-02	6.479502e-01	
312	1.120000e+00	4.055953e-02	6.479502e-01	
313	1.130000e+00	4.055953e-02	6.479503e-01	
314	1.140000e+00	4.055953e-02	6.479503e-01	
315	1.150000e+00	4.055953e-02	6.479503e-01	
316	1.160000e+00	4.055953e-02	6.479503e-01	
317	1.170000e+00	4.055953e-02	6.479503e-01	
318	1.180000e+00	4.055954e-02	6.479503e-01	
319	1.190000e+00	4.055954e-02	6.479503e-01	
320	1.200000e+00	4.055954e-02	6.479504e-01	
321	1.210000e+00	4.055954e-02	6.479504e-01	
322	1.220000e+00	4.055954e-02	6.479504e-01	
323	1.230000e+00	4.055954e-02	6.479504e-01	
324	1.240000e+00	4.055954e-02	6.479504e-01	
325	1.250000e+00	4.055955e-02	6.479504e-01	
326	1.260000e+00	4.055955e-02	6.479504e-01	
327	1.270000e+00	4.055955e-02	6.479505e-01	
328	1.280000e+00	4.055955e-02	6.479505e-01	
329	1.290000e+00	4.055955e-02	6.479505e-01	
330	1.300000e+00	4.055955e-02	6.479505e-01	
331	1.310000e+00	4.055955e-02	6.479505e-01	
332	1.320000e+00	4.055955e-02	6.479505e-01	
333	1.330000e+00	4.055956e-02	6.479505e-01	
334	1.340000e+00	4.055956e-02	6.479506e-01	
335	1.350000e+00	4.055956e-02	6.479506e-01	
336	1.360000e+00	4.055956e-02	6.479506e-01	
337	1.370000e+00	4.055956e-02	6.479506e-01	
338	1.380000e+00	4.055956e-02	6.479506e-01	
339	1.390000e+00	4.055956e-02	6.479506e-01	
340	1.400000e+00	4.055956e-02	6.479506e-01	
341	1.410000e+00	4.055957e-02	6.479507e-01	
342	1.420000e+00	4.055957e-02	6.479507e-01	
343	1.430000e+00	4.055957e-02	6.479507e-01	
344	1.440000e+00	4.055957e-02	6.479507e-01	

Index   v-sweep         i(vdc_xs)       v(2,5)          
--------------------------------------------------------------------------------
345	1.450000e+00	4.055957e-02	6.479507e-01	
346	1.460000e+00	4.055957e-02	6.479507e-01	
347	1.470000e+00	4.055957e-02	6.479507e-01	
348	1.480000e+00	4.055958e-02	6.479508e-01	
349	1.490000e+00	4.055958e-02	6.479508e-01	
350	1.500000e+00	4.055958e-02	6.479508e-01	
351	1.510000e+00	4.055958e-02	6.479508e-01	
352	1.520000e+00	4.055958e-02	6.479508e-01	
353	1.530000e+00	4.055958e-02	6.479508e-01	
354	1.540000e+00	4.055958e-02	6.479508e-01	
355	1.550000e+00	4.055958e-02	6.479509e-01	
356	1.560000e+00	4.055959e-02	6.479509e-01	
357	1.570000e+00	4.055959e-02	6.479509e-01	
358	1.580000e+00	4.055959e-02	6.479509e-01	
359	1.590000e+00	4.055959e-02	6.479509e-01	
360	1.600000e+00	4.055959e-02	6.479509e-01	
361	1.610000e+00	4.055959e-02	6.479509e-01	
362	1.620000e+00	4.055959e-02	6.479510e-01	
363	1.630000e+00	4.055959e-02	6.479510e-01	
364	1.640000e+00	4.055960e-02	6.479510e-01	
365	1.650000e+00	4.055960e-02	6.479510e-01	
366	1.660000e+00	4.055960e-02	6.479510e-01	
367	1.670000e+00	4.055960e-02	6.479510e-01	
368	1.680000e+00	4.055960e-02	6.479510e-01	
369	1.690000e+00	4.055960e-02	6.479511e-01	
370	1.700000e+00	4.055960e-02	6.479511e-01	
371	1.710000e+00	4.055961e-02	6.479511e-01	
372	1.720000e+00	4.055961e-02	6.479511e-01	
373	1.730000e+00	4.055961e-02	6.479511e-01	
374	1.740000e+00	4.055961e-02	6.479511e-01	
375	1.750000e+00	4.055961e-02	6.479511e-01	
376	1.760000e+00	4.055961e-02	6.479512e-01	
377	1.770000e+00	4.055961e-02	6.479512e-01	
378	1.780000e+00	4.055961e-02	6.479512e-01	
379	1.790000e+00	4.055962e-02	6.479512e-01	
380	1.800000e+00	4.055962e-02	6.479512e-01	
381	1.810000e+00	4.055962e-02	6.479512e-01	
382	1.820000e+00	4.055962e-02	6.479512e-01	
383	1.830000e+00	4.055962e-02	6.479513e-01	
384	1.840000e+00	4.055962e-02	6.479513e-01	
385	1.850000e+00	4.055962e-02	6.479513e-01	
386	1.860000e+00	4.055962e-02	6.479513e-01	
387	1.870000e+00	4.055963e-02	6.479513e-01	
388	1.880000e+00	4.055963e-02	6.479513e-01	
389	1.890000e+00	4.055963e-02	6.479513e-01	
390	1.900000e+00	4.055963e-02	6.479514e-01	
391	1.910000e+00	4.055963e-02	6.479514e-01	
392	1.920000e+00	4.055963e-02	6.479514e-01	
393	1.930000e+00	4.055963e-02	6.479514e-01	
394	1.940000e+00	4.055963e-02	6.479514e-01	
395	1.950000e+00	4.055964e-02	6.479514e-01	
396	1.960000e+00	4.055964e-02	6.479514e-01	
397	1.970000e+00	4.055964e-02	6.479515e-01	
398	1.980000e+00	4.055964e-02	6.479515e-01	
399	1.990000e+00	4.055964e-02	6.479515e-01	
400	2.000000e+00	4.055964e-02	6.479515e-01	
