                                   photodiode
                                   DC transfer characteristic  Sat Oct  1 16:52:38  2022
--------------------------------------------------------------------------------
Index   v-sweep         i(vdc_xs)       v(2,5)          
--------------------------------------------------------------------------------
0	-2.00000e+00	-1.80090e-03	-1.99991e+00	
1	-1.99000e+00	-1.79692e-03	-1.98991e+00	
2	-1.98000e+00	-1.79293e-03	-1.97991e+00	
3	-1.97000e+00	-1.78895e-03	-1.96991e+00	
4	-1.96000e+00	-1.78497e-03	-1.95991e+00	
5	-1.95000e+00	-1.78098e-03	-1.94991e+00	
6	-1.94000e+00	-1.77700e-03	-1.93991e+00	
7	-1.93000e+00	-1.77302e-03	-1.92991e+00	
8	-1.92000e+00	-1.76903e-03	-1.91991e+00	
9	-1.91000e+00	-1.76505e-03	-1.90991e+00	
10	-1.90000e+00	-1.76106e-03	-1.89991e+00	
11	-1.89000e+00	-1.75708e-03	-1.88991e+00	
12	-1.88000e+00	-1.75310e-03	-1.87991e+00	
13	-1.87000e+00	-1.74911e-03	-1.86991e+00	
14	-1.86000e+00	-1.74513e-03	-1.85991e+00	
15	-1.85000e+00	-1.74114e-03	-1.84991e+00	
16	-1.84000e+00	-1.73716e-03	-1.83991e+00	
17	-1.83000e+00	-1.73318e-03	-1.82991e+00	
18	-1.82000e+00	-1.72919e-03	-1.81991e+00	
19	-1.81000e+00	-1.72521e-03	-1.80991e+00	
20	-1.80000e+00	-1.72122e-03	-1.79991e+00	
21	-1.79000e+00	-1.71724e-03	-1.78991e+00	
22	-1.78000e+00	-1.71326e-03	-1.77991e+00	
23	-1.77000e+00	-1.70927e-03	-1.76991e+00	
24	-1.76000e+00	-1.70529e-03	-1.75991e+00	
25	-1.75000e+00	-1.70130e-03	-1.74991e+00	
26	-1.74000e+00	-1.69732e-03	-1.73992e+00	
27	-1.73000e+00	-1.69334e-03	-1.72992e+00	
28	-1.72000e+00	-1.68935e-03	-1.71992e+00	
29	-1.71000e+00	-1.68537e-03	-1.70992e+00	
30	-1.70000e+00	-1.68139e-03	-1.69992e+00	
31	-1.69000e+00	-1.67740e-03	-1.68992e+00	
32	-1.68000e+00	-1.67342e-03	-1.67992e+00	
33	-1.67000e+00	-1.66943e-03	-1.66992e+00	
34	-1.66000e+00	-1.66545e-03	-1.65992e+00	
35	-1.65000e+00	-1.66147e-03	-1.64992e+00	
36	-1.64000e+00	-1.65748e-03	-1.63992e+00	
37	-1.63000e+00	-1.65350e-03	-1.62992e+00	
38	-1.62000e+00	-1.64951e-03	-1.61992e+00	
39	-1.61000e+00	-1.64553e-03	-1.60992e+00	
40	-1.60000e+00	-1.64155e-03	-1.59992e+00	
41	-1.59000e+00	-1.63756e-03	-1.58992e+00	
42	-1.58000e+00	-1.63358e-03	-1.57992e+00	
43	-1.57000e+00	-1.62959e-03	-1.56992e+00	
44	-1.56000e+00	-1.62561e-03	-1.55992e+00	
45	-1.55000e+00	-1.62163e-03	-1.54992e+00	
46	-1.54000e+00	-1.61764e-03	-1.53992e+00	
47	-1.53000e+00	-1.61366e-03	-1.52992e+00	
48	-1.52000e+00	-1.60967e-03	-1.51992e+00	
49	-1.51000e+00	-1.60569e-03	-1.50992e+00	
50	-1.50000e+00	-1.60171e-03	-1.49992e+00	
51	-1.49000e+00	-1.59772e-03	-1.48992e+00	
52	-1.48000e+00	-1.59374e-03	-1.47993e+00	
53	-1.47000e+00	-1.58976e-03	-1.46993e+00	
54	-1.46000e+00	-1.58577e-03	-1.45993e+00	

Index   v-sweep         i(vdc_xs)       v(2,5)          
--------------------------------------------------------------------------------
55	-1.45000e+00	-1.58179e-03	-1.44993e+00	
56	-1.44000e+00	-1.57780e-03	-1.43993e+00	
57	-1.43000e+00	-1.57382e-03	-1.42993e+00	
58	-1.42000e+00	-1.56984e-03	-1.41993e+00	
59	-1.41000e+00	-1.56585e-03	-1.40993e+00	
60	-1.40000e+00	-1.56187e-03	-1.39993e+00	
61	-1.39000e+00	-1.55788e-03	-1.38993e+00	
62	-1.38000e+00	-1.55390e-03	-1.37993e+00	
63	-1.37000e+00	-1.54992e-03	-1.36993e+00	
64	-1.36000e+00	-1.54593e-03	-1.35993e+00	
65	-1.35000e+00	-1.54195e-03	-1.34993e+00	
66	-1.34000e+00	-1.53796e-03	-1.33993e+00	
67	-1.33000e+00	-1.53398e-03	-1.32993e+00	
68	-1.32000e+00	-1.53000e-03	-1.31993e+00	
69	-1.31000e+00	-1.52601e-03	-1.30993e+00	
70	-1.30000e+00	-1.52203e-03	-1.29993e+00	
71	-1.29000e+00	-1.51804e-03	-1.28993e+00	
72	-1.28000e+00	-1.51406e-03	-1.27993e+00	
73	-1.27000e+00	-1.51008e-03	-1.26993e+00	
74	-1.26000e+00	-1.50609e-03	-1.25993e+00	
75	-1.25000e+00	-1.50211e-03	-1.24993e+00	
76	-1.24000e+00	-1.49812e-03	-1.23993e+00	
77	-1.23000e+00	-1.49414e-03	-1.22993e+00	
78	-1.22000e+00	-1.49016e-03	-1.21993e+00	
79	-1.21000e+00	-1.48617e-03	-1.20994e+00	
80	-1.20000e+00	-1.48219e-03	-1.19994e+00	
81	-1.19000e+00	-1.47821e-03	-1.18994e+00	
82	-1.18000e+00	-1.47422e-03	-1.17994e+00	
83	-1.17000e+00	-1.47024e-03	-1.16994e+00	
84	-1.16000e+00	-1.46625e-03	-1.15994e+00	
85	-1.15000e+00	-1.46227e-03	-1.14994e+00	
86	-1.14000e+00	-1.45829e-03	-1.13994e+00	
87	-1.13000e+00	-1.45430e-03	-1.12994e+00	
88	-1.12000e+00	-1.45032e-03	-1.11994e+00	
89	-1.11000e+00	-1.44633e-03	-1.10994e+00	
90	-1.10000e+00	-1.44235e-03	-1.09994e+00	
91	-1.09000e+00	-1.43837e-03	-1.08994e+00	
92	-1.08000e+00	-1.43438e-03	-1.07994e+00	
93	-1.07000e+00	-1.43040e-03	-1.06994e+00	
94	-1.06000e+00	-1.42641e-03	-1.05994e+00	
95	-1.05000e+00	-1.42243e-03	-1.04994e+00	
96	-1.04000e+00	-1.41845e-03	-1.03994e+00	
97	-1.03000e+00	-1.41446e-03	-1.02994e+00	
98	-1.02000e+00	-1.41048e-03	-1.01994e+00	
99	-1.01000e+00	-1.40649e-03	-1.00994e+00	
100	-1.00000e+00	-1.40251e-03	-9.99943e-01	
101	-9.90000e-01	-1.39853e-03	-9.89943e-01	
102	-9.80000e-01	-1.39454e-03	-9.79944e-01	
103	-9.70000e-01	-1.39056e-03	-9.69944e-01	
104	-9.60000e-01	-1.38657e-03	-9.59944e-01	
105	-9.50000e-01	-1.38259e-03	-9.49945e-01	
106	-9.40000e-01	-1.37861e-03	-9.39945e-01	
107	-9.30000e-01	-1.37462e-03	-9.29946e-01	
108	-9.20000e-01	-1.37064e-03	-9.19946e-01	
109	-9.10000e-01	-1.36666e-03	-9.09946e-01	
110	-9.00000e-01	-1.36267e-03	-8.99947e-01	
111	-8.90000e-01	-1.35869e-03	-8.89947e-01	
112	-8.80000e-01	-1.35470e-03	-8.79947e-01	

Index   v-sweep         i(vdc_xs)       v(2,5)          
--------------------------------------------------------------------------------
113	-8.70000e-01	-1.35072e-03	-8.69948e-01	
114	-8.60000e-01	-1.34674e-03	-8.59948e-01	
115	-8.50000e-01	-1.34275e-03	-8.49948e-01	
116	-8.40000e-01	-1.33877e-03	-8.39949e-01	
117	-8.30000e-01	-1.33478e-03	-8.29949e-01	
118	-8.20000e-01	-1.33080e-03	-8.19950e-01	
119	-8.10000e-01	-1.32682e-03	-8.09950e-01	
120	-8.00000e-01	-1.32283e-03	-7.99950e-01	
121	-7.90000e-01	-1.31885e-03	-7.89951e-01	
122	-7.80000e-01	-1.31486e-03	-7.79951e-01	
123	-7.70000e-01	-1.31088e-03	-7.69951e-01	
124	-7.60000e-01	-1.30690e-03	-7.59952e-01	
125	-7.50000e-01	-1.30291e-03	-7.49952e-01	
126	-7.40000e-01	-1.29893e-03	-7.39953e-01	
127	-7.30000e-01	-1.29494e-03	-7.29953e-01	
128	-7.20000e-01	-1.29096e-03	-7.19953e-01	
129	-7.10000e-01	-1.28698e-03	-7.09954e-01	
130	-7.00000e-01	-1.28299e-03	-6.99954e-01	
131	-6.90000e-01	-1.27901e-03	-6.89954e-01	
132	-6.80000e-01	-1.27502e-03	-6.79955e-01	
133	-6.70000e-01	-1.27104e-03	-6.69955e-01	
134	-6.60000e-01	-1.26706e-03	-6.59956e-01	
135	-6.50000e-01	-1.26307e-03	-6.49956e-01	
136	-6.40000e-01	-1.25909e-03	-6.39956e-01	
137	-6.30000e-01	-1.25510e-03	-6.29957e-01	
138	-6.20000e-01	-1.25112e-03	-6.19957e-01	
139	-6.10000e-01	-1.24714e-03	-6.09957e-01	
140	-6.00000e-01	-1.24315e-03	-5.99958e-01	
141	-5.90000e-01	-1.23917e-03	-5.89958e-01	
142	-5.80000e-01	-1.23518e-03	-5.79959e-01	
143	-5.70000e-01	-1.23120e-03	-5.69959e-01	
144	-5.60000e-01	-1.22722e-03	-5.59959e-01	
145	-5.50000e-01	-1.22323e-03	-5.49960e-01	
146	-5.40000e-01	-1.21925e-03	-5.39960e-01	
147	-5.30000e-01	-1.21526e-03	-5.29960e-01	
148	-5.20000e-01	-1.21128e-03	-5.19961e-01	
149	-5.10000e-01	-1.20729e-03	-5.09961e-01	
150	-5.00000e-01	-1.20331e-03	-4.99961e-01	
151	-4.90000e-01	-1.19933e-03	-4.89962e-01	
152	-4.80000e-01	-1.19534e-03	-4.79962e-01	
153	-4.70000e-01	-1.19136e-03	-4.69963e-01	
154	-4.60000e-01	-1.18737e-03	-4.59963e-01	
155	-4.50000e-01	-1.18339e-03	-4.49963e-01	
156	-4.40000e-01	-1.17940e-03	-4.39964e-01	
157	-4.30000e-01	-1.17542e-03	-4.29964e-01	
158	-4.20000e-01	-1.17143e-03	-4.19964e-01	
159	-4.10000e-01	-1.16745e-03	-4.09965e-01	
160	-4.00000e-01	-1.16347e-03	-3.99965e-01	
161	-3.90000e-01	-1.15948e-03	-3.89966e-01	
162	-3.80000e-01	-1.15550e-03	-3.79966e-01	
163	-3.70000e-01	-1.15151e-03	-3.69966e-01	
164	-3.60000e-01	-1.14753e-03	-3.59967e-01	
165	-3.50000e-01	-1.14354e-03	-3.49967e-01	
166	-3.40000e-01	-1.13956e-03	-3.39967e-01	
167	-3.30000e-01	-1.13557e-03	-3.29968e-01	
168	-3.20000e-01	-1.13158e-03	-3.19968e-01	
169	-3.10000e-01	-1.12760e-03	-3.09968e-01	
170	-3.00000e-01	-1.12361e-03	-2.99969e-01	

Index   v-sweep         i(vdc_xs)       v(2,5)          
--------------------------------------------------------------------------------
171	-2.90000e-01	-1.11962e-03	-2.89969e-01	
172	-2.80000e-01	-1.11564e-03	-2.79970e-01	
173	-2.70000e-01	-1.11165e-03	-2.69970e-01	
174	-2.60000e-01	-1.10766e-03	-2.59970e-01	
175	-2.50000e-01	-1.10367e-03	-2.49971e-01	
176	-2.40000e-01	-1.09968e-03	-2.39971e-01	
177	-2.30000e-01	-1.09569e-03	-2.29971e-01	
178	-2.20000e-01	-1.09170e-03	-2.19972e-01	
179	-2.10000e-01	-1.08770e-03	-2.09972e-01	
180	-2.00000e-01	-1.08371e-03	-1.99973e-01	
181	-1.90000e-01	-1.07971e-03	-1.89973e-01	
182	-1.80000e-01	-1.07570e-03	-1.79973e-01	
183	-1.70000e-01	-1.07169e-03	-1.69974e-01	
184	-1.60000e-01	-1.06767e-03	-1.59974e-01	
185	-1.50000e-01	-1.06365e-03	-1.49974e-01	
186	-1.40000e-01	-1.05961e-03	-1.39975e-01	
187	-1.30000e-01	-1.05554e-03	-1.29975e-01	
188	-1.20000e-01	-1.05145e-03	-1.19976e-01	
189	-1.10000e-01	-1.04733e-03	-1.09976e-01	
190	-1.00000e-01	-1.04316e-03	-9.99763e-02	
191	-9.00000e-02	-1.03895e-03	-8.99766e-02	
192	-8.00000e-02	-1.03466e-03	-7.99770e-02	
193	-7.00000e-02	-1.03028e-03	-6.99774e-02	
194	-6.00000e-02	-1.02579e-03	-5.99777e-02	
195	-5.00000e-02	-1.02115e-03	-4.99781e-02	
196	-4.00000e-02	-1.01631e-03	-3.99785e-02	
197	-3.00000e-02	-1.01123e-03	-2.99788e-02	
198	-2.00000e-02	-1.00582e-03	-1.99792e-02	
199	-1.00000e-02	-9.99988e-04	-9.97958e-03	
200	1.641048e-15	-9.93617e-04	2.004672e-05	
201	1.000000e-02	-9.86546e-04	1.001968e-02	
202	2.000000e-02	-9.78573e-04	2.001930e-02	
203	3.000000e-02	-9.69436e-04	3.001893e-02	
204	4.000000e-02	-9.58799e-04	4.001856e-02	
205	5.000000e-02	-9.46234e-04	5.001818e-02	
206	6.000000e-02	-9.31195e-04	6.001780e-02	
207	7.000000e-02	-9.12988e-04	7.001742e-02	
208	8.000000e-02	-8.90740e-04	8.001704e-02	
209	9.000000e-02	-8.63359e-04	9.001665e-02	
210	1.000000e-01	-8.29487e-04	1.000163e-01	
211	1.100000e-01	-7.87467e-04	1.100159e-01	
212	1.200000e-01	-7.35297e-04	1.200155e-01	
213	1.300000e-01	-6.70608e-04	1.300150e-01	
214	1.400000e-01	-5.90665e-04	1.400146e-01	
215	1.500000e-01	-4.92397e-04	1.500142e-01	
216	1.600000e-01	-3.72476e-04	1.600137e-01	
217	1.700000e-01	-2.27449e-04	1.700132e-01	
218	1.800000e-01	-5.39162e-05	1.800128e-01	
219	1.900000e-01	1.512623e-04	1.900122e-01	
220	2.000000e-01	3.907557e-04	2.000117e-01	
221	2.100000e-01	6.665864e-04	2.100111e-01	
222	2.200000e-01	9.800158e-04	2.200105e-01	
223	2.300000e-01	1.331510e-03	2.300099e-01	
224	2.400000e-01	1.720784e-03	2.400092e-01	
225	2.500000e-01	2.146902e-03	2.500085e-01	
226	2.600000e-01	2.608418e-03	2.600078e-01	
227	2.700000e-01	3.103521e-03	2.700071e-01	
228	2.800000e-01	3.630179e-03	2.800063e-01	

Index   v-sweep         i(vdc_xs)       v(2,5)          
--------------------------------------------------------------------------------
229	2.900000e-01	4.186249e-03	2.900055e-01	
230	3.000000e-01	4.769577e-03	3.000047e-01	
231	3.100000e-01	5.378056e-03	3.100039e-01	
232	3.200000e-01	6.009678e-03	3.200030e-01	
233	3.300000e-01	6.662558e-03	3.300022e-01	
234	3.400000e-01	7.334946e-03	3.400013e-01	
235	3.500000e-01	8.025232e-03	3.500004e-01	
236	3.600000e-01	8.731948e-03	3.599995e-01	
237	3.700000e-01	9.453754e-03	3.699986e-01	
238	3.800000e-01	1.018944e-02	3.799977e-01	
239	3.900000e-01	1.093790e-02	3.899968e-01	
240	4.000000e-01	1.169814e-02	3.999958e-01	
241	4.100000e-01	1.246927e-02	4.099949e-01	
242	4.200000e-01	1.325046e-02	4.199939e-01	
243	4.300000e-01	1.404098e-02	4.299929e-01	
244	4.400000e-01	1.484017e-02	4.399920e-01	
245	4.500000e-01	1.564740e-02	4.499910e-01	
246	4.600000e-01	1.646214e-02	4.599900e-01	
247	4.700000e-01	1.728388e-02	4.699890e-01	
248	4.800000e-01	1.811215e-02	4.799880e-01	
249	4.900000e-01	1.894656e-02	4.899870e-01	
250	5.000000e-01	1.978670e-02	4.999860e-01	
251	5.100000e-01	2.063223e-02	5.099850e-01	
252	5.200000e-01	2.148283e-02	5.199840e-01	
253	5.300000e-01	2.233820e-02	5.299830e-01	
254	5.400000e-01	2.319807e-02	5.399820e-01	
255	5.500000e-01	2.406220e-02	5.499810e-01	
256	5.600000e-01	2.493034e-02	5.599800e-01	
257	5.700000e-01	2.580229e-02	5.699789e-01	
258	5.800000e-01	2.667784e-02	5.799779e-01	
259	5.900000e-01	2.755681e-02	5.899769e-01	
260	6.000000e-01	2.843903e-02	5.999759e-01	
261	6.100000e-01	2.932435e-02	6.099748e-01	
262	6.200000e-01	3.021260e-02	6.199738e-01	
263	6.300000e-01	3.110366e-02	6.299728e-01	
264	6.400000e-01	3.199740e-02	6.399717e-01	
265	6.500000e-01	3.289369e-02	6.499707e-01	
266	6.600000e-01	3.379241e-02	6.599696e-01	
267	6.700000e-01	3.469347e-02	6.699686e-01	
268	6.800000e-01	3.559677e-02	6.799675e-01	
269	6.900000e-01	3.650221e-02	6.899665e-01	
270	7.000000e-01	3.740969e-02	6.999654e-01	
271	7.100000e-01	3.831915e-02	7.099644e-01	
272	7.200000e-01	3.923050e-02	7.199633e-01	
273	7.300000e-01	4.014367e-02	7.299623e-01	
274	7.400000e-01	4.054891e-02	7.343955e-01	
275	7.500000e-01	4.057568e-02	7.346860e-01	
276	7.600000e-01	4.058736e-02	7.348136e-01	
277	7.700000e-01	4.059539e-02	7.349014e-01	
278	7.800000e-01	4.060094e-02	7.349620e-01	
279	7.900000e-01	4.060509e-02	7.350074e-01	
280	8.000000e-01	4.060828e-02	7.350422e-01	
281	8.100000e-01	4.061070e-02	7.350687e-01	
282	8.200000e-01	4.061252e-02	7.350886e-01	
283	8.300000e-01	4.061387e-02	7.351034e-01	
284	8.400000e-01	4.061486e-02	7.351142e-01	
285	8.500000e-01	4.061557e-02	7.351220e-01	
286	8.600000e-01	4.061608e-02	7.351275e-01	

Index   v-sweep         i(vdc_xs)       v(2,5)          
--------------------------------------------------------------------------------
287	8.700000e-01	4.061643e-02	7.351314e-01	
288	8.800000e-01	4.061668e-02	7.351341e-01	
289	8.900000e-01	4.061685e-02	7.351359e-01	
290	9.000000e-01	4.061696e-02	7.351372e-01	
291	9.100000e-01	4.061705e-02	7.351381e-01	
292	9.200000e-01	4.061710e-02	7.351387e-01	
293	9.300000e-01	4.061714e-02	7.351391e-01	
294	9.400000e-01	4.061716e-02	7.351394e-01	
295	9.500000e-01	4.061718e-02	7.351396e-01	
296	9.600000e-01	4.061719e-02	7.351397e-01	
297	9.700000e-01	4.061720e-02	7.351398e-01	
298	9.800000e-01	4.061721e-02	7.351399e-01	
299	9.900000e-01	4.061721e-02	7.351399e-01	
300	1.000000e+00	4.061722e-02	7.351400e-01	
301	1.010000e+00	4.061722e-02	7.351400e-01	
302	1.020000e+00	4.061722e-02	7.351400e-01	
303	1.030000e+00	4.061723e-02	7.351400e-01	
304	1.040000e+00	4.061723e-02	7.351401e-01	
305	1.050000e+00	4.061723e-02	7.351401e-01	
306	1.060000e+00	4.061723e-02	7.351401e-01	
307	1.070000e+00	4.061723e-02	7.351401e-01	
308	1.080000e+00	4.061723e-02	7.351401e-01	
309	1.090000e+00	4.061723e-02	7.351401e-01	
310	1.100000e+00	4.061724e-02	7.351402e-01	
311	1.110000e+00	4.061724e-02	7.351402e-01	
312	1.120000e+00	4.061724e-02	7.351402e-01	
313	1.130000e+00	4.061724e-02	7.351402e-01	
314	1.140000e+00	4.061724e-02	7.351402e-01	
315	1.150000e+00	4.061724e-02	7.351402e-01	
316	1.160000e+00	4.061724e-02	7.351402e-01	
317	1.170000e+00	4.061724e-02	7.351402e-01	
318	1.180000e+00	4.061724e-02	7.351403e-01	
319	1.190000e+00	4.061725e-02	7.351403e-01	
320	1.200000e+00	4.061725e-02	7.351403e-01	
321	1.210000e+00	4.061725e-02	7.351403e-01	
322	1.220000e+00	4.061725e-02	7.351403e-01	
323	1.230000e+00	4.061725e-02	7.351403e-01	
324	1.240000e+00	4.061725e-02	7.351403e-01	
325	1.250000e+00	4.061725e-02	7.351403e-01	
326	1.260000e+00	4.061725e-02	7.351404e-01	
327	1.270000e+00	4.061726e-02	7.351404e-01	
328	1.280000e+00	4.061726e-02	7.351404e-01	
329	1.290000e+00	4.061726e-02	7.351404e-01	
330	1.300000e+00	4.061726e-02	7.351404e-01	
331	1.310000e+00	4.061726e-02	7.351404e-01	
332	1.320000e+00	4.061726e-02	7.351404e-01	
333	1.330000e+00	4.061726e-02	7.351404e-01	
334	1.340000e+00	4.061726e-02	7.351405e-01	
335	1.350000e+00	4.061726e-02	7.351405e-01	
336	1.360000e+00	4.061727e-02	7.351405e-01	
337	1.370000e+00	4.061727e-02	7.351405e-01	
338	1.380000e+00	4.061727e-02	7.351405e-01	
339	1.390000e+00	4.061727e-02	7.351405e-01	
340	1.400000e+00	4.061727e-02	7.351405e-01	
341	1.410000e+00	4.061727e-02	7.351406e-01	
342	1.420000e+00	4.061727e-02	7.351406e-01	
343	1.430000e+00	4.061727e-02	7.351406e-01	
344	1.440000e+00	4.061728e-02	7.351406e-01	

Index   v-sweep         i(vdc_xs)       v(2,5)          
--------------------------------------------------------------------------------
345	1.450000e+00	4.061728e-02	7.351406e-01	
346	1.460000e+00	4.061728e-02	7.351406e-01	
347	1.470000e+00	4.061728e-02	7.351406e-01	
348	1.480000e+00	4.061728e-02	7.351406e-01	
349	1.490000e+00	4.061728e-02	7.351407e-01	
350	1.500000e+00	4.061728e-02	7.351407e-01	
351	1.510000e+00	4.061728e-02	7.351407e-01	
352	1.520000e+00	4.061728e-02	7.351407e-01	
353	1.530000e+00	4.061729e-02	7.351407e-01	
354	1.540000e+00	4.061729e-02	7.351407e-01	
355	1.550000e+00	4.061729e-02	7.351407e-01	
356	1.560000e+00	4.061729e-02	7.351407e-01	
357	1.570000e+00	4.061729e-02	7.351408e-01	
358	1.580000e+00	4.061729e-02	7.351408e-01	
359	1.590000e+00	4.061729e-02	7.351408e-01	
360	1.600000e+00	4.061729e-02	7.351408e-01	
361	1.610000e+00	4.061730e-02	7.351408e-01	
362	1.620000e+00	4.061730e-02	7.351408e-01	
363	1.630000e+00	4.061730e-02	7.351408e-01	
364	1.640000e+00	4.061730e-02	7.351408e-01	
365	1.650000e+00	4.061730e-02	7.351409e-01	
366	1.660000e+00	4.061730e-02	7.351409e-01	
367	1.670000e+00	4.061730e-02	7.351409e-01	
368	1.680000e+00	4.061730e-02	7.351409e-01	
369	1.690000e+00	4.061730e-02	7.351409e-01	
370	1.700000e+00	4.061731e-02	7.351409e-01	
371	1.710000e+00	4.061731e-02	7.351409e-01	
372	1.720000e+00	4.061731e-02	7.351410e-01	
373	1.730000e+00	4.061731e-02	7.351410e-01	
374	1.740000e+00	4.061731e-02	7.351410e-01	
375	1.750000e+00	4.061731e-02	7.351410e-01	
376	1.760000e+00	4.061731e-02	7.351410e-01	
377	1.770000e+00	4.061731e-02	7.351410e-01	
378	1.780000e+00	4.061732e-02	7.351410e-01	
379	1.790000e+00	4.061732e-02	7.351410e-01	
380	1.800000e+00	4.061732e-02	7.351411e-01	
381	1.810000e+00	4.061732e-02	7.351411e-01	
382	1.820000e+00	4.061732e-02	7.351411e-01	
383	1.830000e+00	4.061732e-02	7.351411e-01	
384	1.840000e+00	4.061732e-02	7.351411e-01	
385	1.850000e+00	4.061732e-02	7.351411e-01	
386	1.860000e+00	4.061732e-02	7.351411e-01	
387	1.870000e+00	4.061733e-02	7.351411e-01	
388	1.880000e+00	4.061733e-02	7.351412e-01	
389	1.890000e+00	4.061733e-02	7.351412e-01	
390	1.900000e+00	4.061733e-02	7.351412e-01	
391	1.910000e+00	4.061733e-02	7.351412e-01	
392	1.920000e+00	4.061733e-02	7.351412e-01	
393	1.930000e+00	4.061733e-02	7.351412e-01	
394	1.940000e+00	4.061733e-02	7.351412e-01	
395	1.950000e+00	4.061734e-02	7.351412e-01	
396	1.960000e+00	4.061734e-02	7.351413e-01	
397	1.970000e+00	4.061734e-02	7.351413e-01	
398	1.980000e+00	4.061734e-02	7.351413e-01	
399	1.990000e+00	4.061734e-02	7.351413e-01	
400	2.000000e+00	4.061734e-02	7.351413e-01	
