                                   photodiode
                                   DC transfer characteristic  Sat Oct  1 16:52:38  2022
--------------------------------------------------------------------------------
Index   v-sweep         i(vdc_xs)       v(2,5)          
--------------------------------------------------------------------------------
0	-2.00000e+00	-1.84926e-03	-1.99990e+00	
1	-1.99000e+00	-1.84528e-03	-1.98990e+00	
2	-1.98000e+00	-1.84129e-03	-1.97990e+00	
3	-1.97000e+00	-1.83731e-03	-1.96990e+00	
4	-1.96000e+00	-1.83333e-03	-1.95990e+00	
5	-1.95000e+00	-1.82934e-03	-1.94990e+00	
6	-1.94000e+00	-1.82536e-03	-1.93991e+00	
7	-1.93000e+00	-1.82137e-03	-1.92991e+00	
8	-1.92000e+00	-1.81739e-03	-1.91991e+00	
9	-1.91000e+00	-1.81341e-03	-1.90991e+00	
10	-1.90000e+00	-1.80942e-03	-1.89991e+00	
11	-1.89000e+00	-1.80544e-03	-1.88991e+00	
12	-1.88000e+00	-1.80145e-03	-1.87991e+00	
13	-1.87000e+00	-1.79747e-03	-1.86991e+00	
14	-1.86000e+00	-1.79349e-03	-1.85991e+00	
15	-1.85000e+00	-1.78950e-03	-1.84991e+00	
16	-1.84000e+00	-1.78552e-03	-1.83991e+00	
17	-1.83000e+00	-1.78154e-03	-1.82991e+00	
18	-1.82000e+00	-1.77755e-03	-1.81991e+00	
19	-1.81000e+00	-1.77357e-03	-1.80991e+00	
20	-1.80000e+00	-1.76958e-03	-1.79991e+00	
21	-1.79000e+00	-1.76560e-03	-1.78991e+00	
22	-1.78000e+00	-1.76162e-03	-1.77991e+00	
23	-1.77000e+00	-1.75763e-03	-1.76991e+00	
24	-1.76000e+00	-1.75365e-03	-1.75991e+00	
25	-1.75000e+00	-1.74966e-03	-1.74991e+00	
26	-1.74000e+00	-1.74568e-03	-1.73991e+00	
27	-1.73000e+00	-1.74170e-03	-1.72991e+00	
28	-1.72000e+00	-1.73771e-03	-1.71991e+00	
29	-1.71000e+00	-1.73373e-03	-1.70991e+00	
30	-1.70000e+00	-1.72974e-03	-1.69991e+00	
31	-1.69000e+00	-1.72576e-03	-1.68991e+00	
32	-1.68000e+00	-1.72178e-03	-1.67992e+00	
33	-1.67000e+00	-1.71779e-03	-1.66992e+00	
34	-1.66000e+00	-1.71381e-03	-1.65992e+00	
35	-1.65000e+00	-1.70982e-03	-1.64992e+00	
36	-1.64000e+00	-1.70584e-03	-1.63992e+00	
37	-1.63000e+00	-1.70186e-03	-1.62992e+00	
38	-1.62000e+00	-1.69787e-03	-1.61992e+00	
39	-1.61000e+00	-1.69389e-03	-1.60992e+00	
40	-1.60000e+00	-1.68990e-03	-1.59992e+00	
41	-1.59000e+00	-1.68592e-03	-1.58992e+00	
42	-1.58000e+00	-1.68194e-03	-1.57992e+00	
43	-1.57000e+00	-1.67795e-03	-1.56992e+00	
44	-1.56000e+00	-1.67397e-03	-1.55992e+00	
45	-1.55000e+00	-1.66999e-03	-1.54992e+00	
46	-1.54000e+00	-1.66600e-03	-1.53992e+00	
47	-1.53000e+00	-1.66202e-03	-1.52992e+00	
48	-1.52000e+00	-1.65803e-03	-1.51992e+00	
49	-1.51000e+00	-1.65405e-03	-1.50992e+00	
50	-1.50000e+00	-1.65007e-03	-1.49992e+00	
51	-1.49000e+00	-1.64608e-03	-1.48992e+00	
52	-1.48000e+00	-1.64210e-03	-1.47992e+00	
53	-1.47000e+00	-1.63811e-03	-1.46992e+00	
54	-1.46000e+00	-1.63413e-03	-1.45992e+00	

Index   v-sweep         i(vdc_xs)       v(2,5)          
--------------------------------------------------------------------------------
55	-1.45000e+00	-1.63015e-03	-1.44992e+00	
56	-1.44000e+00	-1.62616e-03	-1.43992e+00	
57	-1.43000e+00	-1.62218e-03	-1.42993e+00	
58	-1.42000e+00	-1.61819e-03	-1.41993e+00	
59	-1.41000e+00	-1.61421e-03	-1.40993e+00	
60	-1.40000e+00	-1.61023e-03	-1.39993e+00	
61	-1.39000e+00	-1.60624e-03	-1.38993e+00	
62	-1.38000e+00	-1.60226e-03	-1.37993e+00	
63	-1.37000e+00	-1.59827e-03	-1.36993e+00	
64	-1.36000e+00	-1.59429e-03	-1.35993e+00	
65	-1.35000e+00	-1.59031e-03	-1.34993e+00	
66	-1.34000e+00	-1.58632e-03	-1.33993e+00	
67	-1.33000e+00	-1.58234e-03	-1.32993e+00	
68	-1.32000e+00	-1.57835e-03	-1.31993e+00	
69	-1.31000e+00	-1.57437e-03	-1.30993e+00	
70	-1.30000e+00	-1.57039e-03	-1.29993e+00	
71	-1.29000e+00	-1.56640e-03	-1.28993e+00	
72	-1.28000e+00	-1.56242e-03	-1.27993e+00	
73	-1.27000e+00	-1.55843e-03	-1.26993e+00	
74	-1.26000e+00	-1.55445e-03	-1.25993e+00	
75	-1.25000e+00	-1.55047e-03	-1.24993e+00	
76	-1.24000e+00	-1.54648e-03	-1.23993e+00	
77	-1.23000e+00	-1.54250e-03	-1.22993e+00	
78	-1.22000e+00	-1.53851e-03	-1.21993e+00	
79	-1.21000e+00	-1.53453e-03	-1.20993e+00	
80	-1.20000e+00	-1.53055e-03	-1.19993e+00	
81	-1.19000e+00	-1.52656e-03	-1.18993e+00	
82	-1.18000e+00	-1.52258e-03	-1.17993e+00	
83	-1.17000e+00	-1.51859e-03	-1.16994e+00	
84	-1.16000e+00	-1.51461e-03	-1.15994e+00	
85	-1.15000e+00	-1.51063e-03	-1.14994e+00	
86	-1.14000e+00	-1.50664e-03	-1.13994e+00	
87	-1.13000e+00	-1.50266e-03	-1.12994e+00	
88	-1.12000e+00	-1.49867e-03	-1.11994e+00	
89	-1.11000e+00	-1.49469e-03	-1.10994e+00	
90	-1.10000e+00	-1.49071e-03	-1.09994e+00	
91	-1.09000e+00	-1.48672e-03	-1.08994e+00	
92	-1.08000e+00	-1.48274e-03	-1.07994e+00	
93	-1.07000e+00	-1.47875e-03	-1.06994e+00	
94	-1.06000e+00	-1.47477e-03	-1.05994e+00	
95	-1.05000e+00	-1.47079e-03	-1.04994e+00	
96	-1.04000e+00	-1.46680e-03	-1.03994e+00	
97	-1.03000e+00	-1.46282e-03	-1.02994e+00	
98	-1.02000e+00	-1.45883e-03	-1.01994e+00	
99	-1.01000e+00	-1.45485e-03	-1.00994e+00	
100	-1.00000e+00	-1.45087e-03	-9.99942e-01	
101	-9.90000e-01	-1.44688e-03	-9.89942e-01	
102	-9.80000e-01	-1.44290e-03	-9.79942e-01	
103	-9.70000e-01	-1.43891e-03	-9.69943e-01	
104	-9.60000e-01	-1.43493e-03	-9.59943e-01	
105	-9.50000e-01	-1.43095e-03	-9.49944e-01	
106	-9.40000e-01	-1.42696e-03	-9.39944e-01	
107	-9.30000e-01	-1.42298e-03	-9.29944e-01	
108	-9.20000e-01	-1.41899e-03	-9.19945e-01	
109	-9.10000e-01	-1.41501e-03	-9.09945e-01	
110	-9.00000e-01	-1.41102e-03	-8.99946e-01	
111	-8.90000e-01	-1.40704e-03	-8.89946e-01	
112	-8.80000e-01	-1.40306e-03	-8.79946e-01	

Index   v-sweep         i(vdc_xs)       v(2,5)          
--------------------------------------------------------------------------------
113	-8.70000e-01	-1.39907e-03	-8.69947e-01	
114	-8.60000e-01	-1.39509e-03	-8.59947e-01	
115	-8.50000e-01	-1.39110e-03	-8.49948e-01	
116	-8.40000e-01	-1.38712e-03	-8.39948e-01	
117	-8.30000e-01	-1.38314e-03	-8.29948e-01	
118	-8.20000e-01	-1.37915e-03	-8.19949e-01	
119	-8.10000e-01	-1.37517e-03	-8.09949e-01	
120	-8.00000e-01	-1.37118e-03	-7.99949e-01	
121	-7.90000e-01	-1.36720e-03	-7.89950e-01	
122	-7.80000e-01	-1.36321e-03	-7.79950e-01	
123	-7.70000e-01	-1.35923e-03	-7.69951e-01	
124	-7.60000e-01	-1.35525e-03	-7.59951e-01	
125	-7.50000e-01	-1.35126e-03	-7.49951e-01	
126	-7.40000e-01	-1.34728e-03	-7.39952e-01	
127	-7.30000e-01	-1.34329e-03	-7.29952e-01	
128	-7.20000e-01	-1.33931e-03	-7.19953e-01	
129	-7.10000e-01	-1.33532e-03	-7.09953e-01	
130	-7.00000e-01	-1.33134e-03	-6.99953e-01	
131	-6.90000e-01	-1.32735e-03	-6.89954e-01	
132	-6.80000e-01	-1.32337e-03	-6.79954e-01	
133	-6.70000e-01	-1.31938e-03	-6.69954e-01	
134	-6.60000e-01	-1.31540e-03	-6.59955e-01	
135	-6.50000e-01	-1.31141e-03	-6.49955e-01	
136	-6.40000e-01	-1.30743e-03	-6.39956e-01	
137	-6.30000e-01	-1.30344e-03	-6.29956e-01	
138	-6.20000e-01	-1.29946e-03	-6.19956e-01	
139	-6.10000e-01	-1.29547e-03	-6.09957e-01	
140	-6.00000e-01	-1.29149e-03	-5.99957e-01	
141	-5.90000e-01	-1.28750e-03	-5.89958e-01	
142	-5.80000e-01	-1.28352e-03	-5.79958e-01	
143	-5.70000e-01	-1.27953e-03	-5.69958e-01	
144	-5.60000e-01	-1.27555e-03	-5.59959e-01	
145	-5.50000e-01	-1.27156e-03	-5.49959e-01	
146	-5.40000e-01	-1.26758e-03	-5.39960e-01	
147	-5.30000e-01	-1.26359e-03	-5.29960e-01	
148	-5.20000e-01	-1.25960e-03	-5.19960e-01	
149	-5.10000e-01	-1.25562e-03	-5.09961e-01	
150	-5.00000e-01	-1.25163e-03	-4.99961e-01	
151	-4.90000e-01	-1.24764e-03	-4.89961e-01	
152	-4.80000e-01	-1.24366e-03	-4.79962e-01	
153	-4.70000e-01	-1.23967e-03	-4.69962e-01	
154	-4.60000e-01	-1.23568e-03	-4.59963e-01	
155	-4.50000e-01	-1.23169e-03	-4.49963e-01	
156	-4.40000e-01	-1.22771e-03	-4.39963e-01	
157	-4.30000e-01	-1.22372e-03	-4.29964e-01	
158	-4.20000e-01	-1.21973e-03	-4.19964e-01	
159	-4.10000e-01	-1.21574e-03	-4.09965e-01	
160	-4.00000e-01	-1.21175e-03	-3.99965e-01	
161	-3.90000e-01	-1.20776e-03	-3.89965e-01	
162	-3.80000e-01	-1.20376e-03	-3.79966e-01	
163	-3.70000e-01	-1.19977e-03	-3.69966e-01	
164	-3.60000e-01	-1.19578e-03	-3.59966e-01	
165	-3.50000e-01	-1.19178e-03	-3.49967e-01	
166	-3.40000e-01	-1.18778e-03	-3.39967e-01	
167	-3.30000e-01	-1.18379e-03	-3.29968e-01	
168	-3.20000e-01	-1.17979e-03	-3.19968e-01	
169	-3.10000e-01	-1.17578e-03	-3.09968e-01	
170	-3.00000e-01	-1.17178e-03	-2.99969e-01	

Index   v-sweep         i(vdc_xs)       v(2,5)          
--------------------------------------------------------------------------------
171	-2.90000e-01	-1.16777e-03	-2.89969e-01	
172	-2.80000e-01	-1.16376e-03	-2.79970e-01	
173	-2.70000e-01	-1.15974e-03	-2.69970e-01	
174	-2.60000e-01	-1.15572e-03	-2.59970e-01	
175	-2.50000e-01	-1.15169e-03	-2.49971e-01	
176	-2.40000e-01	-1.14765e-03	-2.39971e-01	
177	-2.30000e-01	-1.14360e-03	-2.29971e-01	
178	-2.20000e-01	-1.13954e-03	-2.19972e-01	
179	-2.10000e-01	-1.13547e-03	-2.09972e-01	
180	-2.00000e-01	-1.13137e-03	-1.99973e-01	
181	-1.90000e-01	-1.12725e-03	-1.89973e-01	
182	-1.80000e-01	-1.12309e-03	-1.79973e-01	
183	-1.70000e-01	-1.11889e-03	-1.69974e-01	
184	-1.60000e-01	-1.11462e-03	-1.59974e-01	
185	-1.50000e-01	-1.11027e-03	-1.49975e-01	
186	-1.40000e-01	-1.10579e-03	-1.39975e-01	
187	-1.30000e-01	-1.10114e-03	-1.29975e-01	
188	-1.20000e-01	-1.09630e-03	-1.19976e-01	
189	-1.10000e-01	-1.09123e-03	-1.09976e-01	
190	-1.00000e-01	-1.08585e-03	-9.99765e-02	
191	-9.00000e-02	-1.08010e-03	-8.99769e-02	
192	-8.00000e-02	-1.07387e-03	-7.99773e-02	
193	-7.00000e-02	-1.06702e-03	-6.99777e-02	
194	-6.00000e-02	-1.05939e-03	-5.99780e-02	
195	-5.00000e-02	-1.05077e-03	-4.99784e-02	
196	-4.00000e-02	-1.04090e-03	-3.99788e-02	
197	-3.00000e-02	-1.02944e-03	-2.99792e-02	
198	-2.00000e-02	-1.01597e-03	-1.99796e-02	
199	-1.00000e-02	-9.99965e-04	-9.98000e-03	
200	1.641048e-15	-9.80764e-04	1.960053e-05	
201	1.000000e-02	-9.57554e-04	1.001920e-02	
202	2.000000e-02	-9.29329e-04	2.001880e-02	
203	3.000000e-02	-8.94865e-04	3.001839e-02	
204	4.000000e-02	-8.52680e-04	4.001797e-02	
205	5.000000e-02	-8.01012e-04	5.001755e-02	
206	6.000000e-02	-7.37795e-04	6.001712e-02	
207	7.000000e-02	-6.60660e-04	7.001667e-02	
208	8.000000e-02	-5.66954e-04	8.001622e-02	
209	9.000000e-02	-4.53797e-04	9.001575e-02	
210	1.000000e-01	-3.18173e-04	1.000153e-01	
211	1.100000e-01	-1.57056e-04	1.100148e-01	
212	1.200000e-01	3.243304e-05	1.200142e-01	
213	1.300000e-01	2.528635e-04	1.300137e-01	
214	1.400000e-01	5.063400e-04	1.400131e-01	
215	1.500000e-01	7.943867e-04	1.500125e-01	
216	1.600000e-01	1.117883e-03	1.600118e-01	
217	1.700000e-01	1.477055e-03	1.700112e-01	
218	1.800000e-01	1.871527e-03	1.800105e-01	
219	1.900000e-01	2.300405e-03	1.900098e-01	
220	2.000000e-01	2.762388e-03	2.000090e-01	
221	2.100000e-01	3.255883e-03	2.100082e-01	
222	2.200000e-01	3.779107e-03	2.200074e-01	
223	2.300000e-01	4.330186e-03	2.300066e-01	
224	2.400000e-01	4.907224e-03	2.400058e-01	
225	2.500000e-01	5.508355e-03	2.500049e-01	
226	2.600000e-01	6.131787e-03	2.600041e-01	
227	2.700000e-01	6.775823e-03	2.700032e-01	
228	2.800000e-01	7.438874e-03	2.800023e-01	

Index   v-sweep         i(vdc_xs)       v(2,5)          
--------------------------------------------------------------------------------
229	2.900000e-01	8.119466e-03	2.900013e-01	
230	3.000000e-01	8.816243e-03	3.000004e-01	
231	3.100000e-01	9.527957e-03	3.099995e-01	
232	3.200000e-01	1.025347e-02	3.199985e-01	
233	3.300000e-01	1.099174e-02	3.299976e-01	
234	3.400000e-01	1.174183e-02	3.399966e-01	
235	3.500000e-01	1.250287e-02	3.499956e-01	
236	3.600000e-01	1.327407e-02	3.599946e-01	
237	3.700000e-01	1.405473e-02	3.699936e-01	
238	3.800000e-01	1.484418e-02	3.799926e-01	
239	3.900000e-01	1.564184e-02	3.899916e-01	
240	4.000000e-01	1.644717e-02	3.999906e-01	
241	4.100000e-01	1.725966e-02	4.099896e-01	
242	4.200000e-01	1.807886e-02	4.199885e-01	
243	4.300000e-01	1.890436e-02	4.299875e-01	
244	4.400000e-01	1.973578e-02	4.399865e-01	
245	4.500000e-01	2.057275e-02	4.499854e-01	
246	4.600000e-01	2.141497e-02	4.599844e-01	
247	4.700000e-01	2.226214e-02	4.699833e-01	
248	4.800000e-01	2.311397e-02	4.799823e-01	
249	4.900000e-01	2.397022e-02	4.899812e-01	
250	5.000000e-01	2.483064e-02	4.999802e-01	
251	5.100000e-01	2.569503e-02	5.099791e-01	
252	5.200000e-01	2.656318e-02	5.199780e-01	
253	5.300000e-01	2.743489e-02	5.299770e-01	
254	5.400000e-01	2.831000e-02	5.399759e-01	
255	5.500000e-01	2.918835e-02	5.499748e-01	
256	5.600000e-01	3.006977e-02	5.599737e-01	
257	5.700000e-01	3.095413e-02	5.699727e-01	
258	5.800000e-01	3.184129e-02	5.799716e-01	
259	5.900000e-01	3.273114e-02	5.899705e-01	
260	6.000000e-01	3.362354e-02	5.999694e-01	
261	6.100000e-01	3.451840e-02	6.099683e-01	
262	6.200000e-01	3.541561e-02	6.199672e-01	
263	6.300000e-01	3.631507e-02	6.299662e-01	
264	6.400000e-01	3.721669e-02	6.399651e-01	
265	6.500000e-01	3.812038e-02	6.499640e-01	
266	6.600000e-01	3.902606e-02	6.599629e-01	
267	6.700000e-01	3.993367e-02	6.699618e-01	
268	6.800000e-01	4.049477e-02	6.761341e-01	
269	6.900000e-01	4.053005e-02	6.765210e-01	
270	7.000000e-01	4.054428e-02	6.766773e-01	
271	7.100000e-01	4.055330e-02	6.767765e-01	
272	7.200000e-01	4.055941e-02	6.768437e-01	
273	7.300000e-01	4.056412e-02	6.768954e-01	
274	7.400000e-01	4.056779e-02	6.769357e-01	
275	7.500000e-01	4.057061e-02	6.769667e-01	
276	7.600000e-01	4.057276e-02	6.769904e-01	
277	7.700000e-01	4.057440e-02	6.770084e-01	
278	7.800000e-01	4.057562e-02	6.770218e-01	
279	7.900000e-01	4.057653e-02	6.770318e-01	
280	8.000000e-01	4.057719e-02	6.770390e-01	
281	8.100000e-01	4.057767e-02	6.770443e-01	
282	8.200000e-01	4.057801e-02	6.770480e-01	
283	8.300000e-01	4.057825e-02	6.770507e-01	
284	8.400000e-01	4.057842e-02	6.770525e-01	
285	8.500000e-01	4.057854e-02	6.770539e-01	
286	8.600000e-01	4.057862e-02	6.770548e-01	

Index   v-sweep         i(vdc_xs)       v(2,5)          
--------------------------------------------------------------------------------
287	8.700000e-01	4.057868e-02	6.770554e-01	
288	8.800000e-01	4.057872e-02	6.770559e-01	
289	8.900000e-01	4.057875e-02	6.770562e-01	
290	9.000000e-01	4.057877e-02	6.770565e-01	
291	9.100000e-01	4.057879e-02	6.770566e-01	
292	9.200000e-01	4.057880e-02	6.770567e-01	
293	9.300000e-01	4.057881e-02	6.770568e-01	
294	9.400000e-01	4.057881e-02	6.770569e-01	
295	9.500000e-01	4.057882e-02	6.770569e-01	
296	9.600000e-01	4.057882e-02	6.770570e-01	
297	9.700000e-01	4.057882e-02	6.770570e-01	
298	9.800000e-01	4.057883e-02	6.770570e-01	
299	9.900000e-01	4.057883e-02	6.770570e-01	
300	1.000000e+00	4.057883e-02	6.770571e-01	
301	1.010000e+00	4.057883e-02	6.770571e-01	
302	1.020000e+00	4.057883e-02	6.770571e-01	
303	1.030000e+00	4.057884e-02	6.770571e-01	
304	1.040000e+00	4.057884e-02	6.770571e-01	
305	1.050000e+00	4.057884e-02	6.770571e-01	
306	1.060000e+00	4.057884e-02	6.770572e-01	
307	1.070000e+00	4.057884e-02	6.770572e-01	
308	1.080000e+00	4.057884e-02	6.770572e-01	
309	1.090000e+00	4.057884e-02	6.770572e-01	
310	1.100000e+00	4.057884e-02	6.770572e-01	
311	1.110000e+00	4.057885e-02	6.770572e-01	
312	1.120000e+00	4.057885e-02	6.770572e-01	
313	1.130000e+00	4.057885e-02	6.770573e-01	
314	1.140000e+00	4.057885e-02	6.770573e-01	
315	1.150000e+00	4.057885e-02	6.770573e-01	
316	1.160000e+00	4.057885e-02	6.770573e-01	
317	1.170000e+00	4.057885e-02	6.770573e-01	
318	1.180000e+00	4.057885e-02	6.770573e-01	
319	1.190000e+00	4.057886e-02	6.770573e-01	
320	1.200000e+00	4.057886e-02	6.770574e-01	
321	1.210000e+00	4.057886e-02	6.770574e-01	
322	1.220000e+00	4.057886e-02	6.770574e-01	
323	1.230000e+00	4.057886e-02	6.770574e-01	
324	1.240000e+00	4.057886e-02	6.770574e-01	
325	1.250000e+00	4.057886e-02	6.770574e-01	
326	1.260000e+00	4.057886e-02	6.770574e-01	
327	1.270000e+00	4.057887e-02	6.770575e-01	
328	1.280000e+00	4.057887e-02	6.770575e-01	
329	1.290000e+00	4.057887e-02	6.770575e-01	
330	1.300000e+00	4.057887e-02	6.770575e-01	
331	1.310000e+00	4.057887e-02	6.770575e-01	
332	1.320000e+00	4.057887e-02	6.770575e-01	
333	1.330000e+00	4.057887e-02	6.770575e-01	
334	1.340000e+00	4.057887e-02	6.770576e-01	
335	1.350000e+00	4.057888e-02	6.770576e-01	
336	1.360000e+00	4.057888e-02	6.770576e-01	
337	1.370000e+00	4.057888e-02	6.770576e-01	
338	1.380000e+00	4.057888e-02	6.770576e-01	
339	1.390000e+00	4.057888e-02	6.770576e-01	
340	1.400000e+00	4.057888e-02	6.770576e-01	
341	1.410000e+00	4.057888e-02	6.770576e-01	
342	1.420000e+00	4.057888e-02	6.770577e-01	
343	1.430000e+00	4.057889e-02	6.770577e-01	
344	1.440000e+00	4.057889e-02	6.770577e-01	

Index   v-sweep         i(vdc_xs)       v(2,5)          
--------------------------------------------------------------------------------
345	1.450000e+00	4.057889e-02	6.770577e-01	
346	1.460000e+00	4.057889e-02	6.770577e-01	
347	1.470000e+00	4.057889e-02	6.770577e-01	
348	1.480000e+00	4.057889e-02	6.770577e-01	
349	1.490000e+00	4.057889e-02	6.770578e-01	
350	1.500000e+00	4.057889e-02	6.770578e-01	
351	1.510000e+00	4.057890e-02	6.770578e-01	
352	1.520000e+00	4.057890e-02	6.770578e-01	
353	1.530000e+00	4.057890e-02	6.770578e-01	
354	1.540000e+00	4.057890e-02	6.770578e-01	
355	1.550000e+00	4.057890e-02	6.770578e-01	
356	1.560000e+00	4.057890e-02	6.770579e-01	
357	1.570000e+00	4.057890e-02	6.770579e-01	
358	1.580000e+00	4.057890e-02	6.770579e-01	
359	1.590000e+00	4.057891e-02	6.770579e-01	
360	1.600000e+00	4.057891e-02	6.770579e-01	
361	1.610000e+00	4.057891e-02	6.770579e-01	
362	1.620000e+00	4.057891e-02	6.770579e-01	
363	1.630000e+00	4.057891e-02	6.770580e-01	
364	1.640000e+00	4.057891e-02	6.770580e-01	
365	1.650000e+00	4.057891e-02	6.770580e-01	
366	1.660000e+00	4.057891e-02	6.770580e-01	
367	1.670000e+00	4.057892e-02	6.770580e-01	
368	1.680000e+00	4.057892e-02	6.770580e-01	
369	1.690000e+00	4.057892e-02	6.770580e-01	
370	1.700000e+00	4.057892e-02	6.770580e-01	
371	1.710000e+00	4.057892e-02	6.770581e-01	
372	1.720000e+00	4.057892e-02	6.770581e-01	
373	1.730000e+00	4.057892e-02	6.770581e-01	
374	1.740000e+00	4.057892e-02	6.770581e-01	
375	1.750000e+00	4.057893e-02	6.770581e-01	
376	1.760000e+00	4.057893e-02	6.770581e-01	
377	1.770000e+00	4.057893e-02	6.770581e-01	
378	1.780000e+00	4.057893e-02	6.770582e-01	
379	1.790000e+00	4.057893e-02	6.770582e-01	
380	1.800000e+00	4.057893e-02	6.770582e-01	
381	1.810000e+00	4.057893e-02	6.770582e-01	
382	1.820000e+00	4.057893e-02	6.770582e-01	
383	1.830000e+00	4.057894e-02	6.770582e-01	
384	1.840000e+00	4.057894e-02	6.770582e-01	
385	1.850000e+00	4.057894e-02	6.770583e-01	
386	1.860000e+00	4.057894e-02	6.770583e-01	
387	1.870000e+00	4.057894e-02	6.770583e-01	
388	1.880000e+00	4.057894e-02	6.770583e-01	
389	1.890000e+00	4.057894e-02	6.770583e-01	
390	1.900000e+00	4.057894e-02	6.770583e-01	
391	1.910000e+00	4.057895e-02	6.770583e-01	
392	1.920000e+00	4.057895e-02	6.770584e-01	
393	1.930000e+00	4.057895e-02	6.770584e-01	
394	1.940000e+00	4.057895e-02	6.770584e-01	
395	1.950000e+00	4.057895e-02	6.770584e-01	
396	1.960000e+00	4.057895e-02	6.770584e-01	
397	1.970000e+00	4.057895e-02	6.770584e-01	
398	1.980000e+00	4.057896e-02	6.770584e-01	
399	1.990000e+00	4.057896e-02	6.770584e-01	
400	2.000000e+00	4.057896e-02	6.770585e-01	
