     i-v characteristic of solar cell for different levels of illumination
     DC transfer characteristic  Thu Sep 22 21:37:19  2022
--------------------------------------------------------------------------------
Index   v-sweep         i(vd)           v(3)            
--------------------------------------------------------------------------------
0	-2.00000e+00	-1.80360e-03	-1.81964e+00	
1	-1.99900e+00	-1.80270e-03	-1.81873e+00	
2	-1.99800e+00	-1.80180e-03	-1.81782e+00	
3	-1.99700e+00	-1.80090e-03	-1.81691e+00	
4	-1.99600e+00	-1.80000e-03	-1.81600e+00	
5	-1.99500e+00	-1.79910e-03	-1.81509e+00	
6	-1.99400e+00	-1.79820e-03	-1.81418e+00	
7	-1.99300e+00	-1.79730e-03	-1.81327e+00	
8	-1.99200e+00	-1.79640e-03	-1.81236e+00	
9	-1.99100e+00	-1.79550e-03	-1.81145e+00	
10	-1.99000e+00	-1.79459e-03	-1.81054e+00	
11	-1.98900e+00	-1.79369e-03	-1.80963e+00	
12	-1.98800e+00	-1.79279e-03	-1.80872e+00	
13	-1.98700e+00	-1.79189e-03	-1.80781e+00	
14	-1.98600e+00	-1.79099e-03	-1.80690e+00	
15	-1.98500e+00	-1.79009e-03	-1.80599e+00	
16	-1.98400e+00	-1.78919e-03	-1.80508e+00	
17	-1.98300e+00	-1.78829e-03	-1.80417e+00	
18	-1.98200e+00	-1.78739e-03	-1.80326e+00	
19	-1.98100e+00	-1.78649e-03	-1.80235e+00	
20	-1.98000e+00	-1.78559e-03	-1.80144e+00	
21	-1.97900e+00	-1.78468e-03	-1.80053e+00	
22	-1.97800e+00	-1.78378e-03	-1.79962e+00	
23	-1.97700e+00	-1.78288e-03	-1.79871e+00	
24	-1.97600e+00	-1.78198e-03	-1.79780e+00	
25	-1.97500e+00	-1.78108e-03	-1.79689e+00	
26	-1.97400e+00	-1.78018e-03	-1.79598e+00	
27	-1.97300e+00	-1.77928e-03	-1.79507e+00	
28	-1.97200e+00	-1.77838e-03	-1.79416e+00	
29	-1.97100e+00	-1.77748e-03	-1.79325e+00	
30	-1.97000e+00	-1.77658e-03	-1.79234e+00	
31	-1.96900e+00	-1.77568e-03	-1.79143e+00	
32	-1.96800e+00	-1.77477e-03	-1.79052e+00	
33	-1.96700e+00	-1.77387e-03	-1.78961e+00	
34	-1.96600e+00	-1.77297e-03	-1.78870e+00	
35	-1.96500e+00	-1.77207e-03	-1.78779e+00	
36	-1.96400e+00	-1.77117e-03	-1.78688e+00	
37	-1.96300e+00	-1.77027e-03	-1.78597e+00	
38	-1.96200e+00	-1.76937e-03	-1.78506e+00	
39	-1.96100e+00	-1.76847e-03	-1.78415e+00	
40	-1.96000e+00	-1.76757e-03	-1.78324e+00	
41	-1.95900e+00	-1.76667e-03	-1.78233e+00	
42	-1.95800e+00	-1.76577e-03	-1.78142e+00	
43	-1.95700e+00	-1.76486e-03	-1.78051e+00	
44	-1.95600e+00	-1.76396e-03	-1.77960e+00	
45	-1.95500e+00	-1.76306e-03	-1.77869e+00	
46	-1.95400e+00	-1.76216e-03	-1.77778e+00	
47	-1.95300e+00	-1.76126e-03	-1.77687e+00	
48	-1.95200e+00	-1.76036e-03	-1.77596e+00	
49	-1.95100e+00	-1.75946e-03	-1.77505e+00	
50	-1.95000e+00	-1.75856e-03	-1.77414e+00	
51	-1.94900e+00	-1.75766e-03	-1.77323e+00	
52	-1.94800e+00	-1.75676e-03	-1.77232e+00	
53	-1.94700e+00	-1.75586e-03	-1.77141e+00	
54	-1.94600e+00	-1.75495e-03	-1.77050e+00	

Index   v-sweep         i(vd)           v(3)            
--------------------------------------------------------------------------------
55	-1.94500e+00	-1.75405e-03	-1.76959e+00	
56	-1.94400e+00	-1.75315e-03	-1.76868e+00	
57	-1.94300e+00	-1.75225e-03	-1.76777e+00	
58	-1.94200e+00	-1.75135e-03	-1.76686e+00	
59	-1.94100e+00	-1.75045e-03	-1.76595e+00	
60	-1.94000e+00	-1.74955e-03	-1.76505e+00	
61	-1.93900e+00	-1.74865e-03	-1.76414e+00	
62	-1.93800e+00	-1.74775e-03	-1.76323e+00	
63	-1.93700e+00	-1.74685e-03	-1.76232e+00	
64	-1.93600e+00	-1.74595e-03	-1.76141e+00	
65	-1.93500e+00	-1.74504e-03	-1.76050e+00	
66	-1.93400e+00	-1.74414e-03	-1.75959e+00	
67	-1.93300e+00	-1.74324e-03	-1.75868e+00	
68	-1.93200e+00	-1.74234e-03	-1.75777e+00	
69	-1.93100e+00	-1.74144e-03	-1.75686e+00	
70	-1.93000e+00	-1.74054e-03	-1.75595e+00	
71	-1.92900e+00	-1.73964e-03	-1.75504e+00	
72	-1.92800e+00	-1.73874e-03	-1.75413e+00	
73	-1.92700e+00	-1.73784e-03	-1.75322e+00	
74	-1.92600e+00	-1.73694e-03	-1.75231e+00	
75	-1.92500e+00	-1.73604e-03	-1.75140e+00	
76	-1.92400e+00	-1.73514e-03	-1.75049e+00	
77	-1.92300e+00	-1.73423e-03	-1.74958e+00	
78	-1.92200e+00	-1.73333e-03	-1.74867e+00	
79	-1.92100e+00	-1.73243e-03	-1.74776e+00	
80	-1.92000e+00	-1.73153e-03	-1.74685e+00	
81	-1.91900e+00	-1.73063e-03	-1.74594e+00	
82	-1.91800e+00	-1.72973e-03	-1.74503e+00	
83	-1.91700e+00	-1.72883e-03	-1.74412e+00	
84	-1.91600e+00	-1.72793e-03	-1.74321e+00	
85	-1.91500e+00	-1.72703e-03	-1.74230e+00	
86	-1.91400e+00	-1.72613e-03	-1.74139e+00	
87	-1.91300e+00	-1.72523e-03	-1.74048e+00	
88	-1.91200e+00	-1.72432e-03	-1.73957e+00	
89	-1.91100e+00	-1.72342e-03	-1.73866e+00	
90	-1.91000e+00	-1.72252e-03	-1.73775e+00	
91	-1.90900e+00	-1.72162e-03	-1.73684e+00	
92	-1.90800e+00	-1.72072e-03	-1.73593e+00	
93	-1.90700e+00	-1.71982e-03	-1.73502e+00	
94	-1.90600e+00	-1.71892e-03	-1.73411e+00	
95	-1.90500e+00	-1.71802e-03	-1.73320e+00	
96	-1.90400e+00	-1.71712e-03	-1.73229e+00	
97	-1.90300e+00	-1.71622e-03	-1.73138e+00	
98	-1.90200e+00	-1.71532e-03	-1.73047e+00	
99	-1.90100e+00	-1.71441e-03	-1.72956e+00	
100	-1.90000e+00	-1.71351e-03	-1.72865e+00	
101	-1.89900e+00	-1.71261e-03	-1.72774e+00	
102	-1.89800e+00	-1.71171e-03	-1.72683e+00	
103	-1.89700e+00	-1.71081e-03	-1.72592e+00	
104	-1.89600e+00	-1.70991e-03	-1.72501e+00	
105	-1.89500e+00	-1.70901e-03	-1.72410e+00	
106	-1.89400e+00	-1.70811e-03	-1.72319e+00	
107	-1.89300e+00	-1.70721e-03	-1.72228e+00	
108	-1.89200e+00	-1.70631e-03	-1.72137e+00	
109	-1.89100e+00	-1.70541e-03	-1.72046e+00	
110	-1.89000e+00	-1.70450e-03	-1.71955e+00	
111	-1.88900e+00	-1.70360e-03	-1.71864e+00	
112	-1.88800e+00	-1.70270e-03	-1.71773e+00	

Index   v-sweep         i(vd)           v(3)            
--------------------------------------------------------------------------------
113	-1.88700e+00	-1.70180e-03	-1.71682e+00	
114	-1.88600e+00	-1.70090e-03	-1.71591e+00	
115	-1.88500e+00	-1.70000e-03	-1.71500e+00	
116	-1.88400e+00	-1.69910e-03	-1.71409e+00	
117	-1.88300e+00	-1.69820e-03	-1.71318e+00	
118	-1.88200e+00	-1.69730e-03	-1.71227e+00	
119	-1.88100e+00	-1.69640e-03	-1.71136e+00	
120	-1.88000e+00	-1.69550e-03	-1.71045e+00	
121	-1.87900e+00	-1.69459e-03	-1.70954e+00	
122	-1.87800e+00	-1.69369e-03	-1.70863e+00	
123	-1.87700e+00	-1.69279e-03	-1.70772e+00	
124	-1.87600e+00	-1.69189e-03	-1.70681e+00	
125	-1.87500e+00	-1.69099e-03	-1.70590e+00	
126	-1.87400e+00	-1.69009e-03	-1.70499e+00	
127	-1.87300e+00	-1.68919e-03	-1.70408e+00	
128	-1.87200e+00	-1.68829e-03	-1.70317e+00	
129	-1.87100e+00	-1.68739e-03	-1.70226e+00	
130	-1.87000e+00	-1.68649e-03	-1.70135e+00	
131	-1.86900e+00	-1.68559e-03	-1.70044e+00	
132	-1.86800e+00	-1.68468e-03	-1.69953e+00	
133	-1.86700e+00	-1.68378e-03	-1.69862e+00	
134	-1.86600e+00	-1.68288e-03	-1.69771e+00	
135	-1.86500e+00	-1.68198e-03	-1.69680e+00	
136	-1.86400e+00	-1.68108e-03	-1.69589e+00	
137	-1.86300e+00	-1.68018e-03	-1.69498e+00	
138	-1.86200e+00	-1.67928e-03	-1.69407e+00	
139	-1.86100e+00	-1.67838e-03	-1.69316e+00	
140	-1.86000e+00	-1.67748e-03	-1.69225e+00	
141	-1.85900e+00	-1.67658e-03	-1.69134e+00	
142	-1.85800e+00	-1.67568e-03	-1.69043e+00	
143	-1.85700e+00	-1.67477e-03	-1.68952e+00	
144	-1.85600e+00	-1.67387e-03	-1.68861e+00	
145	-1.85500e+00	-1.67297e-03	-1.68770e+00	
146	-1.85400e+00	-1.67207e-03	-1.68679e+00	
147	-1.85300e+00	-1.67117e-03	-1.68588e+00	
148	-1.85200e+00	-1.67027e-03	-1.68497e+00	
149	-1.85100e+00	-1.66937e-03	-1.68406e+00	
150	-1.85000e+00	-1.66847e-03	-1.68315e+00	
151	-1.84900e+00	-1.66757e-03	-1.68224e+00	
152	-1.84800e+00	-1.66667e-03	-1.68133e+00	
153	-1.84700e+00	-1.66577e-03	-1.68042e+00	
154	-1.84600e+00	-1.66486e-03	-1.67951e+00	
155	-1.84500e+00	-1.66396e-03	-1.67860e+00	
156	-1.84400e+00	-1.66306e-03	-1.67769e+00	
157	-1.84300e+00	-1.66216e-03	-1.67678e+00	
158	-1.84200e+00	-1.66126e-03	-1.67587e+00	
159	-1.84100e+00	-1.66036e-03	-1.67496e+00	
160	-1.84000e+00	-1.65946e-03	-1.67405e+00	
161	-1.83900e+00	-1.65856e-03	-1.67314e+00	
162	-1.83800e+00	-1.65766e-03	-1.67223e+00	
163	-1.83700e+00	-1.65676e-03	-1.67132e+00	
164	-1.83600e+00	-1.65586e-03	-1.67041e+00	
165	-1.83500e+00	-1.65495e-03	-1.66950e+00	
166	-1.83400e+00	-1.65405e-03	-1.66859e+00	
167	-1.83300e+00	-1.65315e-03	-1.66768e+00	
168	-1.83200e+00	-1.65225e-03	-1.66677e+00	
169	-1.83100e+00	-1.65135e-03	-1.66586e+00	
170	-1.83000e+00	-1.65045e-03	-1.66495e+00	

Index   v-sweep         i(vd)           v(3)            
--------------------------------------------------------------------------------
171	-1.82900e+00	-1.64955e-03	-1.66405e+00	
172	-1.82800e+00	-1.64865e-03	-1.66314e+00	
173	-1.82700e+00	-1.64775e-03	-1.66223e+00	
174	-1.82600e+00	-1.64685e-03	-1.66132e+00	
175	-1.82500e+00	-1.64595e-03	-1.66041e+00	
176	-1.82400e+00	-1.64504e-03	-1.65950e+00	
177	-1.82300e+00	-1.64414e-03	-1.65859e+00	
178	-1.82200e+00	-1.64324e-03	-1.65768e+00	
179	-1.82100e+00	-1.64234e-03	-1.65677e+00	
180	-1.82000e+00	-1.64144e-03	-1.65586e+00	
181	-1.81900e+00	-1.64054e-03	-1.65495e+00	
182	-1.81800e+00	-1.63964e-03	-1.65404e+00	
183	-1.81700e+00	-1.63874e-03	-1.65313e+00	
184	-1.81600e+00	-1.63784e-03	-1.65222e+00	
185	-1.81500e+00	-1.63694e-03	-1.65131e+00	
186	-1.81400e+00	-1.63604e-03	-1.65040e+00	
187	-1.81300e+00	-1.63514e-03	-1.64949e+00	
188	-1.81200e+00	-1.63423e-03	-1.64858e+00	
189	-1.81100e+00	-1.63333e-03	-1.64767e+00	
190	-1.81000e+00	-1.63243e-03	-1.64676e+00	
191	-1.80900e+00	-1.63153e-03	-1.64585e+00	
192	-1.80800e+00	-1.63063e-03	-1.64494e+00	
193	-1.80700e+00	-1.62973e-03	-1.64403e+00	
194	-1.80600e+00	-1.62883e-03	-1.64312e+00	
195	-1.80500e+00	-1.62793e-03	-1.64221e+00	
196	-1.80400e+00	-1.62703e-03	-1.64130e+00	
197	-1.80300e+00	-1.62613e-03	-1.64039e+00	
198	-1.80200e+00	-1.62523e-03	-1.63948e+00	
199	-1.80100e+00	-1.62432e-03	-1.63857e+00	
200	-1.80000e+00	-1.62342e-03	-1.63766e+00	
201	-1.79900e+00	-1.62252e-03	-1.63675e+00	
202	-1.79800e+00	-1.62162e-03	-1.63584e+00	
203	-1.79700e+00	-1.62072e-03	-1.63493e+00	
204	-1.79600e+00	-1.61982e-03	-1.63402e+00	
205	-1.79500e+00	-1.61892e-03	-1.63311e+00	
206	-1.79400e+00	-1.61802e-03	-1.63220e+00	
207	-1.79300e+00	-1.61712e-03	-1.63129e+00	
208	-1.79200e+00	-1.61622e-03	-1.63038e+00	
209	-1.79100e+00	-1.61532e-03	-1.62947e+00	
210	-1.79000e+00	-1.61441e-03	-1.62856e+00	
211	-1.78900e+00	-1.61351e-03	-1.62765e+00	
212	-1.78800e+00	-1.61261e-03	-1.62674e+00	
213	-1.78700e+00	-1.61171e-03	-1.62583e+00	
214	-1.78600e+00	-1.61081e-03	-1.62492e+00	
215	-1.78500e+00	-1.60991e-03	-1.62401e+00	
216	-1.78400e+00	-1.60901e-03	-1.62310e+00	
217	-1.78300e+00	-1.60811e-03	-1.62219e+00	
218	-1.78200e+00	-1.60721e-03	-1.62128e+00	
219	-1.78100e+00	-1.60631e-03	-1.62037e+00	
220	-1.78000e+00	-1.60541e-03	-1.61946e+00	
221	-1.77900e+00	-1.60450e-03	-1.61855e+00	
222	-1.77800e+00	-1.60360e-03	-1.61764e+00	
223	-1.77700e+00	-1.60270e-03	-1.61673e+00	
224	-1.77600e+00	-1.60180e-03	-1.61582e+00	
225	-1.77500e+00	-1.60090e-03	-1.61491e+00	
226	-1.77400e+00	-1.60000e-03	-1.61400e+00	
227	-1.77300e+00	-1.59910e-03	-1.61309e+00	
228	-1.77200e+00	-1.59820e-03	-1.61218e+00	

Index   v-sweep         i(vd)           v(3)            
--------------------------------------------------------------------------------
229	-1.77100e+00	-1.59730e-03	-1.61127e+00	
230	-1.77000e+00	-1.59640e-03	-1.61036e+00	
231	-1.76900e+00	-1.59550e-03	-1.60945e+00	
232	-1.76800e+00	-1.59459e-03	-1.60854e+00	
233	-1.76700e+00	-1.59369e-03	-1.60763e+00	
234	-1.76600e+00	-1.59279e-03	-1.60672e+00	
235	-1.76500e+00	-1.59189e-03	-1.60581e+00	
236	-1.76400e+00	-1.59099e-03	-1.60490e+00	
237	-1.76300e+00	-1.59009e-03	-1.60399e+00	
238	-1.76200e+00	-1.58919e-03	-1.60308e+00	
239	-1.76100e+00	-1.58829e-03	-1.60217e+00	
240	-1.76000e+00	-1.58739e-03	-1.60126e+00	
241	-1.75900e+00	-1.58649e-03	-1.60035e+00	
242	-1.75800e+00	-1.58559e-03	-1.59944e+00	
243	-1.75700e+00	-1.58468e-03	-1.59853e+00	
244	-1.75600e+00	-1.58378e-03	-1.59762e+00	
245	-1.75500e+00	-1.58288e-03	-1.59671e+00	
246	-1.75400e+00	-1.58198e-03	-1.59580e+00	
247	-1.75300e+00	-1.58108e-03	-1.59489e+00	
248	-1.75200e+00	-1.58018e-03	-1.59398e+00	
249	-1.75100e+00	-1.57928e-03	-1.59307e+00	
250	-1.75000e+00	-1.57838e-03	-1.59216e+00	
251	-1.74900e+00	-1.57748e-03	-1.59125e+00	
252	-1.74800e+00	-1.57658e-03	-1.59034e+00	
253	-1.74700e+00	-1.57568e-03	-1.58943e+00	
254	-1.74600e+00	-1.57477e-03	-1.58852e+00	
255	-1.74500e+00	-1.57387e-03	-1.58761e+00	
256	-1.74400e+00	-1.57297e-03	-1.58670e+00	
257	-1.74300e+00	-1.57207e-03	-1.58579e+00	
258	-1.74200e+00	-1.57117e-03	-1.58488e+00	
259	-1.74100e+00	-1.57027e-03	-1.58397e+00	
260	-1.74000e+00	-1.56937e-03	-1.58306e+00	
261	-1.73900e+00	-1.56847e-03	-1.58215e+00	
262	-1.73800e+00	-1.56757e-03	-1.58124e+00	
263	-1.73700e+00	-1.56667e-03	-1.58033e+00	
264	-1.73600e+00	-1.56577e-03	-1.57942e+00	
265	-1.73500e+00	-1.56486e-03	-1.57851e+00	
266	-1.73400e+00	-1.56396e-03	-1.57760e+00	
267	-1.73300e+00	-1.56306e-03	-1.57669e+00	
268	-1.73200e+00	-1.56216e-03	-1.57578e+00	
269	-1.73100e+00	-1.56126e-03	-1.57487e+00	
270	-1.73000e+00	-1.56036e-03	-1.57396e+00	
271	-1.72900e+00	-1.55946e-03	-1.57305e+00	
272	-1.72800e+00	-1.55856e-03	-1.57214e+00	
273	-1.72700e+00	-1.55766e-03	-1.57123e+00	
274	-1.72600e+00	-1.55676e-03	-1.57032e+00	
275	-1.72500e+00	-1.55586e-03	-1.56941e+00	
276	-1.72400e+00	-1.55495e-03	-1.56850e+00	
277	-1.72300e+00	-1.55405e-03	-1.56759e+00	
278	-1.72200e+00	-1.55315e-03	-1.56668e+00	
279	-1.72100e+00	-1.55225e-03	-1.56577e+00	
280	-1.72000e+00	-1.55135e-03	-1.56486e+00	
281	-1.71900e+00	-1.55045e-03	-1.56395e+00	
282	-1.71800e+00	-1.54955e-03	-1.56305e+00	
283	-1.71700e+00	-1.54865e-03	-1.56214e+00	
284	-1.71600e+00	-1.54775e-03	-1.56123e+00	
285	-1.71500e+00	-1.54685e-03	-1.56032e+00	
286	-1.71400e+00	-1.54595e-03	-1.55941e+00	

Index   v-sweep         i(vd)           v(3)            
--------------------------------------------------------------------------------
287	-1.71300e+00	-1.54504e-03	-1.55850e+00	
288	-1.71200e+00	-1.54414e-03	-1.55759e+00	
289	-1.71100e+00	-1.54324e-03	-1.55668e+00	
290	-1.71000e+00	-1.54234e-03	-1.55577e+00	
291	-1.70900e+00	-1.54144e-03	-1.55486e+00	
292	-1.70800e+00	-1.54054e-03	-1.55395e+00	
293	-1.70700e+00	-1.53964e-03	-1.55304e+00	
294	-1.70600e+00	-1.53874e-03	-1.55213e+00	
295	-1.70500e+00	-1.53784e-03	-1.55122e+00	
296	-1.70400e+00	-1.53694e-03	-1.55031e+00	
297	-1.70300e+00	-1.53604e-03	-1.54940e+00	
298	-1.70200e+00	-1.53514e-03	-1.54849e+00	
299	-1.70100e+00	-1.53423e-03	-1.54758e+00	
300	-1.70000e+00	-1.53333e-03	-1.54667e+00	
301	-1.69900e+00	-1.53243e-03	-1.54576e+00	
302	-1.69800e+00	-1.53153e-03	-1.54485e+00	
303	-1.69700e+00	-1.53063e-03	-1.54394e+00	
304	-1.69600e+00	-1.52973e-03	-1.54303e+00	
305	-1.69500e+00	-1.52883e-03	-1.54212e+00	
306	-1.69400e+00	-1.52793e-03	-1.54121e+00	
307	-1.69300e+00	-1.52703e-03	-1.54030e+00	
308	-1.69200e+00	-1.52613e-03	-1.53939e+00	
309	-1.69100e+00	-1.52523e-03	-1.53848e+00	
310	-1.69000e+00	-1.52432e-03	-1.53757e+00	
311	-1.68900e+00	-1.52342e-03	-1.53666e+00	
312	-1.68800e+00	-1.52252e-03	-1.53575e+00	
313	-1.68700e+00	-1.52162e-03	-1.53484e+00	
314	-1.68600e+00	-1.52072e-03	-1.53393e+00	
315	-1.68500e+00	-1.51982e-03	-1.53302e+00	
316	-1.68400e+00	-1.51892e-03	-1.53211e+00	
317	-1.68300e+00	-1.51802e-03	-1.53120e+00	
318	-1.68200e+00	-1.51712e-03	-1.53029e+00	
319	-1.68100e+00	-1.51622e-03	-1.52938e+00	
320	-1.68000e+00	-1.51532e-03	-1.52847e+00	
321	-1.67900e+00	-1.51441e-03	-1.52756e+00	
322	-1.67800e+00	-1.51351e-03	-1.52665e+00	
323	-1.67700e+00	-1.51261e-03	-1.52574e+00	
324	-1.67600e+00	-1.51171e-03	-1.52483e+00	
325	-1.67500e+00	-1.51081e-03	-1.52392e+00	
326	-1.67400e+00	-1.50991e-03	-1.52301e+00	
327	-1.67300e+00	-1.50901e-03	-1.52210e+00	
328	-1.67200e+00	-1.50811e-03	-1.52119e+00	
329	-1.67100e+00	-1.50721e-03	-1.52028e+00	
330	-1.67000e+00	-1.50631e-03	-1.51937e+00	
331	-1.66900e+00	-1.50541e-03	-1.51846e+00	
332	-1.66800e+00	-1.50450e-03	-1.51755e+00	
333	-1.66700e+00	-1.50360e-03	-1.51664e+00	
334	-1.66600e+00	-1.50270e-03	-1.51573e+00	
335	-1.66500e+00	-1.50180e-03	-1.51482e+00	
336	-1.66400e+00	-1.50090e-03	-1.51391e+00	
337	-1.66300e+00	-1.50000e-03	-1.51300e+00	
338	-1.66200e+00	-1.49910e-03	-1.51209e+00	
339	-1.66100e+00	-1.49820e-03	-1.51118e+00	
340	-1.66000e+00	-1.49730e-03	-1.51027e+00	
341	-1.65900e+00	-1.49640e-03	-1.50936e+00	
342	-1.65800e+00	-1.49550e-03	-1.50845e+00	
343	-1.65700e+00	-1.49459e-03	-1.50754e+00	
344	-1.65600e+00	-1.49369e-03	-1.50663e+00	

Index   v-sweep         i(vd)           v(3)            
--------------------------------------------------------------------------------
345	-1.65500e+00	-1.49279e-03	-1.50572e+00	
346	-1.65400e+00	-1.49189e-03	-1.50481e+00	
347	-1.65300e+00	-1.49099e-03	-1.50390e+00	
348	-1.65200e+00	-1.49009e-03	-1.50299e+00	
349	-1.65100e+00	-1.48919e-03	-1.50208e+00	
350	-1.65000e+00	-1.48829e-03	-1.50117e+00	
351	-1.64900e+00	-1.48739e-03	-1.50026e+00	
352	-1.64800e+00	-1.48649e-03	-1.49935e+00	
353	-1.64700e+00	-1.48559e-03	-1.49844e+00	
354	-1.64600e+00	-1.48468e-03	-1.49753e+00	
355	-1.64500e+00	-1.48378e-03	-1.49662e+00	
356	-1.64400e+00	-1.48288e-03	-1.49571e+00	
357	-1.64300e+00	-1.48198e-03	-1.49480e+00	
358	-1.64200e+00	-1.48108e-03	-1.49389e+00	
359	-1.64100e+00	-1.48018e-03	-1.49298e+00	
360	-1.64000e+00	-1.47928e-03	-1.49207e+00	
361	-1.63900e+00	-1.47838e-03	-1.49116e+00	
362	-1.63800e+00	-1.47748e-03	-1.49025e+00	
363	-1.63700e+00	-1.47658e-03	-1.48934e+00	
364	-1.63600e+00	-1.47568e-03	-1.48843e+00	
365	-1.63500e+00	-1.47477e-03	-1.48752e+00	
366	-1.63400e+00	-1.47387e-03	-1.48661e+00	
367	-1.63300e+00	-1.47297e-03	-1.48570e+00	
368	-1.63200e+00	-1.47207e-03	-1.48479e+00	
369	-1.63100e+00	-1.47117e-03	-1.48388e+00	
370	-1.63000e+00	-1.47027e-03	-1.48297e+00	
371	-1.62900e+00	-1.46937e-03	-1.48206e+00	
372	-1.62800e+00	-1.46847e-03	-1.48115e+00	
373	-1.62700e+00	-1.46757e-03	-1.48024e+00	
374	-1.62600e+00	-1.46667e-03	-1.47933e+00	
375	-1.62500e+00	-1.46577e-03	-1.47842e+00	
376	-1.62400e+00	-1.46486e-03	-1.47751e+00	
377	-1.62300e+00	-1.46396e-03	-1.47660e+00	
378	-1.62200e+00	-1.46306e-03	-1.47569e+00	
379	-1.62100e+00	-1.46216e-03	-1.47478e+00	
380	-1.62000e+00	-1.46126e-03	-1.47387e+00	
381	-1.61900e+00	-1.46036e-03	-1.47296e+00	
382	-1.61800e+00	-1.45946e-03	-1.47205e+00	
383	-1.61700e+00	-1.45856e-03	-1.47114e+00	
384	-1.61600e+00	-1.45766e-03	-1.47023e+00	
385	-1.61500e+00	-1.45676e-03	-1.46932e+00	
386	-1.61400e+00	-1.45586e-03	-1.46841e+00	
387	-1.61300e+00	-1.45495e-03	-1.46750e+00	
388	-1.61200e+00	-1.45405e-03	-1.46659e+00	
389	-1.61100e+00	-1.45315e-03	-1.46568e+00	
390	-1.61000e+00	-1.45225e-03	-1.46477e+00	
391	-1.60900e+00	-1.45135e-03	-1.46386e+00	
392	-1.60800e+00	-1.45045e-03	-1.46295e+00	
393	-1.60700e+00	-1.44955e-03	-1.46205e+00	
394	-1.60600e+00	-1.44865e-03	-1.46114e+00	
395	-1.60500e+00	-1.44775e-03	-1.46023e+00	
396	-1.60400e+00	-1.44685e-03	-1.45932e+00	
397	-1.60300e+00	-1.44595e-03	-1.45841e+00	
398	-1.60200e+00	-1.44504e-03	-1.45750e+00	
399	-1.60100e+00	-1.44414e-03	-1.45659e+00	
400	-1.60000e+00	-1.44324e-03	-1.45568e+00	
401	-1.59900e+00	-1.44234e-03	-1.45477e+00	
402	-1.59800e+00	-1.44144e-03	-1.45386e+00	

Index   v-sweep         i(vd)           v(3)            
--------------------------------------------------------------------------------
403	-1.59700e+00	-1.44054e-03	-1.45295e+00	
404	-1.59600e+00	-1.43964e-03	-1.45204e+00	
405	-1.59500e+00	-1.43874e-03	-1.45113e+00	
406	-1.59400e+00	-1.43784e-03	-1.45022e+00	
407	-1.59300e+00	-1.43694e-03	-1.44931e+00	
408	-1.59200e+00	-1.43604e-03	-1.44840e+00	
409	-1.59100e+00	-1.43514e-03	-1.44749e+00	
410	-1.59000e+00	-1.43423e-03	-1.44658e+00	
411	-1.58900e+00	-1.43333e-03	-1.44567e+00	
412	-1.58800e+00	-1.43243e-03	-1.44476e+00	
413	-1.58700e+00	-1.43153e-03	-1.44385e+00	
414	-1.58600e+00	-1.43063e-03	-1.44294e+00	
415	-1.58500e+00	-1.42973e-03	-1.44203e+00	
416	-1.58400e+00	-1.42883e-03	-1.44112e+00	
417	-1.58300e+00	-1.42793e-03	-1.44021e+00	
418	-1.58200e+00	-1.42703e-03	-1.43930e+00	
419	-1.58100e+00	-1.42613e-03	-1.43839e+00	
420	-1.58000e+00	-1.42523e-03	-1.43748e+00	
421	-1.57900e+00	-1.42432e-03	-1.43657e+00	
422	-1.57800e+00	-1.42342e-03	-1.43566e+00	
423	-1.57700e+00	-1.42252e-03	-1.43475e+00	
424	-1.57600e+00	-1.42162e-03	-1.43384e+00	
425	-1.57500e+00	-1.42072e-03	-1.43293e+00	
