     i-v characteristic of solar cell for different levels of illumination
     DC transfer characteristic  Thu Sep 22 22:26:37  2022
--------------------------------------------------------------------------------
Index   v-sweep         i(vd)           v(3)            
--------------------------------------------------------------------------------
0	-2.00000e+00	-1.08126e-02	-9.18739e-01	
1	-1.99900e+00	-1.08117e-02	-9.17829e-01	
2	-1.99800e+00	-1.08108e-02	-9.16919e-01	
3	-1.99700e+00	-1.08099e-02	-9.16009e-01	
4	-1.99600e+00	-1.08090e-02	-9.15099e-01	
5	-1.99500e+00	-1.08081e-02	-9.14189e-01	
6	-1.99400e+00	-1.08072e-02	-9.13279e-01	
7	-1.99300e+00	-1.08063e-02	-9.12369e-01	
8	-1.99200e+00	-1.08054e-02	-9.11460e-01	
9	-1.99100e+00	-1.08045e-02	-9.10550e-01	
10	-1.99000e+00	-1.08036e-02	-9.09640e-01	
11	-1.98900e+00	-1.08027e-02	-9.08730e-01	
12	-1.98800e+00	-1.08018e-02	-9.07820e-01	
13	-1.98700e+00	-1.08009e-02	-9.06910e-01	
14	-1.98600e+00	-1.08000e-02	-9.06000e-01	
15	-1.98500e+00	-1.07991e-02	-9.05090e-01	
16	-1.98400e+00	-1.07982e-02	-9.04180e-01	
17	-1.98300e+00	-1.07973e-02	-9.03270e-01	
18	-1.98200e+00	-1.07964e-02	-9.02360e-01	
19	-1.98100e+00	-1.07955e-02	-9.01451e-01	
20	-1.98000e+00	-1.07946e-02	-9.00541e-01	
21	-1.97900e+00	-1.07937e-02	-8.99631e-01	
22	-1.97800e+00	-1.07928e-02	-8.98721e-01	
23	-1.97700e+00	-1.07919e-02	-8.97811e-01	
24	-1.97600e+00	-1.07910e-02	-8.96901e-01	
25	-1.97500e+00	-1.07901e-02	-8.95991e-01	
26	-1.97400e+00	-1.07892e-02	-8.95081e-01	
27	-1.97300e+00	-1.07883e-02	-8.94171e-01	
28	-1.97200e+00	-1.07874e-02	-8.93261e-01	
29	-1.97100e+00	-1.07865e-02	-8.92351e-01	
30	-1.97000e+00	-1.07856e-02	-8.91442e-01	
31	-1.96900e+00	-1.07847e-02	-8.90532e-01	
32	-1.96800e+00	-1.07838e-02	-8.89622e-01	
33	-1.96700e+00	-1.07829e-02	-8.88712e-01	
34	-1.96600e+00	-1.07820e-02	-8.87802e-01	
35	-1.96500e+00	-1.07811e-02	-8.86892e-01	
36	-1.96400e+00	-1.07802e-02	-8.85982e-01	
37	-1.96300e+00	-1.07793e-02	-8.85072e-01	
38	-1.96200e+00	-1.07784e-02	-8.84162e-01	
39	-1.96100e+00	-1.07775e-02	-8.83252e-01	
40	-1.96000e+00	-1.07766e-02	-8.82342e-01	
41	-1.95900e+00	-1.07757e-02	-8.81433e-01	
42	-1.95800e+00	-1.07748e-02	-8.80523e-01	
43	-1.95700e+00	-1.07739e-02	-8.79613e-01	
44	-1.95600e+00	-1.07730e-02	-8.78703e-01	
45	-1.95500e+00	-1.07721e-02	-8.77793e-01	
46	-1.95400e+00	-1.07712e-02	-8.76883e-01	
47	-1.95300e+00	-1.07703e-02	-8.75973e-01	
48	-1.95200e+00	-1.07694e-02	-8.75063e-01	
49	-1.95100e+00	-1.07685e-02	-8.74153e-01	
50	-1.95000e+00	-1.07676e-02	-8.73243e-01	
51	-1.94900e+00	-1.07667e-02	-8.72333e-01	
52	-1.94800e+00	-1.07658e-02	-8.71423e-01	
53	-1.94700e+00	-1.07649e-02	-8.70514e-01	
54	-1.94600e+00	-1.07640e-02	-8.69604e-01	

Index   v-sweep         i(vd)           v(3)            
--------------------------------------------------------------------------------
55	-1.94500e+00	-1.07631e-02	-8.68694e-01	
56	-1.94400e+00	-1.07622e-02	-8.67784e-01	
57	-1.94300e+00	-1.07613e-02	-8.66874e-01	
58	-1.94200e+00	-1.07604e-02	-8.65964e-01	
59	-1.94100e+00	-1.07595e-02	-8.65054e-01	
60	-1.94000e+00	-1.07586e-02	-8.64144e-01	
61	-1.93900e+00	-1.07577e-02	-8.63234e-01	
62	-1.93800e+00	-1.07568e-02	-8.62324e-01	
63	-1.93700e+00	-1.07559e-02	-8.61414e-01	
64	-1.93600e+00	-1.07550e-02	-8.60505e-01	
65	-1.93500e+00	-1.07541e-02	-8.59595e-01	
66	-1.93400e+00	-1.07532e-02	-8.58685e-01	
67	-1.93300e+00	-1.07523e-02	-8.57775e-01	
68	-1.93200e+00	-1.07514e-02	-8.56865e-01	
69	-1.93100e+00	-1.07504e-02	-8.55955e-01	
70	-1.93000e+00	-1.07495e-02	-8.55045e-01	
71	-1.92900e+00	-1.07486e-02	-8.54135e-01	
72	-1.92800e+00	-1.07477e-02	-8.53225e-01	
73	-1.92700e+00	-1.07468e-02	-8.52315e-01	
74	-1.92600e+00	-1.07459e-02	-8.51405e-01	
75	-1.92500e+00	-1.07450e-02	-8.50496e-01	
76	-1.92400e+00	-1.07441e-02	-8.49586e-01	
77	-1.92300e+00	-1.07432e-02	-8.48676e-01	
78	-1.92200e+00	-1.07423e-02	-8.47766e-01	
79	-1.92100e+00	-1.07414e-02	-8.46856e-01	
80	-1.92000e+00	-1.07405e-02	-8.45946e-01	
81	-1.91900e+00	-1.07396e-02	-8.45036e-01	
82	-1.91800e+00	-1.07387e-02	-8.44126e-01	
83	-1.91700e+00	-1.07378e-02	-8.43216e-01	
84	-1.91600e+00	-1.07369e-02	-8.42306e-01	
85	-1.91500e+00	-1.07360e-02	-8.41396e-01	
86	-1.91400e+00	-1.07351e-02	-8.40487e-01	
87	-1.91300e+00	-1.07342e-02	-8.39577e-01	
88	-1.91200e+00	-1.07333e-02	-8.38667e-01	
89	-1.91100e+00	-1.07324e-02	-8.37757e-01	
90	-1.91000e+00	-1.07315e-02	-8.36847e-01	
91	-1.90900e+00	-1.07306e-02	-8.35937e-01	
92	-1.90800e+00	-1.07297e-02	-8.35027e-01	
93	-1.90700e+00	-1.07288e-02	-8.34117e-01	
94	-1.90600e+00	-1.07279e-02	-8.33207e-01	
95	-1.90500e+00	-1.07270e-02	-8.32297e-01	
96	-1.90400e+00	-1.07261e-02	-8.31387e-01	
97	-1.90300e+00	-1.07252e-02	-8.30478e-01	
98	-1.90200e+00	-1.07243e-02	-8.29568e-01	
99	-1.90100e+00	-1.07234e-02	-8.28658e-01	
100	-1.90000e+00	-1.07225e-02	-8.27748e-01	
101	-1.89900e+00	-1.07216e-02	-8.26838e-01	
102	-1.89800e+00	-1.07207e-02	-8.25928e-01	
103	-1.89700e+00	-1.07198e-02	-8.25018e-01	
104	-1.89600e+00	-1.07189e-02	-8.24108e-01	
105	-1.89500e+00	-1.07180e-02	-8.23198e-01	
106	-1.89400e+00	-1.07171e-02	-8.22288e-01	
107	-1.89300e+00	-1.07162e-02	-8.21378e-01	
108	-1.89200e+00	-1.07153e-02	-8.20469e-01	
109	-1.89100e+00	-1.07144e-02	-8.19559e-01	
110	-1.89000e+00	-1.07135e-02	-8.18649e-01	
111	-1.88900e+00	-1.07126e-02	-8.17739e-01	
112	-1.88800e+00	-1.07117e-02	-8.16829e-01	

Index   v-sweep         i(vd)           v(3)            
--------------------------------------------------------------------------------
113	-1.88700e+00	-1.07108e-02	-8.15919e-01	
114	-1.88600e+00	-1.07099e-02	-8.15009e-01	
115	-1.88500e+00	-1.07090e-02	-8.14099e-01	
116	-1.88400e+00	-1.07081e-02	-8.13189e-01	
117	-1.88300e+00	-1.07072e-02	-8.12279e-01	
118	-1.88200e+00	-1.07063e-02	-8.11369e-01	
119	-1.88100e+00	-1.07054e-02	-8.10460e-01	
120	-1.88000e+00	-1.07045e-02	-8.09550e-01	
121	-1.87900e+00	-1.07036e-02	-8.08640e-01	
122	-1.87800e+00	-1.07027e-02	-8.07730e-01	
123	-1.87700e+00	-1.07018e-02	-8.06820e-01	
124	-1.87600e+00	-1.07009e-02	-8.05910e-01	
125	-1.87500e+00	-1.07000e-02	-8.05000e-01	
126	-1.87400e+00	-1.06991e-02	-8.04090e-01	
127	-1.87300e+00	-1.06982e-02	-8.03180e-01	
128	-1.87200e+00	-1.06973e-02	-8.02270e-01	
129	-1.87100e+00	-1.06964e-02	-8.01360e-01	
130	-1.87000e+00	-1.06955e-02	-8.00451e-01	
131	-1.86900e+00	-1.06946e-02	-7.99541e-01	
132	-1.86800e+00	-1.06937e-02	-7.98631e-01	
133	-1.86700e+00	-1.06928e-02	-7.97721e-01	
134	-1.86600e+00	-1.06919e-02	-7.96811e-01	
135	-1.86500e+00	-1.06910e-02	-7.95901e-01	
136	-1.86400e+00	-1.06901e-02	-7.94991e-01	
137	-1.86300e+00	-1.06892e-02	-7.94081e-01	
138	-1.86200e+00	-1.06883e-02	-7.93171e-01	
139	-1.86100e+00	-1.06874e-02	-7.92261e-01	
140	-1.86000e+00	-1.06865e-02	-7.91351e-01	
141	-1.85900e+00	-1.06856e-02	-7.90442e-01	
142	-1.85800e+00	-1.06847e-02	-7.89532e-01	
143	-1.85700e+00	-1.06838e-02	-7.88622e-01	
144	-1.85600e+00	-1.06829e-02	-7.87712e-01	
145	-1.85500e+00	-1.06820e-02	-7.86802e-01	
146	-1.85400e+00	-1.06811e-02	-7.85892e-01	
147	-1.85300e+00	-1.06802e-02	-7.84982e-01	
148	-1.85200e+00	-1.06793e-02	-7.84072e-01	
149	-1.85100e+00	-1.06784e-02	-7.83162e-01	
150	-1.85000e+00	-1.06775e-02	-7.82252e-01	
151	-1.84900e+00	-1.06766e-02	-7.81342e-01	
152	-1.84800e+00	-1.06757e-02	-7.80433e-01	
153	-1.84700e+00	-1.06748e-02	-7.79523e-01	
154	-1.84600e+00	-1.06739e-02	-7.78613e-01	
155	-1.84500e+00	-1.06730e-02	-7.77703e-01	
156	-1.84400e+00	-1.06721e-02	-7.76793e-01	
157	-1.84300e+00	-1.06712e-02	-7.75883e-01	
158	-1.84200e+00	-1.06703e-02	-7.74973e-01	
159	-1.84100e+00	-1.06694e-02	-7.74063e-01	
160	-1.84000e+00	-1.06685e-02	-7.73153e-01	
161	-1.83900e+00	-1.06676e-02	-7.72243e-01	
162	-1.83800e+00	-1.06667e-02	-7.71333e-01	
163	-1.83700e+00	-1.06658e-02	-7.70424e-01	
164	-1.83600e+00	-1.06649e-02	-7.69514e-01	
165	-1.83500e+00	-1.06640e-02	-7.68604e-01	
166	-1.83400e+00	-1.06631e-02	-7.67694e-01	
167	-1.83300e+00	-1.06622e-02	-7.66784e-01	
168	-1.83200e+00	-1.06613e-02	-7.65874e-01	
169	-1.83100e+00	-1.06604e-02	-7.64964e-01	
170	-1.83000e+00	-1.06595e-02	-7.64054e-01	

Index   v-sweep         i(vd)           v(3)            
--------------------------------------------------------------------------------
171	-1.82900e+00	-1.06586e-02	-7.63144e-01	
172	-1.82800e+00	-1.06577e-02	-7.62234e-01	
173	-1.82700e+00	-1.06568e-02	-7.61324e-01	
174	-1.82600e+00	-1.06559e-02	-7.60415e-01	
175	-1.82500e+00	-1.06550e-02	-7.59505e-01	
176	-1.82400e+00	-1.06541e-02	-7.58595e-01	
177	-1.82300e+00	-1.06532e-02	-7.57685e-01	
178	-1.82200e+00	-1.06523e-02	-7.56775e-01	
179	-1.82100e+00	-1.06514e-02	-7.55865e-01	
180	-1.82000e+00	-1.06504e-02	-7.54955e-01	
181	-1.81900e+00	-1.06495e-02	-7.54045e-01	
182	-1.81800e+00	-1.06486e-02	-7.53135e-01	
183	-1.81700e+00	-1.06477e-02	-7.52225e-01	
184	-1.81600e+00	-1.06468e-02	-7.51315e-01	
185	-1.81500e+00	-1.06459e-02	-7.50406e-01	
186	-1.81400e+00	-1.06450e-02	-7.49496e-01	
187	-1.81300e+00	-1.06441e-02	-7.48586e-01	
188	-1.81200e+00	-1.06432e-02	-7.47676e-01	
189	-1.81100e+00	-1.06423e-02	-7.46766e-01	
190	-1.81000e+00	-1.06414e-02	-7.45856e-01	
191	-1.80900e+00	-1.06405e-02	-7.44946e-01	
192	-1.80800e+00	-1.06396e-02	-7.44036e-01	
193	-1.80700e+00	-1.06387e-02	-7.43126e-01	
194	-1.80600e+00	-1.06378e-02	-7.42216e-01	
195	-1.80500e+00	-1.06369e-02	-7.41306e-01	
196	-1.80400e+00	-1.06360e-02	-7.40397e-01	
197	-1.80300e+00	-1.06351e-02	-7.39487e-01	
198	-1.80200e+00	-1.06342e-02	-7.38577e-01	
199	-1.80100e+00	-1.06333e-02	-7.37667e-01	
200	-1.80000e+00	-1.06324e-02	-7.36757e-01	
201	-1.79900e+00	-1.06315e-02	-7.35847e-01	
202	-1.79800e+00	-1.06306e-02	-7.34937e-01	
203	-1.79700e+00	-1.06297e-02	-7.34027e-01	
204	-1.79600e+00	-1.06288e-02	-7.33117e-01	
205	-1.79500e+00	-1.06279e-02	-7.32207e-01	
206	-1.79400e+00	-1.06270e-02	-7.31297e-01	
207	-1.79300e+00	-1.06261e-02	-7.30388e-01	
208	-1.79200e+00	-1.06252e-02	-7.29478e-01	
209	-1.79100e+00	-1.06243e-02	-7.28568e-01	
210	-1.79000e+00	-1.06234e-02	-7.27658e-01	
211	-1.78900e+00	-1.06225e-02	-7.26748e-01	
212	-1.78800e+00	-1.06216e-02	-7.25838e-01	
213	-1.78700e+00	-1.06207e-02	-7.24928e-01	
214	-1.78600e+00	-1.06198e-02	-7.24018e-01	
215	-1.78500e+00	-1.06189e-02	-7.23108e-01	
216	-1.78400e+00	-1.06180e-02	-7.22198e-01	
217	-1.78300e+00	-1.06171e-02	-7.21288e-01	
218	-1.78200e+00	-1.06162e-02	-7.20379e-01	
219	-1.78100e+00	-1.06153e-02	-7.19469e-01	
220	-1.78000e+00	-1.06144e-02	-7.18559e-01	
221	-1.77900e+00	-1.06135e-02	-7.17649e-01	
222	-1.77800e+00	-1.06126e-02	-7.16739e-01	
223	-1.77700e+00	-1.06117e-02	-7.15829e-01	
224	-1.77600e+00	-1.06108e-02	-7.14919e-01	
225	-1.77500e+00	-1.06099e-02	-7.14009e-01	
226	-1.77400e+00	-1.06090e-02	-7.13099e-01	
227	-1.77300e+00	-1.06081e-02	-7.12189e-01	
228	-1.77200e+00	-1.06072e-02	-7.11279e-01	

Index   v-sweep         i(vd)           v(3)            
--------------------------------------------------------------------------------
229	-1.77100e+00	-1.06063e-02	-7.10370e-01	
230	-1.77000e+00	-1.06054e-02	-7.09460e-01	
231	-1.76900e+00	-1.06045e-02	-7.08550e-01	
232	-1.76800e+00	-1.06036e-02	-7.07640e-01	
233	-1.76700e+00	-1.06027e-02	-7.06730e-01	
234	-1.76600e+00	-1.06018e-02	-7.05820e-01	
235	-1.76500e+00	-1.06009e-02	-7.04910e-01	
236	-1.76400e+00	-1.06000e-02	-7.04000e-01	
237	-1.76300e+00	-1.05991e-02	-7.03090e-01	
238	-1.76200e+00	-1.05982e-02	-7.02180e-01	
239	-1.76100e+00	-1.05973e-02	-7.01270e-01	
240	-1.76000e+00	-1.05964e-02	-7.00361e-01	
241	-1.75900e+00	-1.05955e-02	-6.99451e-01	
242	-1.75800e+00	-1.05946e-02	-6.98541e-01	
243	-1.75700e+00	-1.05937e-02	-6.97631e-01	
244	-1.75600e+00	-1.05928e-02	-6.96721e-01	
245	-1.75500e+00	-1.05919e-02	-6.95811e-01	
246	-1.75400e+00	-1.05910e-02	-6.94901e-01	
247	-1.75300e+00	-1.05901e-02	-6.93991e-01	
248	-1.75200e+00	-1.05892e-02	-6.93081e-01	
249	-1.75100e+00	-1.05883e-02	-6.92171e-01	
250	-1.75000e+00	-1.05874e-02	-6.91261e-01	
251	-1.74900e+00	-1.05865e-02	-6.90352e-01	
252	-1.74800e+00	-1.05856e-02	-6.89442e-01	
253	-1.74700e+00	-1.05847e-02	-6.88532e-01	
254	-1.74600e+00	-1.05838e-02	-6.87622e-01	
255	-1.74500e+00	-1.05829e-02	-6.86712e-01	
256	-1.74400e+00	-1.05820e-02	-6.85802e-01	
257	-1.74300e+00	-1.05811e-02	-6.84892e-01	
258	-1.74200e+00	-1.05802e-02	-6.83982e-01	
259	-1.74100e+00	-1.05793e-02	-6.83072e-01	
260	-1.74000e+00	-1.05784e-02	-6.82162e-01	
261	-1.73900e+00	-1.05775e-02	-6.81252e-01	
262	-1.73800e+00	-1.05766e-02	-6.80343e-01	
263	-1.73700e+00	-1.05757e-02	-6.79433e-01	
264	-1.73600e+00	-1.05748e-02	-6.78523e-01	
265	-1.73500e+00	-1.05739e-02	-6.77613e-01	
266	-1.73400e+00	-1.05730e-02	-6.76703e-01	
267	-1.73300e+00	-1.05721e-02	-6.75793e-01	
268	-1.73200e+00	-1.05712e-02	-6.74883e-01	
269	-1.73100e+00	-1.05703e-02	-6.73973e-01	
270	-1.73000e+00	-1.05694e-02	-6.73063e-01	
271	-1.72900e+00	-1.05685e-02	-6.72153e-01	
272	-1.72800e+00	-1.05676e-02	-6.71243e-01	
273	-1.72700e+00	-1.05667e-02	-6.70334e-01	
274	-1.72600e+00	-1.05658e-02	-6.69424e-01	
275	-1.72500e+00	-1.05649e-02	-6.68514e-01	
276	-1.72400e+00	-1.05640e-02	-6.67604e-01	
277	-1.72300e+00	-1.05631e-02	-6.66694e-01	
278	-1.72200e+00	-1.05622e-02	-6.65784e-01	
279	-1.72100e+00	-1.05613e-02	-6.64874e-01	
280	-1.72000e+00	-1.05604e-02	-6.63964e-01	
281	-1.71900e+00	-1.05595e-02	-6.63054e-01	
282	-1.71800e+00	-1.05586e-02	-6.62144e-01	
283	-1.71700e+00	-1.05577e-02	-6.61234e-01	
284	-1.71600e+00	-1.05568e-02	-6.60325e-01	
285	-1.71500e+00	-1.05559e-02	-6.59415e-01	
286	-1.71400e+00	-1.05550e-02	-6.58505e-01	

Index   v-sweep         i(vd)           v(3)            
--------------------------------------------------------------------------------
287	-1.71300e+00	-1.05541e-02	-6.57595e-01	
288	-1.71200e+00	-1.05532e-02	-6.56685e-01	
289	-1.71100e+00	-1.05523e-02	-6.55775e-01	
290	-1.71000e+00	-1.05513e-02	-6.54865e-01	
291	-1.70900e+00	-1.05504e-02	-6.53955e-01	
292	-1.70800e+00	-1.05495e-02	-6.53045e-01	
293	-1.70700e+00	-1.05486e-02	-6.52135e-01	
294	-1.70600e+00	-1.05477e-02	-6.51225e-01	
295	-1.70500e+00	-1.05468e-02	-6.50316e-01	
296	-1.70400e+00	-1.05459e-02	-6.49406e-01	
297	-1.70300e+00	-1.05450e-02	-6.48496e-01	
298	-1.70200e+00	-1.05441e-02	-6.47586e-01	
299	-1.70100e+00	-1.05432e-02	-6.46676e-01	
300	-1.70000e+00	-1.05423e-02	-6.45766e-01	
301	-1.69900e+00	-1.05414e-02	-6.44856e-01	
302	-1.69800e+00	-1.05405e-02	-6.43946e-01	
303	-1.69700e+00	-1.05396e-02	-6.43036e-01	
304	-1.69600e+00	-1.05387e-02	-6.42126e-01	
305	-1.69500e+00	-1.05378e-02	-6.41216e-01	
306	-1.69400e+00	-1.05369e-02	-6.40307e-01	
307	-1.69300e+00	-1.05360e-02	-6.39397e-01	
308	-1.69200e+00	-1.05351e-02	-6.38487e-01	
309	-1.69100e+00	-1.05342e-02	-6.37577e-01	
310	-1.69000e+00	-1.05333e-02	-6.36667e-01	
311	-1.68900e+00	-1.05324e-02	-6.35757e-01	
312	-1.68800e+00	-1.05315e-02	-6.34847e-01	
313	-1.68700e+00	-1.05306e-02	-6.33937e-01	
314	-1.68600e+00	-1.05297e-02	-6.33027e-01	
315	-1.68500e+00	-1.05288e-02	-6.32117e-01	
316	-1.68400e+00	-1.05279e-02	-6.31207e-01	
317	-1.68300e+00	-1.05270e-02	-6.30298e-01	
318	-1.68200e+00	-1.05261e-02	-6.29388e-01	
319	-1.68100e+00	-1.05252e-02	-6.28478e-01	
320	-1.68000e+00	-1.05243e-02	-6.27568e-01	
321	-1.67900e+00	-1.05234e-02	-6.26658e-01	
322	-1.67800e+00	-1.05225e-02	-6.25748e-01	
323	-1.67700e+00	-1.05216e-02	-6.24838e-01	
324	-1.67600e+00	-1.05207e-02	-6.23928e-01	
325	-1.67500e+00	-1.05198e-02	-6.23018e-01	
326	-1.67400e+00	-1.05189e-02	-6.22108e-01	
327	-1.67300e+00	-1.05180e-02	-6.21198e-01	
328	-1.67200e+00	-1.05171e-02	-6.20289e-01	
329	-1.67100e+00	-1.05162e-02	-6.19379e-01	
330	-1.67000e+00	-1.05153e-02	-6.18469e-01	
331	-1.66900e+00	-1.05144e-02	-6.17559e-01	
332	-1.66800e+00	-1.05135e-02	-6.16649e-01	
333	-1.66700e+00	-1.05126e-02	-6.15739e-01	
334	-1.66600e+00	-1.05117e-02	-6.14829e-01	
335	-1.66500e+00	-1.05108e-02	-6.13919e-01	
336	-1.66400e+00	-1.05099e-02	-6.13009e-01	
337	-1.66300e+00	-1.05090e-02	-6.12099e-01	
338	-1.66200e+00	-1.05081e-02	-6.11189e-01	
339	-1.66100e+00	-1.05072e-02	-6.10280e-01	
340	-1.66000e+00	-1.05063e-02	-6.09370e-01	
341	-1.65900e+00	-1.05054e-02	-6.08460e-01	
342	-1.65800e+00	-1.05045e-02	-6.07550e-01	
343	-1.65700e+00	-1.05036e-02	-6.06640e-01	
344	-1.65600e+00	-1.05027e-02	-6.05730e-01	

Index   v-sweep         i(vd)           v(3)            
--------------------------------------------------------------------------------
345	-1.65500e+00	-1.05018e-02	-6.04820e-01	
346	-1.65400e+00	-1.05009e-02	-6.03910e-01	
347	-1.65300e+00	-1.05000e-02	-6.03000e-01	
348	-1.65200e+00	-1.04991e-02	-6.02090e-01	
349	-1.65100e+00	-1.04982e-02	-6.01180e-01	
350	-1.65000e+00	-1.04973e-02	-6.00271e-01	
351	-1.64900e+00	-1.04964e-02	-5.99361e-01	
352	-1.64800e+00	-1.04955e-02	-5.98451e-01	
353	-1.64700e+00	-1.04946e-02	-5.97541e-01	
354	-1.64600e+00	-1.04937e-02	-5.96631e-01	
355	-1.64500e+00	-1.04928e-02	-5.95721e-01	
356	-1.64400e+00	-1.04919e-02	-5.94811e-01	
357	-1.64300e+00	-1.04910e-02	-5.93901e-01	
358	-1.64200e+00	-1.04901e-02	-5.92991e-01	
359	-1.64100e+00	-1.04892e-02	-5.92081e-01	
360	-1.64000e+00	-1.04883e-02	-5.91171e-01	
361	-1.63900e+00	-1.04874e-02	-5.90262e-01	
362	-1.63800e+00	-1.04865e-02	-5.89352e-01	
363	-1.63700e+00	-1.04856e-02	-5.88442e-01	
364	-1.63600e+00	-1.04847e-02	-5.87532e-01	
365	-1.63500e+00	-1.04838e-02	-5.86622e-01	
366	-1.63400e+00	-1.04829e-02	-5.85712e-01	
367	-1.63300e+00	-1.04820e-02	-5.84802e-01	
368	-1.63200e+00	-1.04811e-02	-5.83892e-01	
369	-1.63100e+00	-1.04802e-02	-5.82982e-01	
370	-1.63000e+00	-1.04793e-02	-5.82072e-01	
371	-1.62900e+00	-1.04784e-02	-5.81162e-01	
372	-1.62800e+00	-1.04775e-02	-5.80253e-01	
373	-1.62700e+00	-1.04766e-02	-5.79343e-01	
374	-1.62600e+00	-1.04757e-02	-5.78433e-01	
375	-1.62500e+00	-1.04748e-02	-5.77523e-01	
376	-1.62400e+00	-1.04739e-02	-5.76613e-01	
377	-1.62300e+00	-1.04730e-02	-5.75703e-01	
378	-1.62200e+00	-1.04721e-02	-5.74793e-01	
379	-1.62100e+00	-1.04712e-02	-5.73883e-01	
380	-1.62000e+00	-1.04703e-02	-5.72973e-01	
381	-1.61900e+00	-1.04694e-02	-5.72063e-01	
382	-1.61800e+00	-1.04685e-02	-5.71153e-01	
383	-1.61700e+00	-1.04676e-02	-5.70244e-01	
384	-1.61600e+00	-1.04667e-02	-5.69334e-01	
385	-1.61500e+00	-1.04658e-02	-5.68424e-01	
386	-1.61400e+00	-1.04649e-02	-5.67514e-01	
387	-1.61300e+00	-1.04640e-02	-5.66604e-01	
388	-1.61200e+00	-1.04631e-02	-5.65694e-01	
389	-1.61100e+00	-1.04622e-02	-5.64784e-01	
390	-1.61000e+00	-1.04613e-02	-5.63874e-01	
391	-1.60900e+00	-1.04604e-02	-5.62964e-01	
392	-1.60800e+00	-1.04595e-02	-5.62054e-01	
393	-1.60700e+00	-1.04586e-02	-5.61144e-01	
394	-1.60600e+00	-1.04577e-02	-5.60235e-01	
395	-1.60500e+00	-1.04568e-02	-5.59325e-01	
396	-1.60400e+00	-1.04559e-02	-5.58415e-01	
397	-1.60300e+00	-1.04550e-02	-5.57505e-01	
398	-1.60200e+00	-1.04541e-02	-5.56595e-01	
399	-1.60100e+00	-1.04531e-02	-5.55685e-01	
400	-1.60000e+00	-1.04522e-02	-5.54775e-01	
401	-1.59900e+00	-1.04513e-02	-5.53865e-01	
402	-1.59800e+00	-1.04504e-02	-5.52955e-01	

Index   v-sweep         i(vd)           v(3)            
--------------------------------------------------------------------------------
403	-1.59700e+00	-1.04495e-02	-5.52045e-01	
404	-1.59600e+00	-1.04486e-02	-5.51136e-01	
405	-1.59500e+00	-1.04477e-02	-5.50226e-01	
406	-1.59400e+00	-1.04468e-02	-5.49316e-01	
407	-1.59300e+00	-1.04459e-02	-5.48406e-01	
408	-1.59200e+00	-1.04450e-02	-5.47496e-01	
409	-1.59100e+00	-1.04441e-02	-5.46586e-01	
410	-1.59000e+00	-1.04432e-02	-5.45676e-01	
411	-1.58900e+00	-1.04423e-02	-5.44766e-01	
412	-1.58800e+00	-1.04414e-02	-5.43856e-01	
413	-1.58700e+00	-1.04405e-02	-5.42946e-01	
414	-1.58600e+00	-1.04396e-02	-5.42036e-01	
415	-1.58500e+00	-1.04387e-02	-5.41127e-01	
416	-1.58400e+00	-1.04378e-02	-5.40217e-01	
417	-1.58300e+00	-1.04369e-02	-5.39307e-01	
418	-1.58200e+00	-1.04360e-02	-5.38397e-01	
419	-1.58100e+00	-1.04351e-02	-5.37487e-01	
420	-1.58000e+00	-1.04342e-02	-5.36577e-01	
421	-1.57900e+00	-1.04333e-02	-5.35667e-01	
422	-1.57800e+00	-1.04324e-02	-5.34757e-01	
423	-1.57700e+00	-1.04315e-02	-5.33847e-01	
424	-1.57600e+00	-1.04306e-02	-5.32937e-01	
425	-1.57500e+00	-1.04297e-02	-5.32027e-01	
