     i-v characteristic of solar cell for different levels of illumination
     DC transfer characteristic  Thu Sep 22 22:25:41  2022
--------------------------------------------------------------------------------
Index   v-sweep         i(vd)           v(3)            
--------------------------------------------------------------------------------
0	-2.00000e+00	-9.01081e-03	-1.09892e+00	
1	-1.99900e+00	-9.00991e-03	-1.09801e+00	
2	-1.99800e+00	-9.00901e-03	-1.09710e+00	
3	-1.99700e+00	-9.00811e-03	-1.09619e+00	
4	-1.99600e+00	-9.00721e-03	-1.09528e+00	
5	-1.99500e+00	-9.00631e-03	-1.09437e+00	
6	-1.99400e+00	-9.00541e-03	-1.09346e+00	
7	-1.99300e+00	-9.00450e-03	-1.09255e+00	
8	-1.99200e+00	-9.00360e-03	-1.09164e+00	
9	-1.99100e+00	-9.00270e-03	-1.09073e+00	
10	-1.99000e+00	-9.00180e-03	-1.08982e+00	
11	-1.98900e+00	-9.00090e-03	-1.08891e+00	
12	-1.98800e+00	-9.00000e-03	-1.08800e+00	
13	-1.98700e+00	-8.99910e-03	-1.08709e+00	
14	-1.98600e+00	-8.99820e-03	-1.08618e+00	
15	-1.98500e+00	-8.99730e-03	-1.08527e+00	
16	-1.98400e+00	-8.99640e-03	-1.08436e+00	
17	-1.98300e+00	-8.99550e-03	-1.08345e+00	
18	-1.98200e+00	-8.99459e-03	-1.08254e+00	
19	-1.98100e+00	-8.99369e-03	-1.08163e+00	
20	-1.98000e+00	-8.99279e-03	-1.08072e+00	
21	-1.97900e+00	-8.99189e-03	-1.07981e+00	
22	-1.97800e+00	-8.99099e-03	-1.07890e+00	
23	-1.97700e+00	-8.99009e-03	-1.07799e+00	
24	-1.97600e+00	-8.98919e-03	-1.07708e+00	
25	-1.97500e+00	-8.98829e-03	-1.07617e+00	
26	-1.97400e+00	-8.98739e-03	-1.07526e+00	
27	-1.97300e+00	-8.98649e-03	-1.07435e+00	
28	-1.97200e+00	-8.98559e-03	-1.07344e+00	
29	-1.97100e+00	-8.98468e-03	-1.07253e+00	
30	-1.97000e+00	-8.98378e-03	-1.07162e+00	
31	-1.96900e+00	-8.98288e-03	-1.07071e+00	
32	-1.96800e+00	-8.98198e-03	-1.06980e+00	
33	-1.96700e+00	-8.98108e-03	-1.06889e+00	
34	-1.96600e+00	-8.98018e-03	-1.06798e+00	
35	-1.96500e+00	-8.97928e-03	-1.06707e+00	
36	-1.96400e+00	-8.97838e-03	-1.06616e+00	
37	-1.96300e+00	-8.97748e-03	-1.06525e+00	
38	-1.96200e+00	-8.97658e-03	-1.06434e+00	
39	-1.96100e+00	-8.97568e-03	-1.06343e+00	
40	-1.96000e+00	-8.97477e-03	-1.06252e+00	
41	-1.95900e+00	-8.97387e-03	-1.06161e+00	
42	-1.95800e+00	-8.97297e-03	-1.06070e+00	
43	-1.95700e+00	-8.97207e-03	-1.05979e+00	
44	-1.95600e+00	-8.97117e-03	-1.05888e+00	
45	-1.95500e+00	-8.97027e-03	-1.05797e+00	
46	-1.95400e+00	-8.96937e-03	-1.05706e+00	
47	-1.95300e+00	-8.96847e-03	-1.05615e+00	
48	-1.95200e+00	-8.96757e-03	-1.05524e+00	
49	-1.95100e+00	-8.96667e-03	-1.05433e+00	
50	-1.95000e+00	-8.96577e-03	-1.05342e+00	
51	-1.94900e+00	-8.96486e-03	-1.05251e+00	
52	-1.94800e+00	-8.96396e-03	-1.05160e+00	
53	-1.94700e+00	-8.96306e-03	-1.05069e+00	
54	-1.94600e+00	-8.96216e-03	-1.04978e+00	

Index   v-sweep         i(vd)           v(3)            
--------------------------------------------------------------------------------
55	-1.94500e+00	-8.96126e-03	-1.04887e+00	
56	-1.94400e+00	-8.96036e-03	-1.04796e+00	
57	-1.94300e+00	-8.95946e-03	-1.04705e+00	
58	-1.94200e+00	-8.95856e-03	-1.04614e+00	
59	-1.94100e+00	-8.95766e-03	-1.04523e+00	
60	-1.94000e+00	-8.95676e-03	-1.04432e+00	
61	-1.93900e+00	-8.95586e-03	-1.04341e+00	
62	-1.93800e+00	-8.95495e-03	-1.04250e+00	
63	-1.93700e+00	-8.95405e-03	-1.04159e+00	
64	-1.93600e+00	-8.95315e-03	-1.04068e+00	
65	-1.93500e+00	-8.95225e-03	-1.03977e+00	
66	-1.93400e+00	-8.95135e-03	-1.03886e+00	
67	-1.93300e+00	-8.95045e-03	-1.03795e+00	
68	-1.93200e+00	-8.94955e-03	-1.03705e+00	
69	-1.93100e+00	-8.94865e-03	-1.03614e+00	
70	-1.93000e+00	-8.94775e-03	-1.03523e+00	
71	-1.92900e+00	-8.94685e-03	-1.03432e+00	
72	-1.92800e+00	-8.94595e-03	-1.03341e+00	
73	-1.92700e+00	-8.94504e-03	-1.03250e+00	
74	-1.92600e+00	-8.94414e-03	-1.03159e+00	
75	-1.92500e+00	-8.94324e-03	-1.03068e+00	
76	-1.92400e+00	-8.94234e-03	-1.02977e+00	
77	-1.92300e+00	-8.94144e-03	-1.02886e+00	
78	-1.92200e+00	-8.94054e-03	-1.02795e+00	
79	-1.92100e+00	-8.93964e-03	-1.02704e+00	
80	-1.92000e+00	-8.93874e-03	-1.02613e+00	
81	-1.91900e+00	-8.93784e-03	-1.02522e+00	
82	-1.91800e+00	-8.93694e-03	-1.02431e+00	
83	-1.91700e+00	-8.93604e-03	-1.02340e+00	
84	-1.91600e+00	-8.93513e-03	-1.02249e+00	
85	-1.91500e+00	-8.93423e-03	-1.02158e+00	
86	-1.91400e+00	-8.93333e-03	-1.02067e+00	
87	-1.91300e+00	-8.93243e-03	-1.01976e+00	
88	-1.91200e+00	-8.93153e-03	-1.01885e+00	
89	-1.91100e+00	-8.93063e-03	-1.01794e+00	
90	-1.91000e+00	-8.92973e-03	-1.01703e+00	
91	-1.90900e+00	-8.92883e-03	-1.01612e+00	
92	-1.90800e+00	-8.92793e-03	-1.01521e+00	
93	-1.90700e+00	-8.92703e-03	-1.01430e+00	
94	-1.90600e+00	-8.92613e-03	-1.01339e+00	
95	-1.90500e+00	-8.92522e-03	-1.01248e+00	
96	-1.90400e+00	-8.92432e-03	-1.01157e+00	
97	-1.90300e+00	-8.92342e-03	-1.01066e+00	
98	-1.90200e+00	-8.92252e-03	-1.00975e+00	
99	-1.90100e+00	-8.92162e-03	-1.00884e+00	
100	-1.90000e+00	-8.92072e-03	-1.00793e+00	
101	-1.89900e+00	-8.91982e-03	-1.00702e+00	
102	-1.89800e+00	-8.91892e-03	-1.00611e+00	
103	-1.89700e+00	-8.91802e-03	-1.00520e+00	
104	-1.89600e+00	-8.91712e-03	-1.00429e+00	
105	-1.89500e+00	-8.91622e-03	-1.00338e+00	
106	-1.89400e+00	-8.91531e-03	-1.00247e+00	
107	-1.89300e+00	-8.91441e-03	-1.00156e+00	
108	-1.89200e+00	-8.91351e-03	-1.00065e+00	
109	-1.89100e+00	-8.91261e-03	-9.99739e-01	
110	-1.89000e+00	-8.91171e-03	-9.98829e-01	
111	-1.88900e+00	-8.91081e-03	-9.97919e-01	
112	-1.88800e+00	-8.90991e-03	-9.97009e-01	

Index   v-sweep         i(vd)           v(3)            
--------------------------------------------------------------------------------
113	-1.88700e+00	-8.90901e-03	-9.96099e-01	
114	-1.88600e+00	-8.90811e-03	-9.95189e-01	
115	-1.88500e+00	-8.90721e-03	-9.94279e-01	
116	-1.88400e+00	-8.90631e-03	-9.93369e-01	
117	-1.88300e+00	-8.90540e-03	-9.92460e-01	
118	-1.88200e+00	-8.90450e-03	-9.91550e-01	
119	-1.88100e+00	-8.90360e-03	-9.90640e-01	
120	-1.88000e+00	-8.90270e-03	-9.89730e-01	
121	-1.87900e+00	-8.90180e-03	-9.88820e-01	
122	-1.87800e+00	-8.90090e-03	-9.87910e-01	
123	-1.87700e+00	-8.90000e-03	-9.87000e-01	
124	-1.87600e+00	-8.89910e-03	-9.86090e-01	
125	-1.87500e+00	-8.89820e-03	-9.85180e-01	
126	-1.87400e+00	-8.89730e-03	-9.84270e-01	
127	-1.87300e+00	-8.89640e-03	-9.83360e-01	
128	-1.87200e+00	-8.89550e-03	-9.82450e-01	
129	-1.87100e+00	-8.89459e-03	-9.81541e-01	
130	-1.87000e+00	-8.89369e-03	-9.80631e-01	
131	-1.86900e+00	-8.89279e-03	-9.79721e-01	
132	-1.86800e+00	-8.89189e-03	-9.78811e-01	
133	-1.86700e+00	-8.89099e-03	-9.77901e-01	
134	-1.86600e+00	-8.89009e-03	-9.76991e-01	
135	-1.86500e+00	-8.88919e-03	-9.76081e-01	
136	-1.86400e+00	-8.88829e-03	-9.75171e-01	
137	-1.86300e+00	-8.88739e-03	-9.74261e-01	
138	-1.86200e+00	-8.88649e-03	-9.73351e-01	
139	-1.86100e+00	-8.88559e-03	-9.72441e-01	
140	-1.86000e+00	-8.88468e-03	-9.71532e-01	
141	-1.85900e+00	-8.88378e-03	-9.70622e-01	
142	-1.85800e+00	-8.88288e-03	-9.69712e-01	
143	-1.85700e+00	-8.88198e-03	-9.68802e-01	
144	-1.85600e+00	-8.88108e-03	-9.67892e-01	
145	-1.85500e+00	-8.88018e-03	-9.66982e-01	
146	-1.85400e+00	-8.87928e-03	-9.66072e-01	
147	-1.85300e+00	-8.87838e-03	-9.65162e-01	
148	-1.85200e+00	-8.87748e-03	-9.64252e-01	
149	-1.85100e+00	-8.87658e-03	-9.63342e-01	
150	-1.85000e+00	-8.87568e-03	-9.62432e-01	
151	-1.84900e+00	-8.87477e-03	-9.61523e-01	
152	-1.84800e+00	-8.87387e-03	-9.60613e-01	
153	-1.84700e+00	-8.87297e-03	-9.59703e-01	
154	-1.84600e+00	-8.87207e-03	-9.58793e-01	
155	-1.84500e+00	-8.87117e-03	-9.57883e-01	
156	-1.84400e+00	-8.87027e-03	-9.56973e-01	
157	-1.84300e+00	-8.86937e-03	-9.56063e-01	
158	-1.84200e+00	-8.86847e-03	-9.55153e-01	
159	-1.84100e+00	-8.86757e-03	-9.54243e-01	
160	-1.84000e+00	-8.86667e-03	-9.53333e-01	
161	-1.83900e+00	-8.86577e-03	-9.52423e-01	
162	-1.83800e+00	-8.86486e-03	-9.51514e-01	
163	-1.83700e+00	-8.86396e-03	-9.50604e-01	
164	-1.83600e+00	-8.86306e-03	-9.49694e-01	
165	-1.83500e+00	-8.86216e-03	-9.48784e-01	
166	-1.83400e+00	-8.86126e-03	-9.47874e-01	
167	-1.83300e+00	-8.86036e-03	-9.46964e-01	
168	-1.83200e+00	-8.85946e-03	-9.46054e-01	
169	-1.83100e+00	-8.85856e-03	-9.45144e-01	
170	-1.83000e+00	-8.85766e-03	-9.44234e-01	

Index   v-sweep         i(vd)           v(3)            
--------------------------------------------------------------------------------
171	-1.82900e+00	-8.85676e-03	-9.43324e-01	
172	-1.82800e+00	-8.85586e-03	-9.42414e-01	
173	-1.82700e+00	-8.85495e-03	-9.41505e-01	
174	-1.82600e+00	-8.85405e-03	-9.40595e-01	
175	-1.82500e+00	-8.85315e-03	-9.39685e-01	
176	-1.82400e+00	-8.85225e-03	-9.38775e-01	
177	-1.82300e+00	-8.85135e-03	-9.37865e-01	
178	-1.82200e+00	-8.85045e-03	-9.36955e-01	
179	-1.82100e+00	-8.84955e-03	-9.36045e-01	
180	-1.82000e+00	-8.84865e-03	-9.35135e-01	
181	-1.81900e+00	-8.84775e-03	-9.34225e-01	
182	-1.81800e+00	-8.84685e-03	-9.33315e-01	
183	-1.81700e+00	-8.84595e-03	-9.32405e-01	
184	-1.81600e+00	-8.84504e-03	-9.31496e-01	
185	-1.81500e+00	-8.84414e-03	-9.30586e-01	
186	-1.81400e+00	-8.84324e-03	-9.29676e-01	
187	-1.81300e+00	-8.84234e-03	-9.28766e-01	
188	-1.81200e+00	-8.84144e-03	-9.27856e-01	
189	-1.81100e+00	-8.84054e-03	-9.26946e-01	
190	-1.81000e+00	-8.83964e-03	-9.26036e-01	
191	-1.80900e+00	-8.83874e-03	-9.25126e-01	
192	-1.80800e+00	-8.83784e-03	-9.24216e-01	
193	-1.80700e+00	-8.83694e-03	-9.23306e-01	
194	-1.80600e+00	-8.83604e-03	-9.22396e-01	
195	-1.80500e+00	-8.83513e-03	-9.21487e-01	
196	-1.80400e+00	-8.83423e-03	-9.20577e-01	
197	-1.80300e+00	-8.83333e-03	-9.19667e-01	
198	-1.80200e+00	-8.83243e-03	-9.18757e-01	
199	-1.80100e+00	-8.83153e-03	-9.17847e-01	
200	-1.80000e+00	-8.83063e-03	-9.16937e-01	
201	-1.79900e+00	-8.82973e-03	-9.16027e-01	
202	-1.79800e+00	-8.82883e-03	-9.15117e-01	
203	-1.79700e+00	-8.82793e-03	-9.14207e-01	
204	-1.79600e+00	-8.82703e-03	-9.13297e-01	
205	-1.79500e+00	-8.82613e-03	-9.12387e-01	
206	-1.79400e+00	-8.82522e-03	-9.11478e-01	
207	-1.79300e+00	-8.82432e-03	-9.10568e-01	
208	-1.79200e+00	-8.82342e-03	-9.09658e-01	
209	-1.79100e+00	-8.82252e-03	-9.08748e-01	
210	-1.79000e+00	-8.82162e-03	-9.07838e-01	
211	-1.78900e+00	-8.82072e-03	-9.06928e-01	
212	-1.78800e+00	-8.81982e-03	-9.06018e-01	
213	-1.78700e+00	-8.81892e-03	-9.05108e-01	
214	-1.78600e+00	-8.81802e-03	-9.04198e-01	
215	-1.78500e+00	-8.81712e-03	-9.03288e-01	
216	-1.78400e+00	-8.81622e-03	-9.02378e-01	
217	-1.78300e+00	-8.81531e-03	-9.01469e-01	
218	-1.78200e+00	-8.81441e-03	-9.00559e-01	
219	-1.78100e+00	-8.81351e-03	-8.99649e-01	
220	-1.78000e+00	-8.81261e-03	-8.98739e-01	
221	-1.77900e+00	-8.81171e-03	-8.97829e-01	
222	-1.77800e+00	-8.81081e-03	-8.96919e-01	
223	-1.77700e+00	-8.80991e-03	-8.96009e-01	
224	-1.77600e+00	-8.80901e-03	-8.95099e-01	
225	-1.77500e+00	-8.80811e-03	-8.94189e-01	
226	-1.77400e+00	-8.80721e-03	-8.93279e-01	
227	-1.77300e+00	-8.80631e-03	-8.92369e-01	
228	-1.77200e+00	-8.80540e-03	-8.91460e-01	

Index   v-sweep         i(vd)           v(3)            
--------------------------------------------------------------------------------
229	-1.77100e+00	-8.80450e-03	-8.90550e-01	
230	-1.77000e+00	-8.80360e-03	-8.89640e-01	
231	-1.76900e+00	-8.80270e-03	-8.88730e-01	
232	-1.76800e+00	-8.80180e-03	-8.87820e-01	
233	-1.76700e+00	-8.80090e-03	-8.86910e-01	
234	-1.76600e+00	-8.80000e-03	-8.86000e-01	
235	-1.76500e+00	-8.79910e-03	-8.85090e-01	
236	-1.76400e+00	-8.79820e-03	-8.84180e-01	
237	-1.76300e+00	-8.79730e-03	-8.83270e-01	
238	-1.76200e+00	-8.79640e-03	-8.82360e-01	
239	-1.76100e+00	-8.79549e-03	-8.81451e-01	
240	-1.76000e+00	-8.79459e-03	-8.80541e-01	
241	-1.75900e+00	-8.79369e-03	-8.79631e-01	
242	-1.75800e+00	-8.79279e-03	-8.78721e-01	
243	-1.75700e+00	-8.79189e-03	-8.77811e-01	
244	-1.75600e+00	-8.79099e-03	-8.76901e-01	
245	-1.75500e+00	-8.79009e-03	-8.75991e-01	
246	-1.75400e+00	-8.78919e-03	-8.75081e-01	
247	-1.75300e+00	-8.78829e-03	-8.74171e-01	
248	-1.75200e+00	-8.78739e-03	-8.73261e-01	
249	-1.75100e+00	-8.78649e-03	-8.72351e-01	
250	-1.75000e+00	-8.78558e-03	-8.71442e-01	
251	-1.74900e+00	-8.78468e-03	-8.70532e-01	
252	-1.74800e+00	-8.78378e-03	-8.69622e-01	
253	-1.74700e+00	-8.78288e-03	-8.68712e-01	
254	-1.74600e+00	-8.78198e-03	-8.67802e-01	
255	-1.74500e+00	-8.78108e-03	-8.66892e-01	
256	-1.74400e+00	-8.78018e-03	-8.65982e-01	
257	-1.74300e+00	-8.77928e-03	-8.65072e-01	
258	-1.74200e+00	-8.77838e-03	-8.64162e-01	
259	-1.74100e+00	-8.77748e-03	-8.63252e-01	
260	-1.74000e+00	-8.77658e-03	-8.62342e-01	
261	-1.73900e+00	-8.77567e-03	-8.61433e-01	
262	-1.73800e+00	-8.77477e-03	-8.60523e-01	
263	-1.73700e+00	-8.77387e-03	-8.59613e-01	
264	-1.73600e+00	-8.77297e-03	-8.58703e-01	
265	-1.73500e+00	-8.77207e-03	-8.57793e-01	
266	-1.73400e+00	-8.77117e-03	-8.56883e-01	
267	-1.73300e+00	-8.77027e-03	-8.55973e-01	
268	-1.73200e+00	-8.76937e-03	-8.55063e-01	
269	-1.73100e+00	-8.76847e-03	-8.54153e-01	
270	-1.73000e+00	-8.76757e-03	-8.53243e-01	
271	-1.72900e+00	-8.76667e-03	-8.52333e-01	
272	-1.72800e+00	-8.76577e-03	-8.51423e-01	
273	-1.72700e+00	-8.76486e-03	-8.50514e-01	
274	-1.72600e+00	-8.76396e-03	-8.49604e-01	
275	-1.72500e+00	-8.76306e-03	-8.48694e-01	
276	-1.72400e+00	-8.76216e-03	-8.47784e-01	
277	-1.72300e+00	-8.76126e-03	-8.46874e-01	
278	-1.72200e+00	-8.76036e-03	-8.45964e-01	
279	-1.72100e+00	-8.75946e-03	-8.45054e-01	
280	-1.72000e+00	-8.75856e-03	-8.44144e-01	
281	-1.71900e+00	-8.75766e-03	-8.43234e-01	
282	-1.71800e+00	-8.75676e-03	-8.42324e-01	
283	-1.71700e+00	-8.75586e-03	-8.41414e-01	
284	-1.71600e+00	-8.75495e-03	-8.40505e-01	
285	-1.71500e+00	-8.75405e-03	-8.39595e-01	
286	-1.71400e+00	-8.75315e-03	-8.38685e-01	

Index   v-sweep         i(vd)           v(3)            
--------------------------------------------------------------------------------
287	-1.71300e+00	-8.75225e-03	-8.37775e-01	
288	-1.71200e+00	-8.75135e-03	-8.36865e-01	
289	-1.71100e+00	-8.75045e-03	-8.35955e-01	
290	-1.71000e+00	-8.74955e-03	-8.35045e-01	
291	-1.70900e+00	-8.74865e-03	-8.34135e-01	
292	-1.70800e+00	-8.74775e-03	-8.33225e-01	
293	-1.70700e+00	-8.74685e-03	-8.32315e-01	
294	-1.70600e+00	-8.74595e-03	-8.31405e-01	
295	-1.70500e+00	-8.74504e-03	-8.30496e-01	
296	-1.70400e+00	-8.74414e-03	-8.29586e-01	
297	-1.70300e+00	-8.74324e-03	-8.28676e-01	
298	-1.70200e+00	-8.74234e-03	-8.27766e-01	
299	-1.70100e+00	-8.74144e-03	-8.26856e-01	
300	-1.70000e+00	-8.74054e-03	-8.25946e-01	
301	-1.69900e+00	-8.73964e-03	-8.25036e-01	
302	-1.69800e+00	-8.73874e-03	-8.24126e-01	
303	-1.69700e+00	-8.73784e-03	-8.23216e-01	
304	-1.69600e+00	-8.73694e-03	-8.22306e-01	
305	-1.69500e+00	-8.73604e-03	-8.21396e-01	
306	-1.69400e+00	-8.73513e-03	-8.20487e-01	
307	-1.69300e+00	-8.73423e-03	-8.19577e-01	
308	-1.69200e+00	-8.73333e-03	-8.18667e-01	
309	-1.69100e+00	-8.73243e-03	-8.17757e-01	
310	-1.69000e+00	-8.73153e-03	-8.16847e-01	
311	-1.68900e+00	-8.73063e-03	-8.15937e-01	
312	-1.68800e+00	-8.72973e-03	-8.15027e-01	
313	-1.68700e+00	-8.72883e-03	-8.14117e-01	
314	-1.68600e+00	-8.72793e-03	-8.13207e-01	
315	-1.68500e+00	-8.72703e-03	-8.12297e-01	
316	-1.68400e+00	-8.72613e-03	-8.11387e-01	
317	-1.68300e+00	-8.72522e-03	-8.10478e-01	
318	-1.68200e+00	-8.72432e-03	-8.09568e-01	
319	-1.68100e+00	-8.72342e-03	-8.08658e-01	
320	-1.68000e+00	-8.72252e-03	-8.07748e-01	
321	-1.67900e+00	-8.72162e-03	-8.06838e-01	
322	-1.67800e+00	-8.72072e-03	-8.05928e-01	
323	-1.67700e+00	-8.71982e-03	-8.05018e-01	
324	-1.67600e+00	-8.71892e-03	-8.04108e-01	
325	-1.67500e+00	-8.71802e-03	-8.03198e-01	
326	-1.67400e+00	-8.71712e-03	-8.02288e-01	
327	-1.67300e+00	-8.71622e-03	-8.01378e-01	
328	-1.67200e+00	-8.71531e-03	-8.00469e-01	
329	-1.67100e+00	-8.71441e-03	-7.99559e-01	
330	-1.67000e+00	-8.71351e-03	-7.98649e-01	
331	-1.66900e+00	-8.71261e-03	-7.97739e-01	
332	-1.66800e+00	-8.71171e-03	-7.96829e-01	
333	-1.66700e+00	-8.71081e-03	-7.95919e-01	
334	-1.66600e+00	-8.70991e-03	-7.95009e-01	
335	-1.66500e+00	-8.70901e-03	-7.94099e-01	
336	-1.66400e+00	-8.70811e-03	-7.93189e-01	
337	-1.66300e+00	-8.70721e-03	-7.92279e-01	
338	-1.66200e+00	-8.70631e-03	-7.91369e-01	
339	-1.66100e+00	-8.70540e-03	-7.90460e-01	
340	-1.66000e+00	-8.70450e-03	-7.89550e-01	
341	-1.65900e+00	-8.70360e-03	-7.88640e-01	
342	-1.65800e+00	-8.70270e-03	-7.87730e-01	
343	-1.65700e+00	-8.70180e-03	-7.86820e-01	
344	-1.65600e+00	-8.70090e-03	-7.85910e-01	

Index   v-sweep         i(vd)           v(3)            
--------------------------------------------------------------------------------
345	-1.65500e+00	-8.70000e-03	-7.85000e-01	
346	-1.65400e+00	-8.69910e-03	-7.84090e-01	
347	-1.65300e+00	-8.69820e-03	-7.83180e-01	
348	-1.65200e+00	-8.69730e-03	-7.82270e-01	
349	-1.65100e+00	-8.69640e-03	-7.81360e-01	
350	-1.65000e+00	-8.69549e-03	-7.80451e-01	
351	-1.64900e+00	-8.69459e-03	-7.79541e-01	
352	-1.64800e+00	-8.69369e-03	-7.78631e-01	
353	-1.64700e+00	-8.69279e-03	-7.77721e-01	
354	-1.64600e+00	-8.69189e-03	-7.76811e-01	
355	-1.64500e+00	-8.69099e-03	-7.75901e-01	
356	-1.64400e+00	-8.69009e-03	-7.74991e-01	
357	-1.64300e+00	-8.68919e-03	-7.74081e-01	
358	-1.64200e+00	-8.68829e-03	-7.73171e-01	
359	-1.64100e+00	-8.68739e-03	-7.72261e-01	
360	-1.64000e+00	-8.68649e-03	-7.71351e-01	
361	-1.63900e+00	-8.68558e-03	-7.70442e-01	
362	-1.63800e+00	-8.68468e-03	-7.69532e-01	
363	-1.63700e+00	-8.68378e-03	-7.68622e-01	
364	-1.63600e+00	-8.68288e-03	-7.67712e-01	
365	-1.63500e+00	-8.68198e-03	-7.66802e-01	
366	-1.63400e+00	-8.68108e-03	-7.65892e-01	
367	-1.63300e+00	-8.68018e-03	-7.64982e-01	
368	-1.63200e+00	-8.67928e-03	-7.64072e-01	
369	-1.63100e+00	-8.67838e-03	-7.63162e-01	
370	-1.63000e+00	-8.67748e-03	-7.62252e-01	
371	-1.62900e+00	-8.67658e-03	-7.61342e-01	
372	-1.62800e+00	-8.67567e-03	-7.60433e-01	
373	-1.62700e+00	-8.67477e-03	-7.59523e-01	
374	-1.62600e+00	-8.67387e-03	-7.58613e-01	
375	-1.62500e+00	-8.67297e-03	-7.57703e-01	
376	-1.62400e+00	-8.67207e-03	-7.56793e-01	
377	-1.62300e+00	-8.67117e-03	-7.55883e-01	
378	-1.62200e+00	-8.67027e-03	-7.54973e-01	
379	-1.62100e+00	-8.66937e-03	-7.54063e-01	
380	-1.62000e+00	-8.66847e-03	-7.53153e-01	
381	-1.61900e+00	-8.66757e-03	-7.52243e-01	
382	-1.61800e+00	-8.66667e-03	-7.51333e-01	
383	-1.61700e+00	-8.66576e-03	-7.50424e-01	
384	-1.61600e+00	-8.66486e-03	-7.49514e-01	
385	-1.61500e+00	-8.66396e-03	-7.48604e-01	
386	-1.61400e+00	-8.66306e-03	-7.47694e-01	
387	-1.61300e+00	-8.66216e-03	-7.46784e-01	
388	-1.61200e+00	-8.66126e-03	-7.45874e-01	
389	-1.61100e+00	-8.66036e-03	-7.44964e-01	
390	-1.61000e+00	-8.65946e-03	-7.44054e-01	
391	-1.60900e+00	-8.65856e-03	-7.43144e-01	
392	-1.60800e+00	-8.65766e-03	-7.42234e-01	
393	-1.60700e+00	-8.65676e-03	-7.41324e-01	
394	-1.60600e+00	-8.65585e-03	-7.40415e-01	
395	-1.60500e+00	-8.65495e-03	-7.39505e-01	
396	-1.60400e+00	-8.65405e-03	-7.38595e-01	
397	-1.60300e+00	-8.65315e-03	-7.37685e-01	
398	-1.60200e+00	-8.65225e-03	-7.36775e-01	
399	-1.60100e+00	-8.65135e-03	-7.35865e-01	
400	-1.60000e+00	-8.65045e-03	-7.34955e-01	
401	-1.59900e+00	-8.64955e-03	-7.34045e-01	
402	-1.59800e+00	-8.64865e-03	-7.33135e-01	

Index   v-sweep         i(vd)           v(3)            
--------------------------------------------------------------------------------
403	-1.59700e+00	-8.64775e-03	-7.32225e-01	
404	-1.59600e+00	-8.64685e-03	-7.31315e-01	
405	-1.59500e+00	-8.64594e-03	-7.30406e-01	
406	-1.59400e+00	-8.64504e-03	-7.29496e-01	
407	-1.59300e+00	-8.64414e-03	-7.28586e-01	
408	-1.59200e+00	-8.64324e-03	-7.27676e-01	
409	-1.59100e+00	-8.64234e-03	-7.26766e-01	
410	-1.59000e+00	-8.64144e-03	-7.25856e-01	
411	-1.58900e+00	-8.64054e-03	-7.24946e-01	
412	-1.58800e+00	-8.63964e-03	-7.24036e-01	
413	-1.58700e+00	-8.63874e-03	-7.23126e-01	
414	-1.58600e+00	-8.63784e-03	-7.22216e-01	
415	-1.58500e+00	-8.63694e-03	-7.21306e-01	
416	-1.58400e+00	-8.63603e-03	-7.20397e-01	
417	-1.58300e+00	-8.63513e-03	-7.19487e-01	
418	-1.58200e+00	-8.63423e-03	-7.18577e-01	
419	-1.58100e+00	-8.63333e-03	-7.17667e-01	
420	-1.58000e+00	-8.63243e-03	-7.16757e-01	
421	-1.57900e+00	-8.63153e-03	-7.15847e-01	
422	-1.57800e+00	-8.63063e-03	-7.14937e-01	
423	-1.57700e+00	-8.62973e-03	-7.14027e-01	
424	-1.57600e+00	-8.62883e-03	-7.13117e-01	
425	-1.57500e+00	-8.62793e-03	-7.12207e-01	
