     i-v characteristic of solar cell for different levels of illumination
     DC transfer characteristic  Sun Sep 25 21:58:28  2022
--------------------------------------------------------------------------------
Index   v-sweep         -i(vs)          v(2)            
--------------------------------------------------------------------------------
0	-2.00000e+00	-1.84517e-03	-1.81548e+00	
1	-1.99900e+00	-1.84427e-03	-1.81457e+00	
2	-1.99800e+00	-1.84337e-03	-1.81366e+00	
3	-1.99700e+00	-1.84246e-03	-1.81275e+00	
4	-1.99600e+00	-1.84156e-03	-1.81184e+00	
5	-1.99500e+00	-1.84066e-03	-1.81093e+00	
6	-1.99400e+00	-1.83976e-03	-1.81002e+00	
7	-1.99300e+00	-1.83886e-03	-1.80911e+00	
8	-1.99200e+00	-1.83796e-03	-1.80820e+00	
9	-1.99100e+00	-1.83706e-03	-1.80729e+00	
10	-1.99000e+00	-1.83616e-03	-1.80638e+00	
11	-1.98900e+00	-1.83526e-03	-1.80547e+00	
12	-1.98800e+00	-1.83436e-03	-1.80456e+00	
13	-1.98700e+00	-1.83346e-03	-1.80365e+00	
14	-1.98600e+00	-1.83255e-03	-1.80274e+00	
15	-1.98500e+00	-1.83165e-03	-1.80183e+00	
16	-1.98400e+00	-1.83075e-03	-1.80092e+00	
17	-1.98300e+00	-1.82985e-03	-1.80001e+00	
18	-1.98200e+00	-1.82895e-03	-1.79910e+00	
19	-1.98100e+00	-1.82805e-03	-1.79819e+00	
20	-1.98000e+00	-1.82715e-03	-1.79729e+00	
21	-1.97900e+00	-1.82625e-03	-1.79638e+00	
22	-1.97800e+00	-1.82535e-03	-1.79547e+00	
23	-1.97700e+00	-1.82445e-03	-1.79456e+00	
24	-1.97600e+00	-1.82355e-03	-1.79365e+00	
25	-1.97500e+00	-1.82264e-03	-1.79274e+00	
26	-1.97400e+00	-1.82174e-03	-1.79183e+00	
27	-1.97300e+00	-1.82084e-03	-1.79092e+00	
28	-1.97200e+00	-1.81994e-03	-1.79001e+00	
29	-1.97100e+00	-1.81904e-03	-1.78910e+00	
30	-1.97000e+00	-1.81814e-03	-1.78819e+00	
31	-1.96900e+00	-1.81724e-03	-1.78728e+00	
32	-1.96800e+00	-1.81634e-03	-1.78637e+00	
33	-1.96700e+00	-1.81544e-03	-1.78546e+00	
34	-1.96600e+00	-1.81454e-03	-1.78455e+00	
35	-1.96500e+00	-1.81364e-03	-1.78364e+00	
36	-1.96400e+00	-1.81273e-03	-1.78273e+00	
37	-1.96300e+00	-1.81183e-03	-1.78182e+00	
38	-1.96200e+00	-1.81093e-03	-1.78091e+00	
39	-1.96100e+00	-1.81003e-03	-1.78000e+00	
40	-1.96000e+00	-1.80913e-03	-1.77909e+00	
41	-1.95900e+00	-1.80823e-03	-1.77818e+00	
42	-1.95800e+00	-1.80733e-03	-1.77727e+00	
43	-1.95700e+00	-1.80643e-03	-1.77636e+00	
44	-1.95600e+00	-1.80553e-03	-1.77545e+00	
45	-1.95500e+00	-1.80463e-03	-1.77454e+00	
46	-1.95400e+00	-1.80373e-03	-1.77363e+00	
47	-1.95300e+00	-1.80282e-03	-1.77272e+00	
48	-1.95200e+00	-1.80192e-03	-1.77181e+00	
49	-1.95100e+00	-1.80102e-03	-1.77090e+00	
50	-1.95000e+00	-1.80012e-03	-1.76999e+00	
51	-1.94900e+00	-1.79922e-03	-1.76908e+00	
52	-1.94800e+00	-1.79832e-03	-1.76817e+00	
53	-1.94700e+00	-1.79742e-03	-1.76726e+00	
54	-1.94600e+00	-1.79652e-03	-1.76635e+00	

Index   v-sweep         -i(vs)          v(2)            
--------------------------------------------------------------------------------
55	-1.94500e+00	-1.79562e-03	-1.76544e+00	
56	-1.94400e+00	-1.79472e-03	-1.76453e+00	
57	-1.94300e+00	-1.79382e-03	-1.76362e+00	
58	-1.94200e+00	-1.79291e-03	-1.76271e+00	
59	-1.94100e+00	-1.79201e-03	-1.76180e+00	
60	-1.94000e+00	-1.79111e-03	-1.76089e+00	
61	-1.93900e+00	-1.79021e-03	-1.75998e+00	
62	-1.93800e+00	-1.78931e-03	-1.75907e+00	
63	-1.93700e+00	-1.78841e-03	-1.75816e+00	
64	-1.93600e+00	-1.78751e-03	-1.75725e+00	
65	-1.93500e+00	-1.78661e-03	-1.75634e+00	
66	-1.93400e+00	-1.78571e-03	-1.75543e+00	
67	-1.93300e+00	-1.78481e-03	-1.75452e+00	
68	-1.93200e+00	-1.78391e-03	-1.75361e+00	
69	-1.93100e+00	-1.78300e-03	-1.75270e+00	
70	-1.93000e+00	-1.78210e-03	-1.75179e+00	
71	-1.92900e+00	-1.78120e-03	-1.75088e+00	
72	-1.92800e+00	-1.78030e-03	-1.74997e+00	
73	-1.92700e+00	-1.77940e-03	-1.74906e+00	
74	-1.92600e+00	-1.77850e-03	-1.74815e+00	
75	-1.92500e+00	-1.77760e-03	-1.74724e+00	
76	-1.92400e+00	-1.77670e-03	-1.74633e+00	
77	-1.92300e+00	-1.77580e-03	-1.74542e+00	
78	-1.92200e+00	-1.77490e-03	-1.74451e+00	
79	-1.92100e+00	-1.77400e-03	-1.74360e+00	
80	-1.92000e+00	-1.77309e-03	-1.74269e+00	
81	-1.91900e+00	-1.77219e-03	-1.74178e+00	
82	-1.91800e+00	-1.77129e-03	-1.74087e+00	
83	-1.91700e+00	-1.77039e-03	-1.73996e+00	
84	-1.91600e+00	-1.76949e-03	-1.73905e+00	
85	-1.91500e+00	-1.76859e-03	-1.73814e+00	
86	-1.91400e+00	-1.76769e-03	-1.73723e+00	
87	-1.91300e+00	-1.76679e-03	-1.73632e+00	
88	-1.91200e+00	-1.76589e-03	-1.73541e+00	
89	-1.91100e+00	-1.76499e-03	-1.73450e+00	
90	-1.91000e+00	-1.76409e-03	-1.73359e+00	
91	-1.90900e+00	-1.76318e-03	-1.73268e+00	
92	-1.90800e+00	-1.76228e-03	-1.73177e+00	
93	-1.90700e+00	-1.76138e-03	-1.73086e+00	
94	-1.90600e+00	-1.76048e-03	-1.72995e+00	
95	-1.90500e+00	-1.75958e-03	-1.72904e+00	
96	-1.90400e+00	-1.75868e-03	-1.72813e+00	
97	-1.90300e+00	-1.75778e-03	-1.72722e+00	
98	-1.90200e+00	-1.75688e-03	-1.72631e+00	
99	-1.90100e+00	-1.75598e-03	-1.72540e+00	
100	-1.90000e+00	-1.75508e-03	-1.72449e+00	
101	-1.89900e+00	-1.75418e-03	-1.72358e+00	
102	-1.89800e+00	-1.75328e-03	-1.72267e+00	
103	-1.89700e+00	-1.75237e-03	-1.72176e+00	
104	-1.89600e+00	-1.75147e-03	-1.72085e+00	
105	-1.89500e+00	-1.75057e-03	-1.71994e+00	
106	-1.89400e+00	-1.74967e-03	-1.71903e+00	
107	-1.89300e+00	-1.74877e-03	-1.71812e+00	
108	-1.89200e+00	-1.74787e-03	-1.71721e+00	
109	-1.89100e+00	-1.74697e-03	-1.71630e+00	
110	-1.89000e+00	-1.74607e-03	-1.71539e+00	
111	-1.88900e+00	-1.74517e-03	-1.71448e+00	
112	-1.88800e+00	-1.74427e-03	-1.71357e+00	

Index   v-sweep         -i(vs)          v(2)            
--------------------------------------------------------------------------------
113	-1.88700e+00	-1.74337e-03	-1.71266e+00	
114	-1.88600e+00	-1.74246e-03	-1.71175e+00	
115	-1.88500e+00	-1.74156e-03	-1.71084e+00	
116	-1.88400e+00	-1.74066e-03	-1.70993e+00	
117	-1.88300e+00	-1.73976e-03	-1.70902e+00	
118	-1.88200e+00	-1.73886e-03	-1.70811e+00	
119	-1.88100e+00	-1.73796e-03	-1.70720e+00	
120	-1.88000e+00	-1.73706e-03	-1.70629e+00	
121	-1.87900e+00	-1.73616e-03	-1.70538e+00	
122	-1.87800e+00	-1.73526e-03	-1.70447e+00	
123	-1.87700e+00	-1.73436e-03	-1.70356e+00	
124	-1.87600e+00	-1.73346e-03	-1.70265e+00	
125	-1.87500e+00	-1.73255e-03	-1.70174e+00	
126	-1.87400e+00	-1.73165e-03	-1.70083e+00	
127	-1.87300e+00	-1.73075e-03	-1.69992e+00	
128	-1.87200e+00	-1.72985e-03	-1.69901e+00	
129	-1.87100e+00	-1.72895e-03	-1.69810e+00	
130	-1.87000e+00	-1.72805e-03	-1.69720e+00	
131	-1.86900e+00	-1.72715e-03	-1.69629e+00	
132	-1.86800e+00	-1.72625e-03	-1.69538e+00	
133	-1.86700e+00	-1.72535e-03	-1.69447e+00	
134	-1.86600e+00	-1.72445e-03	-1.69356e+00	
135	-1.86500e+00	-1.72355e-03	-1.69265e+00	
136	-1.86400e+00	-1.72264e-03	-1.69174e+00	
137	-1.86300e+00	-1.72174e-03	-1.69083e+00	
138	-1.86200e+00	-1.72084e-03	-1.68992e+00	
139	-1.86100e+00	-1.71994e-03	-1.68901e+00	
140	-1.86000e+00	-1.71904e-03	-1.68810e+00	
141	-1.85900e+00	-1.71814e-03	-1.68719e+00	
142	-1.85800e+00	-1.71724e-03	-1.68628e+00	
143	-1.85700e+00	-1.71634e-03	-1.68537e+00	
144	-1.85600e+00	-1.71544e-03	-1.68446e+00	
145	-1.85500e+00	-1.71454e-03	-1.68355e+00	
146	-1.85400e+00	-1.71364e-03	-1.68264e+00	
147	-1.85300e+00	-1.71273e-03	-1.68173e+00	
148	-1.85200e+00	-1.71183e-03	-1.68082e+00	
149	-1.85100e+00	-1.71093e-03	-1.67991e+00	
150	-1.85000e+00	-1.71003e-03	-1.67900e+00	
151	-1.84900e+00	-1.70913e-03	-1.67809e+00	
152	-1.84800e+00	-1.70823e-03	-1.67718e+00	
153	-1.84700e+00	-1.70733e-03	-1.67627e+00	
154	-1.84600e+00	-1.70643e-03	-1.67536e+00	
155	-1.84500e+00	-1.70553e-03	-1.67445e+00	
156	-1.84400e+00	-1.70463e-03	-1.67354e+00	
157	-1.84300e+00	-1.70373e-03	-1.67263e+00	
158	-1.84200e+00	-1.70282e-03	-1.67172e+00	
159	-1.84100e+00	-1.70192e-03	-1.67081e+00	
160	-1.84000e+00	-1.70102e-03	-1.66990e+00	
161	-1.83900e+00	-1.70012e-03	-1.66899e+00	
162	-1.83800e+00	-1.69922e-03	-1.66808e+00	
163	-1.83700e+00	-1.69832e-03	-1.66717e+00	
164	-1.83600e+00	-1.69742e-03	-1.66626e+00	
165	-1.83500e+00	-1.69652e-03	-1.66535e+00	
166	-1.83400e+00	-1.69562e-03	-1.66444e+00	
167	-1.83300e+00	-1.69472e-03	-1.66353e+00	
168	-1.83200e+00	-1.69382e-03	-1.66262e+00	
169	-1.83100e+00	-1.69291e-03	-1.66171e+00	
170	-1.83000e+00	-1.69201e-03	-1.66080e+00	

Index   v-sweep         -i(vs)          v(2)            
--------------------------------------------------------------------------------
171	-1.82900e+00	-1.69111e-03	-1.65989e+00	
172	-1.82800e+00	-1.69021e-03	-1.65898e+00	
173	-1.82700e+00	-1.68931e-03	-1.65807e+00	
174	-1.82600e+00	-1.68841e-03	-1.65716e+00	
175	-1.82500e+00	-1.68751e-03	-1.65625e+00	
176	-1.82400e+00	-1.68661e-03	-1.65534e+00	
177	-1.82300e+00	-1.68571e-03	-1.65443e+00	
178	-1.82200e+00	-1.68481e-03	-1.65352e+00	
179	-1.82100e+00	-1.68391e-03	-1.65261e+00	
180	-1.82000e+00	-1.68300e-03	-1.65170e+00	
181	-1.81900e+00	-1.68210e-03	-1.65079e+00	
182	-1.81800e+00	-1.68120e-03	-1.64988e+00	
183	-1.81700e+00	-1.68030e-03	-1.64897e+00	
184	-1.81600e+00	-1.67940e-03	-1.64806e+00	
185	-1.81500e+00	-1.67850e-03	-1.64715e+00	
186	-1.81400e+00	-1.67760e-03	-1.64624e+00	
187	-1.81300e+00	-1.67670e-03	-1.64533e+00	
188	-1.81200e+00	-1.67580e-03	-1.64442e+00	
189	-1.81100e+00	-1.67490e-03	-1.64351e+00	
190	-1.81000e+00	-1.67400e-03	-1.64260e+00	
191	-1.80900e+00	-1.67309e-03	-1.64169e+00	
192	-1.80800e+00	-1.67219e-03	-1.64078e+00	
193	-1.80700e+00	-1.67129e-03	-1.63987e+00	
194	-1.80600e+00	-1.67039e-03	-1.63896e+00	
195	-1.80500e+00	-1.66949e-03	-1.63805e+00	
196	-1.80400e+00	-1.66859e-03	-1.63714e+00	
197	-1.80300e+00	-1.66769e-03	-1.63623e+00	
198	-1.80200e+00	-1.66679e-03	-1.63532e+00	
199	-1.80100e+00	-1.66589e-03	-1.63441e+00	
200	-1.80000e+00	-1.66499e-03	-1.63350e+00	
201	-1.79900e+00	-1.66409e-03	-1.63259e+00	
202	-1.79800e+00	-1.66318e-03	-1.63168e+00	
203	-1.79700e+00	-1.66228e-03	-1.63077e+00	
204	-1.79600e+00	-1.66138e-03	-1.62986e+00	
205	-1.79500e+00	-1.66048e-03	-1.62895e+00	
206	-1.79400e+00	-1.65958e-03	-1.62804e+00	
207	-1.79300e+00	-1.65868e-03	-1.62713e+00	
208	-1.79200e+00	-1.65778e-03	-1.62622e+00	
209	-1.79100e+00	-1.65688e-03	-1.62531e+00	
210	-1.79000e+00	-1.65598e-03	-1.62440e+00	
211	-1.78900e+00	-1.65508e-03	-1.62349e+00	
212	-1.78800e+00	-1.65418e-03	-1.62258e+00	
213	-1.78700e+00	-1.65327e-03	-1.62167e+00	
214	-1.78600e+00	-1.65237e-03	-1.62076e+00	
215	-1.78500e+00	-1.65147e-03	-1.61985e+00	
216	-1.78400e+00	-1.65057e-03	-1.61894e+00	
217	-1.78300e+00	-1.64967e-03	-1.61803e+00	
218	-1.78200e+00	-1.64877e-03	-1.61712e+00	
219	-1.78100e+00	-1.64787e-03	-1.61621e+00	
220	-1.78000e+00	-1.64697e-03	-1.61530e+00	
221	-1.77900e+00	-1.64607e-03	-1.61439e+00	
222	-1.77800e+00	-1.64517e-03	-1.61348e+00	
223	-1.77700e+00	-1.64427e-03	-1.61257e+00	
224	-1.77600e+00	-1.64336e-03	-1.61166e+00	
225	-1.77500e+00	-1.64246e-03	-1.61075e+00	
226	-1.77400e+00	-1.64156e-03	-1.60984e+00	
227	-1.77300e+00	-1.64066e-03	-1.60893e+00	
228	-1.77200e+00	-1.63976e-03	-1.60802e+00	

Index   v-sweep         -i(vs)          v(2)            
--------------------------------------------------------------------------------
229	-1.77100e+00	-1.63886e-03	-1.60711e+00	
230	-1.77000e+00	-1.63796e-03	-1.60620e+00	
231	-1.76900e+00	-1.63706e-03	-1.60529e+00	
232	-1.76800e+00	-1.63616e-03	-1.60438e+00	
233	-1.76700e+00	-1.63526e-03	-1.60347e+00	
234	-1.76600e+00	-1.63436e-03	-1.60256e+00	
235	-1.76500e+00	-1.63345e-03	-1.60165e+00	
236	-1.76400e+00	-1.63255e-03	-1.60074e+00	
237	-1.76300e+00	-1.63165e-03	-1.59983e+00	
238	-1.76200e+00	-1.63075e-03	-1.59892e+00	
239	-1.76100e+00	-1.62985e-03	-1.59801e+00	
240	-1.76000e+00	-1.62895e-03	-1.59710e+00	
241	-1.75900e+00	-1.62805e-03	-1.59620e+00	
242	-1.75800e+00	-1.62715e-03	-1.59529e+00	
243	-1.75700e+00	-1.62625e-03	-1.59438e+00	
244	-1.75600e+00	-1.62535e-03	-1.59347e+00	
245	-1.75500e+00	-1.62445e-03	-1.59256e+00	
246	-1.75400e+00	-1.62354e-03	-1.59165e+00	
247	-1.75300e+00	-1.62264e-03	-1.59074e+00	
248	-1.75200e+00	-1.62174e-03	-1.58983e+00	
249	-1.75100e+00	-1.62084e-03	-1.58892e+00	
250	-1.75000e+00	-1.61994e-03	-1.58801e+00	
251	-1.74900e+00	-1.61904e-03	-1.58710e+00	
252	-1.74800e+00	-1.61814e-03	-1.58619e+00	
253	-1.74700e+00	-1.61724e-03	-1.58528e+00	
254	-1.74600e+00	-1.61634e-03	-1.58437e+00	
255	-1.74500e+00	-1.61544e-03	-1.58346e+00	
256	-1.74400e+00	-1.61454e-03	-1.58255e+00	
257	-1.74300e+00	-1.61363e-03	-1.58164e+00	
258	-1.74200e+00	-1.61273e-03	-1.58073e+00	
259	-1.74100e+00	-1.61183e-03	-1.57982e+00	
260	-1.74000e+00	-1.61093e-03	-1.57891e+00	
261	-1.73900e+00	-1.61003e-03	-1.57800e+00	
262	-1.73800e+00	-1.60913e-03	-1.57709e+00	
263	-1.73700e+00	-1.60823e-03	-1.57618e+00	
264	-1.73600e+00	-1.60733e-03	-1.57527e+00	
265	-1.73500e+00	-1.60643e-03	-1.57436e+00	
266	-1.73400e+00	-1.60553e-03	-1.57345e+00	
267	-1.73300e+00	-1.60463e-03	-1.57254e+00	
268	-1.73200e+00	-1.60372e-03	-1.57163e+00	
269	-1.73100e+00	-1.60282e-03	-1.57072e+00	
270	-1.73000e+00	-1.60192e-03	-1.56981e+00	
271	-1.72900e+00	-1.60102e-03	-1.56890e+00	
272	-1.72800e+00	-1.60012e-03	-1.56799e+00	
273	-1.72700e+00	-1.59922e-03	-1.56708e+00	
274	-1.72600e+00	-1.59832e-03	-1.56617e+00	
275	-1.72500e+00	-1.59742e-03	-1.56526e+00	
276	-1.72400e+00	-1.59652e-03	-1.56435e+00	
277	-1.72300e+00	-1.59562e-03	-1.56344e+00	
278	-1.72200e+00	-1.59472e-03	-1.56253e+00	
279	-1.72100e+00	-1.59381e-03	-1.56162e+00	
280	-1.72000e+00	-1.59291e-03	-1.56071e+00	
281	-1.71900e+00	-1.59201e-03	-1.55980e+00	
282	-1.71800e+00	-1.59111e-03	-1.55889e+00	
283	-1.71700e+00	-1.59021e-03	-1.55798e+00	
284	-1.71600e+00	-1.58931e-03	-1.55707e+00	
285	-1.71500e+00	-1.58841e-03	-1.55616e+00	
286	-1.71400e+00	-1.58751e-03	-1.55525e+00	

Index   v-sweep         -i(vs)          v(2)            
--------------------------------------------------------------------------------
287	-1.71300e+00	-1.58661e-03	-1.55434e+00	
288	-1.71200e+00	-1.58571e-03	-1.55343e+00	
289	-1.71100e+00	-1.58481e-03	-1.55252e+00	
290	-1.71000e+00	-1.58390e-03	-1.55161e+00	
291	-1.70900e+00	-1.58300e-03	-1.55070e+00	
292	-1.70800e+00	-1.58210e-03	-1.54979e+00	
293	-1.70700e+00	-1.58120e-03	-1.54888e+00	
294	-1.70600e+00	-1.58030e-03	-1.54797e+00	
295	-1.70500e+00	-1.57940e-03	-1.54706e+00	
296	-1.70400e+00	-1.57850e-03	-1.54615e+00	
297	-1.70300e+00	-1.57760e-03	-1.54524e+00	
298	-1.70200e+00	-1.57670e-03	-1.54433e+00	
299	-1.70100e+00	-1.57580e-03	-1.54342e+00	
300	-1.70000e+00	-1.57490e-03	-1.54251e+00	
301	-1.69900e+00	-1.57399e-03	-1.54160e+00	
302	-1.69800e+00	-1.57309e-03	-1.54069e+00	
303	-1.69700e+00	-1.57219e-03	-1.53978e+00	
304	-1.69600e+00	-1.57129e-03	-1.53887e+00	
305	-1.69500e+00	-1.57039e-03	-1.53796e+00	
306	-1.69400e+00	-1.56949e-03	-1.53705e+00	
307	-1.69300e+00	-1.56859e-03	-1.53614e+00	
308	-1.69200e+00	-1.56769e-03	-1.53523e+00	
309	-1.69100e+00	-1.56679e-03	-1.53432e+00	
310	-1.69000e+00	-1.56589e-03	-1.53341e+00	
311	-1.68900e+00	-1.56499e-03	-1.53250e+00	
312	-1.68800e+00	-1.56408e-03	-1.53159e+00	
313	-1.68700e+00	-1.56318e-03	-1.53068e+00	
314	-1.68600e+00	-1.56228e-03	-1.52977e+00	
315	-1.68500e+00	-1.56138e-03	-1.52886e+00	
316	-1.68400e+00	-1.56048e-03	-1.52795e+00	
317	-1.68300e+00	-1.55958e-03	-1.52704e+00	
318	-1.68200e+00	-1.55868e-03	-1.52613e+00	
319	-1.68100e+00	-1.55778e-03	-1.52522e+00	
320	-1.68000e+00	-1.55688e-03	-1.52431e+00	
321	-1.67900e+00	-1.55598e-03	-1.52340e+00	
322	-1.67800e+00	-1.55508e-03	-1.52249e+00	
323	-1.67700e+00	-1.55417e-03	-1.52158e+00	
324	-1.67600e+00	-1.55327e-03	-1.52067e+00	
325	-1.67500e+00	-1.55237e-03	-1.51976e+00	
326	-1.67400e+00	-1.55147e-03	-1.51885e+00	
327	-1.67300e+00	-1.55057e-03	-1.51794e+00	
328	-1.67200e+00	-1.54967e-03	-1.51703e+00	
329	-1.67100e+00	-1.54877e-03	-1.51612e+00	
330	-1.67000e+00	-1.54787e-03	-1.51521e+00	
331	-1.66900e+00	-1.54697e-03	-1.51430e+00	
332	-1.66800e+00	-1.54607e-03	-1.51339e+00	
333	-1.66700e+00	-1.54517e-03	-1.51248e+00	
334	-1.66600e+00	-1.54426e-03	-1.51157e+00	
335	-1.66500e+00	-1.54336e-03	-1.51066e+00	
336	-1.66400e+00	-1.54246e-03	-1.50975e+00	
337	-1.66300e+00	-1.54156e-03	-1.50884e+00	
338	-1.66200e+00	-1.54066e-03	-1.50793e+00	
339	-1.66100e+00	-1.53976e-03	-1.50702e+00	
340	-1.66000e+00	-1.53886e-03	-1.50611e+00	
341	-1.65900e+00	-1.53796e-03	-1.50520e+00	
342	-1.65800e+00	-1.53706e-03	-1.50429e+00	
343	-1.65700e+00	-1.53616e-03	-1.50338e+00	
344	-1.65600e+00	-1.53526e-03	-1.50247e+00	

Index   v-sweep         -i(vs)          v(2)            
--------------------------------------------------------------------------------
345	-1.65500e+00	-1.53435e-03	-1.50156e+00	
346	-1.65400e+00	-1.53345e-03	-1.50065e+00	
347	-1.65300e+00	-1.53255e-03	-1.49974e+00	
348	-1.65200e+00	-1.53165e-03	-1.49883e+00	
349	-1.65100e+00	-1.53075e-03	-1.49792e+00	
350	-1.65000e+00	-1.52985e-03	-1.49701e+00	
351	-1.64900e+00	-1.52895e-03	-1.49611e+00	
352	-1.64800e+00	-1.52805e-03	-1.49520e+00	
353	-1.64700e+00	-1.52715e-03	-1.49429e+00	
354	-1.64600e+00	-1.52625e-03	-1.49338e+00	
355	-1.64500e+00	-1.52535e-03	-1.49247e+00	
356	-1.64400e+00	-1.52444e-03	-1.49156e+00	
357	-1.64300e+00	-1.52354e-03	-1.49065e+00	
358	-1.64200e+00	-1.52264e-03	-1.48974e+00	
359	-1.64100e+00	-1.52174e-03	-1.48883e+00	
360	-1.64000e+00	-1.52084e-03	-1.48792e+00	
361	-1.63900e+00	-1.51994e-03	-1.48701e+00	
362	-1.63800e+00	-1.51904e-03	-1.48610e+00	
363	-1.63700e+00	-1.51814e-03	-1.48519e+00	
364	-1.63600e+00	-1.51724e-03	-1.48428e+00	
365	-1.63500e+00	-1.51634e-03	-1.48337e+00	
366	-1.63400e+00	-1.51544e-03	-1.48246e+00	
367	-1.63300e+00	-1.51453e-03	-1.48155e+00	
368	-1.63200e+00	-1.51363e-03	-1.48064e+00	
369	-1.63100e+00	-1.51273e-03	-1.47973e+00	
370	-1.63000e+00	-1.51183e-03	-1.47882e+00	
371	-1.62900e+00	-1.51093e-03	-1.47791e+00	
372	-1.62800e+00	-1.51003e-03	-1.47700e+00	
373	-1.62700e+00	-1.50913e-03	-1.47609e+00	
374	-1.62600e+00	-1.50823e-03	-1.47518e+00	
375	-1.62500e+00	-1.50733e-03	-1.47427e+00	
376	-1.62400e+00	-1.50643e-03	-1.47336e+00	
377	-1.62300e+00	-1.50553e-03	-1.47245e+00	
378	-1.62200e+00	-1.50462e-03	-1.47154e+00	
379	-1.62100e+00	-1.50372e-03	-1.47063e+00	
380	-1.62000e+00	-1.50282e-03	-1.46972e+00	
381	-1.61900e+00	-1.50192e-03	-1.46881e+00	
382	-1.61800e+00	-1.50102e-03	-1.46790e+00	
383	-1.61700e+00	-1.50012e-03	-1.46699e+00	
384	-1.61600e+00	-1.49922e-03	-1.46608e+00	
385	-1.61500e+00	-1.49832e-03	-1.46517e+00	
386	-1.61400e+00	-1.49742e-03	-1.46426e+00	
387	-1.61300e+00	-1.49652e-03	-1.46335e+00	
388	-1.61200e+00	-1.49562e-03	-1.46244e+00	
389	-1.61100e+00	-1.49471e-03	-1.46153e+00	
390	-1.61000e+00	-1.49381e-03	-1.46062e+00	
391	-1.60900e+00	-1.49291e-03	-1.45971e+00	
392	-1.60800e+00	-1.49201e-03	-1.45880e+00	
393	-1.60700e+00	-1.49111e-03	-1.45789e+00	
394	-1.60600e+00	-1.49021e-03	-1.45698e+00	
395	-1.60500e+00	-1.48931e-03	-1.45607e+00	
396	-1.60400e+00	-1.48841e-03	-1.45516e+00	
397	-1.60300e+00	-1.48751e-03	-1.45425e+00	
398	-1.60200e+00	-1.48661e-03	-1.45334e+00	
399	-1.60100e+00	-1.48571e-03	-1.45243e+00	
400	-1.60000e+00	-1.48480e-03	-1.45152e+00	
401	-1.59900e+00	-1.48390e-03	-1.45061e+00	
402	-1.59800e+00	-1.48300e-03	-1.44970e+00	

Index   v-sweep         -i(vs)          v(2)            
--------------------------------------------------------------------------------
403	-1.59700e+00	-1.48210e-03	-1.44879e+00	
404	-1.59600e+00	-1.48120e-03	-1.44788e+00	
405	-1.59500e+00	-1.48030e-03	-1.44697e+00	
406	-1.59400e+00	-1.47940e-03	-1.44606e+00	
407	-1.59300e+00	-1.47850e-03	-1.44515e+00	
408	-1.59200e+00	-1.47760e-03	-1.44424e+00	
409	-1.59100e+00	-1.47670e-03	-1.44333e+00	
410	-1.59000e+00	-1.47580e-03	-1.44242e+00	
411	-1.58900e+00	-1.47489e-03	-1.44151e+00	
412	-1.58800e+00	-1.47399e-03	-1.44060e+00	
413	-1.58700e+00	-1.47309e-03	-1.43969e+00	
414	-1.58600e+00	-1.47219e-03	-1.43878e+00	
415	-1.58500e+00	-1.47129e-03	-1.43787e+00	
416	-1.58400e+00	-1.47039e-03	-1.43696e+00	
417	-1.58300e+00	-1.46949e-03	-1.43605e+00	
418	-1.58200e+00	-1.46859e-03	-1.43514e+00	
419	-1.58100e+00	-1.46769e-03	-1.43423e+00	
420	-1.58000e+00	-1.46679e-03	-1.43332e+00	
421	-1.57900e+00	-1.46589e-03	-1.43241e+00	
422	-1.57800e+00	-1.46498e-03	-1.43150e+00	
423	-1.57700e+00	-1.46408e-03	-1.43059e+00	
424	-1.57600e+00	-1.46318e-03	-1.42968e+00	
425	-1.57500e+00	-1.46228e-03	-1.42877e+00	
