     i-v characteristic of solar cell for different levels of illumination
     DC transfer characteristic  Sun Sep 25 21:58:28  2022
--------------------------------------------------------------------------------
Index   v-sweep         -i(vs)          v(2)            
--------------------------------------------------------------------------------
0	-2.00000e+00	-1.81465e-03	-1.81853e+00	
1	-1.99900e+00	-1.81375e-03	-1.81762e+00	
2	-1.99800e+00	-1.81285e-03	-1.81671e+00	
3	-1.99700e+00	-1.81195e-03	-1.81580e+00	
4	-1.99600e+00	-1.81105e-03	-1.81490e+00	
5	-1.99500e+00	-1.81015e-03	-1.81399e+00	
6	-1.99400e+00	-1.80925e-03	-1.81308e+00	
7	-1.99300e+00	-1.80835e-03	-1.81217e+00	
8	-1.99200e+00	-1.80745e-03	-1.81126e+00	
9	-1.99100e+00	-1.80654e-03	-1.81035e+00	
10	-1.99000e+00	-1.80564e-03	-1.80944e+00	
11	-1.98900e+00	-1.80474e-03	-1.80853e+00	
12	-1.98800e+00	-1.80384e-03	-1.80762e+00	
13	-1.98700e+00	-1.80294e-03	-1.80671e+00	
14	-1.98600e+00	-1.80204e-03	-1.80580e+00	
15	-1.98500e+00	-1.80114e-03	-1.80489e+00	
16	-1.98400e+00	-1.80024e-03	-1.80398e+00	
17	-1.98300e+00	-1.79934e-03	-1.80307e+00	
18	-1.98200e+00	-1.79844e-03	-1.80216e+00	
19	-1.98100e+00	-1.79754e-03	-1.80125e+00	
20	-1.98000e+00	-1.79664e-03	-1.80034e+00	
21	-1.97900e+00	-1.79573e-03	-1.79943e+00	
22	-1.97800e+00	-1.79483e-03	-1.79852e+00	
23	-1.97700e+00	-1.79393e-03	-1.79761e+00	
24	-1.97600e+00	-1.79303e-03	-1.79670e+00	
25	-1.97500e+00	-1.79213e-03	-1.79579e+00	
26	-1.97400e+00	-1.79123e-03	-1.79488e+00	
27	-1.97300e+00	-1.79033e-03	-1.79397e+00	
28	-1.97200e+00	-1.78943e-03	-1.79306e+00	
29	-1.97100e+00	-1.78853e-03	-1.79215e+00	
30	-1.97000e+00	-1.78763e-03	-1.79124e+00	
31	-1.96900e+00	-1.78673e-03	-1.79033e+00	
32	-1.96800e+00	-1.78582e-03	-1.78942e+00	
33	-1.96700e+00	-1.78492e-03	-1.78851e+00	
34	-1.96600e+00	-1.78402e-03	-1.78760e+00	
35	-1.96500e+00	-1.78312e-03	-1.78669e+00	
36	-1.96400e+00	-1.78222e-03	-1.78578e+00	
37	-1.96300e+00	-1.78132e-03	-1.78487e+00	
38	-1.96200e+00	-1.78042e-03	-1.78396e+00	
39	-1.96100e+00	-1.77952e-03	-1.78305e+00	
40	-1.96000e+00	-1.77862e-03	-1.78214e+00	
41	-1.95900e+00	-1.77772e-03	-1.78123e+00	
42	-1.95800e+00	-1.77682e-03	-1.78032e+00	
43	-1.95700e+00	-1.77591e-03	-1.77941e+00	
44	-1.95600e+00	-1.77501e-03	-1.77850e+00	
45	-1.95500e+00	-1.77411e-03	-1.77759e+00	
46	-1.95400e+00	-1.77321e-03	-1.77668e+00	
47	-1.95300e+00	-1.77231e-03	-1.77577e+00	
48	-1.95200e+00	-1.77141e-03	-1.77486e+00	
49	-1.95100e+00	-1.77051e-03	-1.77395e+00	
50	-1.95000e+00	-1.76961e-03	-1.77304e+00	
51	-1.94900e+00	-1.76871e-03	-1.77213e+00	
52	-1.94800e+00	-1.76781e-03	-1.77122e+00	
53	-1.94700e+00	-1.76691e-03	-1.77031e+00	
54	-1.94600e+00	-1.76600e-03	-1.76940e+00	

Index   v-sweep         -i(vs)          v(2)            
--------------------------------------------------------------------------------
55	-1.94500e+00	-1.76510e-03	-1.76849e+00	
56	-1.94400e+00	-1.76420e-03	-1.76758e+00	
57	-1.94300e+00	-1.76330e-03	-1.76667e+00	
58	-1.94200e+00	-1.76240e-03	-1.76576e+00	
59	-1.94100e+00	-1.76150e-03	-1.76485e+00	
60	-1.94000e+00	-1.76060e-03	-1.76394e+00	
61	-1.93900e+00	-1.75970e-03	-1.76303e+00	
62	-1.93800e+00	-1.75880e-03	-1.76212e+00	
63	-1.93700e+00	-1.75790e-03	-1.76121e+00	
64	-1.93600e+00	-1.75700e-03	-1.76030e+00	
65	-1.93500e+00	-1.75609e-03	-1.75939e+00	
66	-1.93400e+00	-1.75519e-03	-1.75848e+00	
67	-1.93300e+00	-1.75429e-03	-1.75757e+00	
68	-1.93200e+00	-1.75339e-03	-1.75666e+00	
69	-1.93100e+00	-1.75249e-03	-1.75575e+00	
70	-1.93000e+00	-1.75159e-03	-1.75484e+00	
71	-1.92900e+00	-1.75069e-03	-1.75393e+00	
72	-1.92800e+00	-1.74979e-03	-1.75302e+00	
73	-1.92700e+00	-1.74889e-03	-1.75211e+00	
74	-1.92600e+00	-1.74799e-03	-1.75120e+00	
75	-1.92500e+00	-1.74709e-03	-1.75029e+00	
76	-1.92400e+00	-1.74618e-03	-1.74938e+00	
77	-1.92300e+00	-1.74528e-03	-1.74847e+00	
78	-1.92200e+00	-1.74438e-03	-1.74756e+00	
79	-1.92100e+00	-1.74348e-03	-1.74665e+00	
80	-1.92000e+00	-1.74258e-03	-1.74574e+00	
81	-1.91900e+00	-1.74168e-03	-1.74483e+00	
82	-1.91800e+00	-1.74078e-03	-1.74392e+00	
83	-1.91700e+00	-1.73988e-03	-1.74301e+00	
84	-1.91600e+00	-1.73898e-03	-1.74210e+00	
85	-1.91500e+00	-1.73808e-03	-1.74119e+00	
86	-1.91400e+00	-1.73718e-03	-1.74028e+00	
87	-1.91300e+00	-1.73627e-03	-1.73937e+00	
88	-1.91200e+00	-1.73537e-03	-1.73846e+00	
89	-1.91100e+00	-1.73447e-03	-1.73755e+00	
90	-1.91000e+00	-1.73357e-03	-1.73664e+00	
91	-1.90900e+00	-1.73267e-03	-1.73573e+00	
92	-1.90800e+00	-1.73177e-03	-1.73482e+00	
93	-1.90700e+00	-1.73087e-03	-1.73391e+00	
94	-1.90600e+00	-1.72997e-03	-1.73300e+00	
95	-1.90500e+00	-1.72907e-03	-1.73209e+00	
96	-1.90400e+00	-1.72817e-03	-1.73118e+00	
97	-1.90300e+00	-1.72727e-03	-1.73027e+00	
98	-1.90200e+00	-1.72636e-03	-1.72936e+00	
99	-1.90100e+00	-1.72546e-03	-1.72845e+00	
100	-1.90000e+00	-1.72456e-03	-1.72754e+00	
101	-1.89900e+00	-1.72366e-03	-1.72663e+00	
102	-1.89800e+00	-1.72276e-03	-1.72572e+00	
103	-1.89700e+00	-1.72186e-03	-1.72481e+00	
104	-1.89600e+00	-1.72096e-03	-1.72390e+00	
105	-1.89500e+00	-1.72006e-03	-1.72299e+00	
106	-1.89400e+00	-1.71916e-03	-1.72208e+00	
107	-1.89300e+00	-1.71826e-03	-1.72117e+00	
108	-1.89200e+00	-1.71736e-03	-1.72026e+00	
109	-1.89100e+00	-1.71645e-03	-1.71935e+00	
110	-1.89000e+00	-1.71555e-03	-1.71844e+00	
111	-1.88900e+00	-1.71465e-03	-1.71753e+00	
112	-1.88800e+00	-1.71375e-03	-1.71662e+00	

Index   v-sweep         -i(vs)          v(2)            
--------------------------------------------------------------------------------
113	-1.88700e+00	-1.71285e-03	-1.71571e+00	
114	-1.88600e+00	-1.71195e-03	-1.71480e+00	
115	-1.88500e+00	-1.71105e-03	-1.71390e+00	
116	-1.88400e+00	-1.71015e-03	-1.71299e+00	
117	-1.88300e+00	-1.70925e-03	-1.71208e+00	
118	-1.88200e+00	-1.70835e-03	-1.71117e+00	
119	-1.88100e+00	-1.70745e-03	-1.71026e+00	
120	-1.88000e+00	-1.70654e-03	-1.70935e+00	
121	-1.87900e+00	-1.70564e-03	-1.70844e+00	
122	-1.87800e+00	-1.70474e-03	-1.70753e+00	
123	-1.87700e+00	-1.70384e-03	-1.70662e+00	
124	-1.87600e+00	-1.70294e-03	-1.70571e+00	
125	-1.87500e+00	-1.70204e-03	-1.70480e+00	
126	-1.87400e+00	-1.70114e-03	-1.70389e+00	
127	-1.87300e+00	-1.70024e-03	-1.70298e+00	
128	-1.87200e+00	-1.69934e-03	-1.70207e+00	
129	-1.87100e+00	-1.69844e-03	-1.70116e+00	
130	-1.87000e+00	-1.69754e-03	-1.70025e+00	
131	-1.86900e+00	-1.69663e-03	-1.69934e+00	
132	-1.86800e+00	-1.69573e-03	-1.69843e+00	
133	-1.86700e+00	-1.69483e-03	-1.69752e+00	
134	-1.86600e+00	-1.69393e-03	-1.69661e+00	
135	-1.86500e+00	-1.69303e-03	-1.69570e+00	
136	-1.86400e+00	-1.69213e-03	-1.69479e+00	
137	-1.86300e+00	-1.69123e-03	-1.69388e+00	
138	-1.86200e+00	-1.69033e-03	-1.69297e+00	
139	-1.86100e+00	-1.68943e-03	-1.69206e+00	
140	-1.86000e+00	-1.68853e-03	-1.69115e+00	
141	-1.85900e+00	-1.68763e-03	-1.69024e+00	
142	-1.85800e+00	-1.68672e-03	-1.68933e+00	
143	-1.85700e+00	-1.68582e-03	-1.68842e+00	
144	-1.85600e+00	-1.68492e-03	-1.68751e+00	
145	-1.85500e+00	-1.68402e-03	-1.68660e+00	
146	-1.85400e+00	-1.68312e-03	-1.68569e+00	
147	-1.85300e+00	-1.68222e-03	-1.68478e+00	
148	-1.85200e+00	-1.68132e-03	-1.68387e+00	
149	-1.85100e+00	-1.68042e-03	-1.68296e+00	
150	-1.85000e+00	-1.67952e-03	-1.68205e+00	
151	-1.84900e+00	-1.67862e-03	-1.68114e+00	
152	-1.84800e+00	-1.67772e-03	-1.68023e+00	
153	-1.84700e+00	-1.67682e-03	-1.67932e+00	
154	-1.84600e+00	-1.67591e-03	-1.67841e+00	
155	-1.84500e+00	-1.67501e-03	-1.67750e+00	
156	-1.84400e+00	-1.67411e-03	-1.67659e+00	
157	-1.84300e+00	-1.67321e-03	-1.67568e+00	
158	-1.84200e+00	-1.67231e-03	-1.67477e+00	
159	-1.84100e+00	-1.67141e-03	-1.67386e+00	
160	-1.84000e+00	-1.67051e-03	-1.67295e+00	
161	-1.83900e+00	-1.66961e-03	-1.67204e+00	
162	-1.83800e+00	-1.66871e-03	-1.67113e+00	
163	-1.83700e+00	-1.66781e-03	-1.67022e+00	
164	-1.83600e+00	-1.66691e-03	-1.66931e+00	
165	-1.83500e+00	-1.66600e-03	-1.66840e+00	
166	-1.83400e+00	-1.66510e-03	-1.66749e+00	
167	-1.83300e+00	-1.66420e-03	-1.66658e+00	
168	-1.83200e+00	-1.66330e-03	-1.66567e+00	
169	-1.83100e+00	-1.66240e-03	-1.66476e+00	
170	-1.83000e+00	-1.66150e-03	-1.66385e+00	

Index   v-sweep         -i(vs)          v(2)            
--------------------------------------------------------------------------------
171	-1.82900e+00	-1.66060e-03	-1.66294e+00	
172	-1.82800e+00	-1.65970e-03	-1.66203e+00	
173	-1.82700e+00	-1.65880e-03	-1.66112e+00	
174	-1.82600e+00	-1.65790e-03	-1.66021e+00	
175	-1.82500e+00	-1.65700e-03	-1.65930e+00	
176	-1.82400e+00	-1.65609e-03	-1.65839e+00	
177	-1.82300e+00	-1.65519e-03	-1.65748e+00	
178	-1.82200e+00	-1.65429e-03	-1.65657e+00	
179	-1.82100e+00	-1.65339e-03	-1.65566e+00	
180	-1.82000e+00	-1.65249e-03	-1.65475e+00	
181	-1.81900e+00	-1.65159e-03	-1.65384e+00	
182	-1.81800e+00	-1.65069e-03	-1.65293e+00	
183	-1.81700e+00	-1.64979e-03	-1.65202e+00	
184	-1.81600e+00	-1.64889e-03	-1.65111e+00	
185	-1.81500e+00	-1.64799e-03	-1.65020e+00	
186	-1.81400e+00	-1.64709e-03	-1.64929e+00	
187	-1.81300e+00	-1.64618e-03	-1.64838e+00	
188	-1.81200e+00	-1.64528e-03	-1.64747e+00	
189	-1.81100e+00	-1.64438e-03	-1.64656e+00	
190	-1.81000e+00	-1.64348e-03	-1.64565e+00	
191	-1.80900e+00	-1.64258e-03	-1.64474e+00	
192	-1.80800e+00	-1.64168e-03	-1.64383e+00	
193	-1.80700e+00	-1.64078e-03	-1.64292e+00	
194	-1.80600e+00	-1.63988e-03	-1.64201e+00	
195	-1.80500e+00	-1.63898e-03	-1.64110e+00	
196	-1.80400e+00	-1.63808e-03	-1.64019e+00	
197	-1.80300e+00	-1.63718e-03	-1.63928e+00	
198	-1.80200e+00	-1.63627e-03	-1.63837e+00	
199	-1.80100e+00	-1.63537e-03	-1.63746e+00	
200	-1.80000e+00	-1.63447e-03	-1.63655e+00	
201	-1.79900e+00	-1.63357e-03	-1.63564e+00	
202	-1.79800e+00	-1.63267e-03	-1.63473e+00	
203	-1.79700e+00	-1.63177e-03	-1.63382e+00	
204	-1.79600e+00	-1.63087e-03	-1.63291e+00	
205	-1.79500e+00	-1.62997e-03	-1.63200e+00	
206	-1.79400e+00	-1.62907e-03	-1.63109e+00	
207	-1.79300e+00	-1.62817e-03	-1.63018e+00	
208	-1.79200e+00	-1.62727e-03	-1.62927e+00	
209	-1.79100e+00	-1.62636e-03	-1.62836e+00	
210	-1.79000e+00	-1.62546e-03	-1.62745e+00	
211	-1.78900e+00	-1.62456e-03	-1.62654e+00	
212	-1.78800e+00	-1.62366e-03	-1.62563e+00	
213	-1.78700e+00	-1.62276e-03	-1.62472e+00	
214	-1.78600e+00	-1.62186e-03	-1.62381e+00	
215	-1.78500e+00	-1.62096e-03	-1.62290e+00	
216	-1.78400e+00	-1.62006e-03	-1.62199e+00	
217	-1.78300e+00	-1.61916e-03	-1.62108e+00	
218	-1.78200e+00	-1.61826e-03	-1.62017e+00	
219	-1.78100e+00	-1.61736e-03	-1.61926e+00	
220	-1.78000e+00	-1.61645e-03	-1.61835e+00	
221	-1.77900e+00	-1.61555e-03	-1.61744e+00	
222	-1.77800e+00	-1.61465e-03	-1.61653e+00	
223	-1.77700e+00	-1.61375e-03	-1.61562e+00	
224	-1.77600e+00	-1.61285e-03	-1.61471e+00	
225	-1.77500e+00	-1.61195e-03	-1.61380e+00	
226	-1.77400e+00	-1.61105e-03	-1.61290e+00	
227	-1.77300e+00	-1.61015e-03	-1.61199e+00	
228	-1.77200e+00	-1.60925e-03	-1.61108e+00	

Index   v-sweep         -i(vs)          v(2)            
--------------------------------------------------------------------------------
229	-1.77100e+00	-1.60835e-03	-1.61017e+00	
230	-1.77000e+00	-1.60745e-03	-1.60926e+00	
231	-1.76900e+00	-1.60654e-03	-1.60835e+00	
232	-1.76800e+00	-1.60564e-03	-1.60744e+00	
233	-1.76700e+00	-1.60474e-03	-1.60653e+00	
234	-1.76600e+00	-1.60384e-03	-1.60562e+00	
235	-1.76500e+00	-1.60294e-03	-1.60471e+00	
236	-1.76400e+00	-1.60204e-03	-1.60380e+00	
237	-1.76300e+00	-1.60114e-03	-1.60289e+00	
238	-1.76200e+00	-1.60024e-03	-1.60198e+00	
239	-1.76100e+00	-1.59934e-03	-1.60107e+00	
240	-1.76000e+00	-1.59844e-03	-1.60016e+00	
241	-1.75900e+00	-1.59754e-03	-1.59925e+00	
242	-1.75800e+00	-1.59663e-03	-1.59834e+00	
243	-1.75700e+00	-1.59573e-03	-1.59743e+00	
244	-1.75600e+00	-1.59483e-03	-1.59652e+00	
245	-1.75500e+00	-1.59393e-03	-1.59561e+00	
246	-1.75400e+00	-1.59303e-03	-1.59470e+00	
247	-1.75300e+00	-1.59213e-03	-1.59379e+00	
248	-1.75200e+00	-1.59123e-03	-1.59288e+00	
249	-1.75100e+00	-1.59033e-03	-1.59197e+00	
250	-1.75000e+00	-1.58943e-03	-1.59106e+00	
251	-1.74900e+00	-1.58853e-03	-1.59015e+00	
252	-1.74800e+00	-1.58763e-03	-1.58924e+00	
253	-1.74700e+00	-1.58672e-03	-1.58833e+00	
254	-1.74600e+00	-1.58582e-03	-1.58742e+00	
255	-1.74500e+00	-1.58492e-03	-1.58651e+00	
256	-1.74400e+00	-1.58402e-03	-1.58560e+00	
257	-1.74300e+00	-1.58312e-03	-1.58469e+00	
258	-1.74200e+00	-1.58222e-03	-1.58378e+00	
259	-1.74100e+00	-1.58132e-03	-1.58287e+00	
260	-1.74000e+00	-1.58042e-03	-1.58196e+00	
261	-1.73900e+00	-1.57952e-03	-1.58105e+00	
262	-1.73800e+00	-1.57862e-03	-1.58014e+00	
263	-1.73700e+00	-1.57772e-03	-1.57923e+00	
264	-1.73600e+00	-1.57681e-03	-1.57832e+00	
265	-1.73500e+00	-1.57591e-03	-1.57741e+00	
266	-1.73400e+00	-1.57501e-03	-1.57650e+00	
267	-1.73300e+00	-1.57411e-03	-1.57559e+00	
268	-1.73200e+00	-1.57321e-03	-1.57468e+00	
269	-1.73100e+00	-1.57231e-03	-1.57377e+00	
270	-1.73000e+00	-1.57141e-03	-1.57286e+00	
271	-1.72900e+00	-1.57051e-03	-1.57195e+00	
272	-1.72800e+00	-1.56961e-03	-1.57104e+00	
273	-1.72700e+00	-1.56871e-03	-1.57013e+00	
274	-1.72600e+00	-1.56781e-03	-1.56922e+00	
275	-1.72500e+00	-1.56691e-03	-1.56831e+00	
276	-1.72400e+00	-1.56600e-03	-1.56740e+00	
277	-1.72300e+00	-1.56510e-03	-1.56649e+00	
278	-1.72200e+00	-1.56420e-03	-1.56558e+00	
279	-1.72100e+00	-1.56330e-03	-1.56467e+00	
280	-1.72000e+00	-1.56240e-03	-1.56376e+00	
281	-1.71900e+00	-1.56150e-03	-1.56285e+00	
282	-1.71800e+00	-1.56060e-03	-1.56194e+00	
283	-1.71700e+00	-1.55970e-03	-1.56103e+00	
284	-1.71600e+00	-1.55880e-03	-1.56012e+00	
285	-1.71500e+00	-1.55790e-03	-1.55921e+00	
286	-1.71400e+00	-1.55700e-03	-1.55830e+00	

Index   v-sweep         -i(vs)          v(2)            
--------------------------------------------------------------------------------
287	-1.71300e+00	-1.55609e-03	-1.55739e+00	
288	-1.71200e+00	-1.55519e-03	-1.55648e+00	
289	-1.71100e+00	-1.55429e-03	-1.55557e+00	
290	-1.71000e+00	-1.55339e-03	-1.55466e+00	
291	-1.70900e+00	-1.55249e-03	-1.55375e+00	
292	-1.70800e+00	-1.55159e-03	-1.55284e+00	
293	-1.70700e+00	-1.55069e-03	-1.55193e+00	
294	-1.70600e+00	-1.54979e-03	-1.55102e+00	
295	-1.70500e+00	-1.54889e-03	-1.55011e+00	
296	-1.70400e+00	-1.54799e-03	-1.54920e+00	
297	-1.70300e+00	-1.54709e-03	-1.54829e+00	
298	-1.70200e+00	-1.54618e-03	-1.54738e+00	
299	-1.70100e+00	-1.54528e-03	-1.54647e+00	
300	-1.70000e+00	-1.54438e-03	-1.54556e+00	
301	-1.69900e+00	-1.54348e-03	-1.54465e+00	
302	-1.69800e+00	-1.54258e-03	-1.54374e+00	
303	-1.69700e+00	-1.54168e-03	-1.54283e+00	
304	-1.69600e+00	-1.54078e-03	-1.54192e+00	
305	-1.69500e+00	-1.53988e-03	-1.54101e+00	
306	-1.69400e+00	-1.53898e-03	-1.54010e+00	
307	-1.69300e+00	-1.53808e-03	-1.53919e+00	
308	-1.69200e+00	-1.53718e-03	-1.53828e+00	
309	-1.69100e+00	-1.53627e-03	-1.53737e+00	
310	-1.69000e+00	-1.53537e-03	-1.53646e+00	
311	-1.68900e+00	-1.53447e-03	-1.53555e+00	
312	-1.68800e+00	-1.53357e-03	-1.53464e+00	
313	-1.68700e+00	-1.53267e-03	-1.53373e+00	
314	-1.68600e+00	-1.53177e-03	-1.53282e+00	
315	-1.68500e+00	-1.53087e-03	-1.53191e+00	
316	-1.68400e+00	-1.52997e-03	-1.53100e+00	
317	-1.68300e+00	-1.52907e-03	-1.53009e+00	
318	-1.68200e+00	-1.52817e-03	-1.52918e+00	
319	-1.68100e+00	-1.52727e-03	-1.52827e+00	
320	-1.68000e+00	-1.52636e-03	-1.52736e+00	
321	-1.67900e+00	-1.52546e-03	-1.52645e+00	
322	-1.67800e+00	-1.52456e-03	-1.52554e+00	
323	-1.67700e+00	-1.52366e-03	-1.52463e+00	
324	-1.67600e+00	-1.52276e-03	-1.52372e+00	
325	-1.67500e+00	-1.52186e-03	-1.52281e+00	
326	-1.67400e+00	-1.52096e-03	-1.52190e+00	
327	-1.67300e+00	-1.52006e-03	-1.52099e+00	
328	-1.67200e+00	-1.51916e-03	-1.52008e+00	
329	-1.67100e+00	-1.51826e-03	-1.51917e+00	
330	-1.67000e+00	-1.51736e-03	-1.51826e+00	
331	-1.66900e+00	-1.51645e-03	-1.51735e+00	
332	-1.66800e+00	-1.51555e-03	-1.51644e+00	
333	-1.66700e+00	-1.51465e-03	-1.51553e+00	
334	-1.66600e+00	-1.51375e-03	-1.51462e+00	
335	-1.66500e+00	-1.51285e-03	-1.51371e+00	
336	-1.66400e+00	-1.51195e-03	-1.51281e+00	
337	-1.66300e+00	-1.51105e-03	-1.51190e+00	
338	-1.66200e+00	-1.51015e-03	-1.51099e+00	
339	-1.66100e+00	-1.50925e-03	-1.51008e+00	
340	-1.66000e+00	-1.50835e-03	-1.50917e+00	
341	-1.65900e+00	-1.50745e-03	-1.50826e+00	
342	-1.65800e+00	-1.50654e-03	-1.50735e+00	
343	-1.65700e+00	-1.50564e-03	-1.50644e+00	
344	-1.65600e+00	-1.50474e-03	-1.50553e+00	

Index   v-sweep         -i(vs)          v(2)            
--------------------------------------------------------------------------------
345	-1.65500e+00	-1.50384e-03	-1.50462e+00	
346	-1.65400e+00	-1.50294e-03	-1.50371e+00	
347	-1.65300e+00	-1.50204e-03	-1.50280e+00	
348	-1.65200e+00	-1.50114e-03	-1.50189e+00	
349	-1.65100e+00	-1.50024e-03	-1.50098e+00	
350	-1.65000e+00	-1.49934e-03	-1.50007e+00	
351	-1.64900e+00	-1.49844e-03	-1.49916e+00	
352	-1.64800e+00	-1.49754e-03	-1.49825e+00	
353	-1.64700e+00	-1.49663e-03	-1.49734e+00	
354	-1.64600e+00	-1.49573e-03	-1.49643e+00	
355	-1.64500e+00	-1.49483e-03	-1.49552e+00	
356	-1.64400e+00	-1.49393e-03	-1.49461e+00	
357	-1.64300e+00	-1.49303e-03	-1.49370e+00	
358	-1.64200e+00	-1.49213e-03	-1.49279e+00	
359	-1.64100e+00	-1.49123e-03	-1.49188e+00	
360	-1.64000e+00	-1.49033e-03	-1.49097e+00	
361	-1.63900e+00	-1.48943e-03	-1.49006e+00	
362	-1.63800e+00	-1.48853e-03	-1.48915e+00	
363	-1.63700e+00	-1.48763e-03	-1.48824e+00	
364	-1.63600e+00	-1.48672e-03	-1.48733e+00	
365	-1.63500e+00	-1.48582e-03	-1.48642e+00	
366	-1.63400e+00	-1.48492e-03	-1.48551e+00	
367	-1.63300e+00	-1.48402e-03	-1.48460e+00	
368	-1.63200e+00	-1.48312e-03	-1.48369e+00	
369	-1.63100e+00	-1.48222e-03	-1.48278e+00	
370	-1.63000e+00	-1.48132e-03	-1.48187e+00	
371	-1.62900e+00	-1.48042e-03	-1.48096e+00	
372	-1.62800e+00	-1.47952e-03	-1.48005e+00	
373	-1.62700e+00	-1.47862e-03	-1.47914e+00	
374	-1.62600e+00	-1.47772e-03	-1.47823e+00	
375	-1.62500e+00	-1.47681e-03	-1.47732e+00	
376	-1.62400e+00	-1.47591e-03	-1.47641e+00	
377	-1.62300e+00	-1.47501e-03	-1.47550e+00	
378	-1.62200e+00	-1.47411e-03	-1.47459e+00	
379	-1.62100e+00	-1.47321e-03	-1.47368e+00	
380	-1.62000e+00	-1.47231e-03	-1.47277e+00	
381	-1.61900e+00	-1.47141e-03	-1.47186e+00	
382	-1.61800e+00	-1.47051e-03	-1.47095e+00	
383	-1.61700e+00	-1.46961e-03	-1.47004e+00	
384	-1.61600e+00	-1.46871e-03	-1.46913e+00	
385	-1.61500e+00	-1.46781e-03	-1.46822e+00	
386	-1.61400e+00	-1.46690e-03	-1.46731e+00	
387	-1.61300e+00	-1.46600e-03	-1.46640e+00	
388	-1.61200e+00	-1.46510e-03	-1.46549e+00	
389	-1.61100e+00	-1.46420e-03	-1.46458e+00	
390	-1.61000e+00	-1.46330e-03	-1.46367e+00	
391	-1.60900e+00	-1.46240e-03	-1.46276e+00	
392	-1.60800e+00	-1.46150e-03	-1.46185e+00	
393	-1.60700e+00	-1.46060e-03	-1.46094e+00	
394	-1.60600e+00	-1.45970e-03	-1.46003e+00	
395	-1.60500e+00	-1.45880e-03	-1.45912e+00	
396	-1.60400e+00	-1.45790e-03	-1.45821e+00	
397	-1.60300e+00	-1.45699e-03	-1.45730e+00	
398	-1.60200e+00	-1.45609e-03	-1.45639e+00	
399	-1.60100e+00	-1.45519e-03	-1.45548e+00	
400	-1.60000e+00	-1.45429e-03	-1.45457e+00	
401	-1.59900e+00	-1.45339e-03	-1.45366e+00	
402	-1.59800e+00	-1.45249e-03	-1.45275e+00	

Index   v-sweep         -i(vs)          v(2)            
--------------------------------------------------------------------------------
403	-1.59700e+00	-1.45159e-03	-1.45184e+00	
404	-1.59600e+00	-1.45069e-03	-1.45093e+00	
405	-1.59500e+00	-1.44979e-03	-1.45002e+00	
406	-1.59400e+00	-1.44889e-03	-1.44911e+00	
407	-1.59300e+00	-1.44799e-03	-1.44820e+00	
408	-1.59200e+00	-1.44708e-03	-1.44729e+00	
409	-1.59100e+00	-1.44618e-03	-1.44638e+00	
410	-1.59000e+00	-1.44528e-03	-1.44547e+00	
411	-1.58900e+00	-1.44438e-03	-1.44456e+00	
412	-1.58800e+00	-1.44348e-03	-1.44365e+00	
413	-1.58700e+00	-1.44258e-03	-1.44274e+00	
414	-1.58600e+00	-1.44168e-03	-1.44183e+00	
415	-1.58500e+00	-1.44078e-03	-1.44092e+00	
416	-1.58400e+00	-1.43988e-03	-1.44001e+00	
417	-1.58300e+00	-1.43898e-03	-1.43910e+00	
418	-1.58200e+00	-1.43808e-03	-1.43819e+00	
419	-1.58100e+00	-1.43718e-03	-1.43728e+00	
420	-1.58000e+00	-1.43627e-03	-1.43637e+00	
421	-1.57900e+00	-1.43537e-03	-1.43546e+00	
422	-1.57800e+00	-1.43447e-03	-1.43455e+00	
423	-1.57700e+00	-1.43357e-03	-1.43364e+00	
424	-1.57600e+00	-1.43267e-03	-1.43273e+00	
425	-1.57500e+00	-1.43177e-03	-1.43182e+00	
