     i-v characteristic of solar cell for different levels of illumination
     DC transfer characteristic  Sun Sep 25 21:58:28  2022
--------------------------------------------------------------------------------
Index   v-sweep         -i(vs)          v(2)            
--------------------------------------------------------------------------------
0	-2.00000e+00	-1.82582e-03	-1.81742e+00	
1	-1.99900e+00	-1.82492e-03	-1.81651e+00	
2	-1.99800e+00	-1.82402e-03	-1.81560e+00	
3	-1.99700e+00	-1.82312e-03	-1.81469e+00	
4	-1.99600e+00	-1.82222e-03	-1.81378e+00	
5	-1.99500e+00	-1.82132e-03	-1.81287e+00	
6	-1.99400e+00	-1.82042e-03	-1.81196e+00	
7	-1.99300e+00	-1.81952e-03	-1.81105e+00	
8	-1.99200e+00	-1.81861e-03	-1.81014e+00	
9	-1.99100e+00	-1.81771e-03	-1.80923e+00	
10	-1.99000e+00	-1.81681e-03	-1.80832e+00	
11	-1.98900e+00	-1.81591e-03	-1.80741e+00	
12	-1.98800e+00	-1.81501e-03	-1.80650e+00	
13	-1.98700e+00	-1.81411e-03	-1.80559e+00	
14	-1.98600e+00	-1.81321e-03	-1.80468e+00	
15	-1.98500e+00	-1.81231e-03	-1.80377e+00	
16	-1.98400e+00	-1.81141e-03	-1.80286e+00	
17	-1.98300e+00	-1.81051e-03	-1.80195e+00	
18	-1.98200e+00	-1.80961e-03	-1.80104e+00	
19	-1.98100e+00	-1.80870e-03	-1.80013e+00	
20	-1.98000e+00	-1.80780e-03	-1.79922e+00	
21	-1.97900e+00	-1.80690e-03	-1.79831e+00	
22	-1.97800e+00	-1.80600e-03	-1.79740e+00	
23	-1.97700e+00	-1.80510e-03	-1.79649e+00	
24	-1.97600e+00	-1.80420e-03	-1.79558e+00	
25	-1.97500e+00	-1.80330e-03	-1.79467e+00	
26	-1.97400e+00	-1.80240e-03	-1.79376e+00	
27	-1.97300e+00	-1.80150e-03	-1.79285e+00	
28	-1.97200e+00	-1.80060e-03	-1.79194e+00	
29	-1.97100e+00	-1.79970e-03	-1.79103e+00	
30	-1.97000e+00	-1.79879e-03	-1.79012e+00	
31	-1.96900e+00	-1.79789e-03	-1.78921e+00	
32	-1.96800e+00	-1.79699e-03	-1.78830e+00	
33	-1.96700e+00	-1.79609e-03	-1.78739e+00	
34	-1.96600e+00	-1.79519e-03	-1.78648e+00	
35	-1.96500e+00	-1.79429e-03	-1.78557e+00	
36	-1.96400e+00	-1.79339e-03	-1.78466e+00	
37	-1.96300e+00	-1.79249e-03	-1.78375e+00	
38	-1.96200e+00	-1.79159e-03	-1.78284e+00	
39	-1.96100e+00	-1.79069e-03	-1.78193e+00	
40	-1.96000e+00	-1.78979e-03	-1.78102e+00	
41	-1.95900e+00	-1.78888e-03	-1.78011e+00	
42	-1.95800e+00	-1.78798e-03	-1.77920e+00	
43	-1.95700e+00	-1.78708e-03	-1.77829e+00	
44	-1.95600e+00	-1.78618e-03	-1.77738e+00	
45	-1.95500e+00	-1.78528e-03	-1.77647e+00	
46	-1.95400e+00	-1.78438e-03	-1.77556e+00	
47	-1.95300e+00	-1.78348e-03	-1.77465e+00	
48	-1.95200e+00	-1.78258e-03	-1.77374e+00	
49	-1.95100e+00	-1.78168e-03	-1.77283e+00	
50	-1.95000e+00	-1.78078e-03	-1.77192e+00	
51	-1.94900e+00	-1.77988e-03	-1.77101e+00	
52	-1.94800e+00	-1.77897e-03	-1.77010e+00	
53	-1.94700e+00	-1.77807e-03	-1.76919e+00	
54	-1.94600e+00	-1.77717e-03	-1.76828e+00	

Index   v-sweep         -i(vs)          v(2)            
--------------------------------------------------------------------------------
55	-1.94500e+00	-1.77627e-03	-1.76737e+00	
56	-1.94400e+00	-1.77537e-03	-1.76646e+00	
57	-1.94300e+00	-1.77447e-03	-1.76555e+00	
58	-1.94200e+00	-1.77357e-03	-1.76464e+00	
59	-1.94100e+00	-1.77267e-03	-1.76373e+00	
60	-1.94000e+00	-1.77177e-03	-1.76282e+00	
61	-1.93900e+00	-1.77087e-03	-1.76191e+00	
62	-1.93800e+00	-1.76997e-03	-1.76100e+00	
63	-1.93700e+00	-1.76906e-03	-1.76009e+00	
64	-1.93600e+00	-1.76816e-03	-1.75918e+00	
65	-1.93500e+00	-1.76726e-03	-1.75827e+00	
66	-1.93400e+00	-1.76636e-03	-1.75736e+00	
67	-1.93300e+00	-1.76546e-03	-1.75645e+00	
68	-1.93200e+00	-1.76456e-03	-1.75554e+00	
69	-1.93100e+00	-1.76366e-03	-1.75463e+00	
70	-1.93000e+00	-1.76276e-03	-1.75372e+00	
71	-1.92900e+00	-1.76186e-03	-1.75281e+00	
72	-1.92800e+00	-1.76096e-03	-1.75190e+00	
73	-1.92700e+00	-1.76006e-03	-1.75099e+00	
74	-1.92600e+00	-1.75915e-03	-1.75008e+00	
75	-1.92500e+00	-1.75825e-03	-1.74917e+00	
76	-1.92400e+00	-1.75735e-03	-1.74826e+00	
77	-1.92300e+00	-1.75645e-03	-1.74735e+00	
78	-1.92200e+00	-1.75555e-03	-1.74644e+00	
79	-1.92100e+00	-1.75465e-03	-1.74553e+00	
80	-1.92000e+00	-1.75375e-03	-1.74463e+00	
81	-1.91900e+00	-1.75285e-03	-1.74372e+00	
82	-1.91800e+00	-1.75195e-03	-1.74281e+00	
83	-1.91700e+00	-1.75105e-03	-1.74190e+00	
84	-1.91600e+00	-1.75015e-03	-1.74099e+00	
85	-1.91500e+00	-1.74924e-03	-1.74008e+00	
86	-1.91400e+00	-1.74834e-03	-1.73917e+00	
87	-1.91300e+00	-1.74744e-03	-1.73826e+00	
88	-1.91200e+00	-1.74654e-03	-1.73735e+00	
89	-1.91100e+00	-1.74564e-03	-1.73644e+00	
90	-1.91000e+00	-1.74474e-03	-1.73553e+00	
91	-1.90900e+00	-1.74384e-03	-1.73462e+00	
92	-1.90800e+00	-1.74294e-03	-1.73371e+00	
93	-1.90700e+00	-1.74204e-03	-1.73280e+00	
94	-1.90600e+00	-1.74114e-03	-1.73189e+00	
95	-1.90500e+00	-1.74024e-03	-1.73098e+00	
96	-1.90400e+00	-1.73933e-03	-1.73007e+00	
97	-1.90300e+00	-1.73843e-03	-1.72916e+00	
98	-1.90200e+00	-1.73753e-03	-1.72825e+00	
99	-1.90100e+00	-1.73663e-03	-1.72734e+00	
100	-1.90000e+00	-1.73573e-03	-1.72643e+00	
101	-1.89900e+00	-1.73483e-03	-1.72552e+00	
102	-1.89800e+00	-1.73393e-03	-1.72461e+00	
103	-1.89700e+00	-1.73303e-03	-1.72370e+00	
104	-1.89600e+00	-1.73213e-03	-1.72279e+00	
105	-1.89500e+00	-1.73123e-03	-1.72188e+00	
106	-1.89400e+00	-1.73033e-03	-1.72097e+00	
107	-1.89300e+00	-1.72943e-03	-1.72006e+00	
108	-1.89200e+00	-1.72852e-03	-1.71915e+00	
109	-1.89100e+00	-1.72762e-03	-1.71824e+00	
110	-1.89000e+00	-1.72672e-03	-1.71733e+00	
111	-1.88900e+00	-1.72582e-03	-1.71642e+00	
112	-1.88800e+00	-1.72492e-03	-1.71551e+00	

Index   v-sweep         -i(vs)          v(2)            
--------------------------------------------------------------------------------
113	-1.88700e+00	-1.72402e-03	-1.71460e+00	
114	-1.88600e+00	-1.72312e-03	-1.71369e+00	
115	-1.88500e+00	-1.72222e-03	-1.71278e+00	
116	-1.88400e+00	-1.72132e-03	-1.71187e+00	
117	-1.88300e+00	-1.72042e-03	-1.71096e+00	
118	-1.88200e+00	-1.71952e-03	-1.71005e+00	
119	-1.88100e+00	-1.71861e-03	-1.70914e+00	
120	-1.88000e+00	-1.71771e-03	-1.70823e+00	
121	-1.87900e+00	-1.71681e-03	-1.70732e+00	
122	-1.87800e+00	-1.71591e-03	-1.70641e+00	
123	-1.87700e+00	-1.71501e-03	-1.70550e+00	
124	-1.87600e+00	-1.71411e-03	-1.70459e+00	
125	-1.87500e+00	-1.71321e-03	-1.70368e+00	
126	-1.87400e+00	-1.71231e-03	-1.70277e+00	
127	-1.87300e+00	-1.71141e-03	-1.70186e+00	
128	-1.87200e+00	-1.71051e-03	-1.70095e+00	
129	-1.87100e+00	-1.70961e-03	-1.70004e+00	
130	-1.87000e+00	-1.70870e-03	-1.69913e+00	
131	-1.86900e+00	-1.70780e-03	-1.69822e+00	
132	-1.86800e+00	-1.70690e-03	-1.69731e+00	
133	-1.86700e+00	-1.70600e-03	-1.69640e+00	
134	-1.86600e+00	-1.70510e-03	-1.69549e+00	
135	-1.86500e+00	-1.70420e-03	-1.69458e+00	
136	-1.86400e+00	-1.70330e-03	-1.69367e+00	
137	-1.86300e+00	-1.70240e-03	-1.69276e+00	
138	-1.86200e+00	-1.70150e-03	-1.69185e+00	
139	-1.86100e+00	-1.70060e-03	-1.69094e+00	
140	-1.86000e+00	-1.69970e-03	-1.69003e+00	
141	-1.85900e+00	-1.69879e-03	-1.68912e+00	
142	-1.85800e+00	-1.69789e-03	-1.68821e+00	
143	-1.85700e+00	-1.69699e-03	-1.68730e+00	
144	-1.85600e+00	-1.69609e-03	-1.68639e+00	
145	-1.85500e+00	-1.69519e-03	-1.68548e+00	
146	-1.85400e+00	-1.69429e-03	-1.68457e+00	
147	-1.85300e+00	-1.69339e-03	-1.68366e+00	
148	-1.85200e+00	-1.69249e-03	-1.68275e+00	
149	-1.85100e+00	-1.69159e-03	-1.68184e+00	
150	-1.85000e+00	-1.69069e-03	-1.68093e+00	
151	-1.84900e+00	-1.68979e-03	-1.68002e+00	
152	-1.84800e+00	-1.68888e-03	-1.67911e+00	
153	-1.84700e+00	-1.68798e-03	-1.67820e+00	
154	-1.84600e+00	-1.68708e-03	-1.67729e+00	
155	-1.84500e+00	-1.68618e-03	-1.67638e+00	
156	-1.84400e+00	-1.68528e-03	-1.67547e+00	
157	-1.84300e+00	-1.68438e-03	-1.67456e+00	
158	-1.84200e+00	-1.68348e-03	-1.67365e+00	
159	-1.84100e+00	-1.68258e-03	-1.67274e+00	
160	-1.84000e+00	-1.68168e-03	-1.67183e+00	
161	-1.83900e+00	-1.68078e-03	-1.67092e+00	
162	-1.83800e+00	-1.67988e-03	-1.67001e+00	
163	-1.83700e+00	-1.67897e-03	-1.66910e+00	
164	-1.83600e+00	-1.67807e-03	-1.66819e+00	
165	-1.83500e+00	-1.67717e-03	-1.66728e+00	
166	-1.83400e+00	-1.67627e-03	-1.66637e+00	
167	-1.83300e+00	-1.67537e-03	-1.66546e+00	
168	-1.83200e+00	-1.67447e-03	-1.66455e+00	
169	-1.83100e+00	-1.67357e-03	-1.66364e+00	
170	-1.83000e+00	-1.67267e-03	-1.66273e+00	

Index   v-sweep         -i(vs)          v(2)            
--------------------------------------------------------------------------------
171	-1.82900e+00	-1.67177e-03	-1.66182e+00	
172	-1.82800e+00	-1.67087e-03	-1.66091e+00	
173	-1.82700e+00	-1.66997e-03	-1.66000e+00	
174	-1.82600e+00	-1.66906e-03	-1.65909e+00	
175	-1.82500e+00	-1.66816e-03	-1.65818e+00	
176	-1.82400e+00	-1.66726e-03	-1.65727e+00	
177	-1.82300e+00	-1.66636e-03	-1.65636e+00	
178	-1.82200e+00	-1.66546e-03	-1.65545e+00	
179	-1.82100e+00	-1.66456e-03	-1.65454e+00	
180	-1.82000e+00	-1.66366e-03	-1.65363e+00	
181	-1.81900e+00	-1.66276e-03	-1.65272e+00	
182	-1.81800e+00	-1.66186e-03	-1.65181e+00	
183	-1.81700e+00	-1.66096e-03	-1.65090e+00	
184	-1.81600e+00	-1.66006e-03	-1.64999e+00	
185	-1.81500e+00	-1.65915e-03	-1.64908e+00	
186	-1.81400e+00	-1.65825e-03	-1.64817e+00	
187	-1.81300e+00	-1.65735e-03	-1.64726e+00	
188	-1.81200e+00	-1.65645e-03	-1.64635e+00	
189	-1.81100e+00	-1.65555e-03	-1.64544e+00	
190	-1.81000e+00	-1.65465e-03	-1.64453e+00	
191	-1.80900e+00	-1.65375e-03	-1.64363e+00	
192	-1.80800e+00	-1.65285e-03	-1.64272e+00	
193	-1.80700e+00	-1.65195e-03	-1.64181e+00	
194	-1.80600e+00	-1.65105e-03	-1.64090e+00	
195	-1.80500e+00	-1.65015e-03	-1.63999e+00	
196	-1.80400e+00	-1.64924e-03	-1.63908e+00	
197	-1.80300e+00	-1.64834e-03	-1.63817e+00	
198	-1.80200e+00	-1.64744e-03	-1.63726e+00	
199	-1.80100e+00	-1.64654e-03	-1.63635e+00	
200	-1.80000e+00	-1.64564e-03	-1.63544e+00	
201	-1.79900e+00	-1.64474e-03	-1.63453e+00	
202	-1.79800e+00	-1.64384e-03	-1.63362e+00	
203	-1.79700e+00	-1.64294e-03	-1.63271e+00	
204	-1.79600e+00	-1.64204e-03	-1.63180e+00	
205	-1.79500e+00	-1.64114e-03	-1.63089e+00	
206	-1.79400e+00	-1.64024e-03	-1.62998e+00	
207	-1.79300e+00	-1.63933e-03	-1.62907e+00	
208	-1.79200e+00	-1.63843e-03	-1.62816e+00	
209	-1.79100e+00	-1.63753e-03	-1.62725e+00	
210	-1.79000e+00	-1.63663e-03	-1.62634e+00	
211	-1.78900e+00	-1.63573e-03	-1.62543e+00	
212	-1.78800e+00	-1.63483e-03	-1.62452e+00	
213	-1.78700e+00	-1.63393e-03	-1.62361e+00	
214	-1.78600e+00	-1.63303e-03	-1.62270e+00	
215	-1.78500e+00	-1.63213e-03	-1.62179e+00	
216	-1.78400e+00	-1.63123e-03	-1.62088e+00	
217	-1.78300e+00	-1.63033e-03	-1.61997e+00	
218	-1.78200e+00	-1.62942e-03	-1.61906e+00	
219	-1.78100e+00	-1.62852e-03	-1.61815e+00	
220	-1.78000e+00	-1.62762e-03	-1.61724e+00	
221	-1.77900e+00	-1.62672e-03	-1.61633e+00	
222	-1.77800e+00	-1.62582e-03	-1.61542e+00	
223	-1.77700e+00	-1.62492e-03	-1.61451e+00	
224	-1.77600e+00	-1.62402e-03	-1.61360e+00	
225	-1.77500e+00	-1.62312e-03	-1.61269e+00	
226	-1.77400e+00	-1.62222e-03	-1.61178e+00	
227	-1.77300e+00	-1.62132e-03	-1.61087e+00	
228	-1.77200e+00	-1.62042e-03	-1.60996e+00	

Index   v-sweep         -i(vs)          v(2)            
--------------------------------------------------------------------------------
229	-1.77100e+00	-1.61951e-03	-1.60905e+00	
230	-1.77000e+00	-1.61861e-03	-1.60814e+00	
231	-1.76900e+00	-1.61771e-03	-1.60723e+00	
232	-1.76800e+00	-1.61681e-03	-1.60632e+00	
233	-1.76700e+00	-1.61591e-03	-1.60541e+00	
234	-1.76600e+00	-1.61501e-03	-1.60450e+00	
235	-1.76500e+00	-1.61411e-03	-1.60359e+00	
236	-1.76400e+00	-1.61321e-03	-1.60268e+00	
237	-1.76300e+00	-1.61231e-03	-1.60177e+00	
238	-1.76200e+00	-1.61141e-03	-1.60086e+00	
239	-1.76100e+00	-1.61051e-03	-1.59995e+00	
240	-1.76000e+00	-1.60960e-03	-1.59904e+00	
241	-1.75900e+00	-1.60870e-03	-1.59813e+00	
242	-1.75800e+00	-1.60780e-03	-1.59722e+00	
243	-1.75700e+00	-1.60690e-03	-1.59631e+00	
244	-1.75600e+00	-1.60600e-03	-1.59540e+00	
245	-1.75500e+00	-1.60510e-03	-1.59449e+00	
246	-1.75400e+00	-1.60420e-03	-1.59358e+00	
247	-1.75300e+00	-1.60330e-03	-1.59267e+00	
248	-1.75200e+00	-1.60240e-03	-1.59176e+00	
249	-1.75100e+00	-1.60150e-03	-1.59085e+00	
250	-1.75000e+00	-1.60060e-03	-1.58994e+00	
251	-1.74900e+00	-1.59969e-03	-1.58903e+00	
252	-1.74800e+00	-1.59879e-03	-1.58812e+00	
253	-1.74700e+00	-1.59789e-03	-1.58721e+00	
254	-1.74600e+00	-1.59699e-03	-1.58630e+00	
255	-1.74500e+00	-1.59609e-03	-1.58539e+00	
256	-1.74400e+00	-1.59519e-03	-1.58448e+00	
257	-1.74300e+00	-1.59429e-03	-1.58357e+00	
258	-1.74200e+00	-1.59339e-03	-1.58266e+00	
259	-1.74100e+00	-1.59249e-03	-1.58175e+00	
260	-1.74000e+00	-1.59159e-03	-1.58084e+00	
261	-1.73900e+00	-1.59069e-03	-1.57993e+00	
262	-1.73800e+00	-1.58979e-03	-1.57902e+00	
263	-1.73700e+00	-1.58888e-03	-1.57811e+00	
264	-1.73600e+00	-1.58798e-03	-1.57720e+00	
265	-1.73500e+00	-1.58708e-03	-1.57629e+00	
266	-1.73400e+00	-1.58618e-03	-1.57538e+00	
267	-1.73300e+00	-1.58528e-03	-1.57447e+00	
268	-1.73200e+00	-1.58438e-03	-1.57356e+00	
269	-1.73100e+00	-1.58348e-03	-1.57265e+00	
270	-1.73000e+00	-1.58258e-03	-1.57174e+00	
271	-1.72900e+00	-1.58168e-03	-1.57083e+00	
272	-1.72800e+00	-1.58078e-03	-1.56992e+00	
273	-1.72700e+00	-1.57988e-03	-1.56901e+00	
274	-1.72600e+00	-1.57897e-03	-1.56810e+00	
275	-1.72500e+00	-1.57807e-03	-1.56719e+00	
276	-1.72400e+00	-1.57717e-03	-1.56628e+00	
277	-1.72300e+00	-1.57627e-03	-1.56537e+00	
278	-1.72200e+00	-1.57537e-03	-1.56446e+00	
279	-1.72100e+00	-1.57447e-03	-1.56355e+00	
280	-1.72000e+00	-1.57357e-03	-1.56264e+00	
281	-1.71900e+00	-1.57267e-03	-1.56173e+00	
282	-1.71800e+00	-1.57177e-03	-1.56082e+00	
283	-1.71700e+00	-1.57087e-03	-1.55991e+00	
284	-1.71600e+00	-1.56997e-03	-1.55900e+00	
285	-1.71500e+00	-1.56906e-03	-1.55809e+00	
286	-1.71400e+00	-1.56816e-03	-1.55718e+00	

Index   v-sweep         -i(vs)          v(2)            
--------------------------------------------------------------------------------
287	-1.71300e+00	-1.56726e-03	-1.55627e+00	
288	-1.71200e+00	-1.56636e-03	-1.55536e+00	
289	-1.71100e+00	-1.56546e-03	-1.55445e+00	
290	-1.71000e+00	-1.56456e-03	-1.55354e+00	
291	-1.70900e+00	-1.56366e-03	-1.55263e+00	
292	-1.70800e+00	-1.56276e-03	-1.55172e+00	
293	-1.70700e+00	-1.56186e-03	-1.55081e+00	
294	-1.70600e+00	-1.56096e-03	-1.54990e+00	
295	-1.70500e+00	-1.56006e-03	-1.54899e+00	
296	-1.70400e+00	-1.55915e-03	-1.54808e+00	
297	-1.70300e+00	-1.55825e-03	-1.54717e+00	
298	-1.70200e+00	-1.55735e-03	-1.54626e+00	
299	-1.70100e+00	-1.55645e-03	-1.54535e+00	
300	-1.70000e+00	-1.55555e-03	-1.54444e+00	
301	-1.69900e+00	-1.55465e-03	-1.54354e+00	
302	-1.69800e+00	-1.55375e-03	-1.54263e+00	
303	-1.69700e+00	-1.55285e-03	-1.54172e+00	
304	-1.69600e+00	-1.55195e-03	-1.54081e+00	
305	-1.69500e+00	-1.55105e-03	-1.53990e+00	
306	-1.69400e+00	-1.55015e-03	-1.53899e+00	
307	-1.69300e+00	-1.54924e-03	-1.53808e+00	
308	-1.69200e+00	-1.54834e-03	-1.53717e+00	
309	-1.69100e+00	-1.54744e-03	-1.53626e+00	
310	-1.69000e+00	-1.54654e-03	-1.53535e+00	
311	-1.68900e+00	-1.54564e-03	-1.53444e+00	
312	-1.68800e+00	-1.54474e-03	-1.53353e+00	
313	-1.68700e+00	-1.54384e-03	-1.53262e+00	
314	-1.68600e+00	-1.54294e-03	-1.53171e+00	
315	-1.68500e+00	-1.54204e-03	-1.53080e+00	
316	-1.68400e+00	-1.54114e-03	-1.52989e+00	
317	-1.68300e+00	-1.54024e-03	-1.52898e+00	
318	-1.68200e+00	-1.53933e-03	-1.52807e+00	
319	-1.68100e+00	-1.53843e-03	-1.52716e+00	
320	-1.68000e+00	-1.53753e-03	-1.52625e+00	
321	-1.67900e+00	-1.53663e-03	-1.52534e+00	
322	-1.67800e+00	-1.53573e-03	-1.52443e+00	
323	-1.67700e+00	-1.53483e-03	-1.52352e+00	
324	-1.67600e+00	-1.53393e-03	-1.52261e+00	
325	-1.67500e+00	-1.53303e-03	-1.52170e+00	
326	-1.67400e+00	-1.53213e-03	-1.52079e+00	
327	-1.67300e+00	-1.53123e-03	-1.51988e+00	
328	-1.67200e+00	-1.53033e-03	-1.51897e+00	
329	-1.67100e+00	-1.52942e-03	-1.51806e+00	
330	-1.67000e+00	-1.52852e-03	-1.51715e+00	
331	-1.66900e+00	-1.52762e-03	-1.51624e+00	
332	-1.66800e+00	-1.52672e-03	-1.51533e+00	
333	-1.66700e+00	-1.52582e-03	-1.51442e+00	
334	-1.66600e+00	-1.52492e-03	-1.51351e+00	
335	-1.66500e+00	-1.52402e-03	-1.51260e+00	
336	-1.66400e+00	-1.52312e-03	-1.51169e+00	
337	-1.66300e+00	-1.52222e-03	-1.51078e+00	
338	-1.66200e+00	-1.52132e-03	-1.50987e+00	
339	-1.66100e+00	-1.52042e-03	-1.50896e+00	
340	-1.66000e+00	-1.51951e-03	-1.50805e+00	
341	-1.65900e+00	-1.51861e-03	-1.50714e+00	
342	-1.65800e+00	-1.51771e-03	-1.50623e+00	
343	-1.65700e+00	-1.51681e-03	-1.50532e+00	
344	-1.65600e+00	-1.51591e-03	-1.50441e+00	

Index   v-sweep         -i(vs)          v(2)            
--------------------------------------------------------------------------------
345	-1.65500e+00	-1.51501e-03	-1.50350e+00	
346	-1.65400e+00	-1.51411e-03	-1.50259e+00	
347	-1.65300e+00	-1.51321e-03	-1.50168e+00	
348	-1.65200e+00	-1.51231e-03	-1.50077e+00	
349	-1.65100e+00	-1.51141e-03	-1.49986e+00	
350	-1.65000e+00	-1.51051e-03	-1.49895e+00	
351	-1.64900e+00	-1.50960e-03	-1.49804e+00	
352	-1.64800e+00	-1.50870e-03	-1.49713e+00	
353	-1.64700e+00	-1.50780e-03	-1.49622e+00	
354	-1.64600e+00	-1.50690e-03	-1.49531e+00	
355	-1.64500e+00	-1.50600e-03	-1.49440e+00	
356	-1.64400e+00	-1.50510e-03	-1.49349e+00	
357	-1.64300e+00	-1.50420e-03	-1.49258e+00	
358	-1.64200e+00	-1.50330e-03	-1.49167e+00	
359	-1.64100e+00	-1.50240e-03	-1.49076e+00	
360	-1.64000e+00	-1.50150e-03	-1.48985e+00	
361	-1.63900e+00	-1.50060e-03	-1.48894e+00	
362	-1.63800e+00	-1.49969e-03	-1.48803e+00	
363	-1.63700e+00	-1.49879e-03	-1.48712e+00	
364	-1.63600e+00	-1.49789e-03	-1.48621e+00	
365	-1.63500e+00	-1.49699e-03	-1.48530e+00	
366	-1.63400e+00	-1.49609e-03	-1.48439e+00	
367	-1.63300e+00	-1.49519e-03	-1.48348e+00	
368	-1.63200e+00	-1.49429e-03	-1.48257e+00	
369	-1.63100e+00	-1.49339e-03	-1.48166e+00	
370	-1.63000e+00	-1.49249e-03	-1.48075e+00	
371	-1.62900e+00	-1.49159e-03	-1.47984e+00	
372	-1.62800e+00	-1.49069e-03	-1.47893e+00	
373	-1.62700e+00	-1.48978e-03	-1.47802e+00	
374	-1.62600e+00	-1.48888e-03	-1.47711e+00	
375	-1.62500e+00	-1.48798e-03	-1.47620e+00	
376	-1.62400e+00	-1.48708e-03	-1.47529e+00	
377	-1.62300e+00	-1.48618e-03	-1.47438e+00	
378	-1.62200e+00	-1.48528e-03	-1.47347e+00	
379	-1.62100e+00	-1.48438e-03	-1.47256e+00	
380	-1.62000e+00	-1.48348e-03	-1.47165e+00	
381	-1.61900e+00	-1.48258e-03	-1.47074e+00	
382	-1.61800e+00	-1.48168e-03	-1.46983e+00	
383	-1.61700e+00	-1.48078e-03	-1.46892e+00	
384	-1.61600e+00	-1.47987e-03	-1.46801e+00	
385	-1.61500e+00	-1.47897e-03	-1.46710e+00	
386	-1.61400e+00	-1.47807e-03	-1.46619e+00	
387	-1.61300e+00	-1.47717e-03	-1.46528e+00	
388	-1.61200e+00	-1.47627e-03	-1.46437e+00	
389	-1.61100e+00	-1.47537e-03	-1.46346e+00	
390	-1.61000e+00	-1.47447e-03	-1.46255e+00	
391	-1.60900e+00	-1.47357e-03	-1.46164e+00	
392	-1.60800e+00	-1.47267e-03	-1.46073e+00	
393	-1.60700e+00	-1.47177e-03	-1.45982e+00	
394	-1.60600e+00	-1.47087e-03	-1.45891e+00	
395	-1.60500e+00	-1.46996e-03	-1.45800e+00	
396	-1.60400e+00	-1.46906e-03	-1.45709e+00	
397	-1.60300e+00	-1.46816e-03	-1.45618e+00	
398	-1.60200e+00	-1.46726e-03	-1.45527e+00	
399	-1.60100e+00	-1.46636e-03	-1.45436e+00	
400	-1.60000e+00	-1.46546e-03	-1.45345e+00	
401	-1.59900e+00	-1.46456e-03	-1.45254e+00	
402	-1.59800e+00	-1.46366e-03	-1.45163e+00	

Index   v-sweep         -i(vs)          v(2)            
--------------------------------------------------------------------------------
403	-1.59700e+00	-1.46276e-03	-1.45072e+00	
404	-1.59600e+00	-1.46186e-03	-1.44981e+00	
405	-1.59500e+00	-1.46096e-03	-1.44890e+00	
406	-1.59400e+00	-1.46005e-03	-1.44799e+00	
407	-1.59300e+00	-1.45915e-03	-1.44708e+00	
408	-1.59200e+00	-1.45825e-03	-1.44617e+00	
409	-1.59100e+00	-1.45735e-03	-1.44526e+00	
410	-1.59000e+00	-1.45645e-03	-1.44435e+00	
411	-1.58900e+00	-1.45555e-03	-1.44344e+00	
412	-1.58800e+00	-1.45465e-03	-1.44254e+00	
413	-1.58700e+00	-1.45375e-03	-1.44163e+00	
414	-1.58600e+00	-1.45285e-03	-1.44072e+00	
415	-1.58500e+00	-1.45195e-03	-1.43981e+00	
416	-1.58400e+00	-1.45105e-03	-1.43890e+00	
417	-1.58300e+00	-1.45014e-03	-1.43799e+00	
418	-1.58200e+00	-1.44924e-03	-1.43708e+00	
419	-1.58100e+00	-1.44834e-03	-1.43617e+00	
420	-1.58000e+00	-1.44744e-03	-1.43526e+00	
421	-1.57900e+00	-1.44654e-03	-1.43435e+00	
422	-1.57800e+00	-1.44564e-03	-1.43344e+00	
423	-1.57700e+00	-1.44474e-03	-1.43253e+00	
424	-1.57600e+00	-1.44384e-03	-1.43162e+00	
425	-1.57500e+00	-1.44294e-03	-1.43071e+00	
