     i-v characteristic of solar cell for different levels of illumination
     DC transfer characteristic  Sun Sep 25 21:58:28  2022
--------------------------------------------------------------------------------
Index   v-sweep         -i(vs)          v(2)            
--------------------------------------------------------------------------------
0	-2.00000e+00	-1.80507e-03	-1.81949e+00	
1	-1.99900e+00	-1.80417e-03	-1.81858e+00	
2	-1.99800e+00	-1.80327e-03	-1.81767e+00	
3	-1.99700e+00	-1.80237e-03	-1.81676e+00	
4	-1.99600e+00	-1.80147e-03	-1.81585e+00	
5	-1.99500e+00	-1.80057e-03	-1.81494e+00	
6	-1.99400e+00	-1.79967e-03	-1.81403e+00	
7	-1.99300e+00	-1.79877e-03	-1.81312e+00	
8	-1.99200e+00	-1.79787e-03	-1.81221e+00	
9	-1.99100e+00	-1.79697e-03	-1.81130e+00	
10	-1.99000e+00	-1.79606e-03	-1.81039e+00	
11	-1.98900e+00	-1.79516e-03	-1.80948e+00	
12	-1.98800e+00	-1.79426e-03	-1.80857e+00	
13	-1.98700e+00	-1.79336e-03	-1.80766e+00	
14	-1.98600e+00	-1.79246e-03	-1.80675e+00	
15	-1.98500e+00	-1.79156e-03	-1.80584e+00	
16	-1.98400e+00	-1.79066e-03	-1.80493e+00	
17	-1.98300e+00	-1.78976e-03	-1.80402e+00	
18	-1.98200e+00	-1.78886e-03	-1.80311e+00	
19	-1.98100e+00	-1.78796e-03	-1.80220e+00	
20	-1.98000e+00	-1.78706e-03	-1.80129e+00	
21	-1.97900e+00	-1.78615e-03	-1.80038e+00	
22	-1.97800e+00	-1.78525e-03	-1.79947e+00	
23	-1.97700e+00	-1.78435e-03	-1.79856e+00	
24	-1.97600e+00	-1.78345e-03	-1.79765e+00	
25	-1.97500e+00	-1.78255e-03	-1.79674e+00	
26	-1.97400e+00	-1.78165e-03	-1.79584e+00	
27	-1.97300e+00	-1.78075e-03	-1.79493e+00	
28	-1.97200e+00	-1.77985e-03	-1.79402e+00	
29	-1.97100e+00	-1.77895e-03	-1.79311e+00	
30	-1.97000e+00	-1.77805e-03	-1.79220e+00	
31	-1.96900e+00	-1.77715e-03	-1.79129e+00	
32	-1.96800e+00	-1.77624e-03	-1.79038e+00	
33	-1.96700e+00	-1.77534e-03	-1.78947e+00	
34	-1.96600e+00	-1.77444e-03	-1.78856e+00	
35	-1.96500e+00	-1.77354e-03	-1.78765e+00	
36	-1.96400e+00	-1.77264e-03	-1.78674e+00	
37	-1.96300e+00	-1.77174e-03	-1.78583e+00	
38	-1.96200e+00	-1.77084e-03	-1.78492e+00	
39	-1.96100e+00	-1.76994e-03	-1.78401e+00	
40	-1.96000e+00	-1.76904e-03	-1.78310e+00	
41	-1.95900e+00	-1.76814e-03	-1.78219e+00	
42	-1.95800e+00	-1.76724e-03	-1.78128e+00	
43	-1.95700e+00	-1.76633e-03	-1.78037e+00	
44	-1.95600e+00	-1.76543e-03	-1.77946e+00	
45	-1.95500e+00	-1.76453e-03	-1.77855e+00	
46	-1.95400e+00	-1.76363e-03	-1.77764e+00	
47	-1.95300e+00	-1.76273e-03	-1.77673e+00	
48	-1.95200e+00	-1.76183e-03	-1.77582e+00	
49	-1.95100e+00	-1.76093e-03	-1.77491e+00	
50	-1.95000e+00	-1.76003e-03	-1.77400e+00	
51	-1.94900e+00	-1.75913e-03	-1.77309e+00	
52	-1.94800e+00	-1.75823e-03	-1.77218e+00	
53	-1.94700e+00	-1.75733e-03	-1.77127e+00	
54	-1.94600e+00	-1.75642e-03	-1.77036e+00	

Index   v-sweep         -i(vs)          v(2)            
--------------------------------------------------------------------------------
55	-1.94500e+00	-1.75552e-03	-1.76945e+00	
56	-1.94400e+00	-1.75462e-03	-1.76854e+00	
57	-1.94300e+00	-1.75372e-03	-1.76763e+00	
58	-1.94200e+00	-1.75282e-03	-1.76672e+00	
59	-1.94100e+00	-1.75192e-03	-1.76581e+00	
60	-1.94000e+00	-1.75102e-03	-1.76490e+00	
61	-1.93900e+00	-1.75012e-03	-1.76399e+00	
62	-1.93800e+00	-1.74922e-03	-1.76308e+00	
63	-1.93700e+00	-1.74832e-03	-1.76217e+00	
64	-1.93600e+00	-1.74742e-03	-1.76126e+00	
65	-1.93500e+00	-1.74651e-03	-1.76035e+00	
66	-1.93400e+00	-1.74561e-03	-1.75944e+00	
67	-1.93300e+00	-1.74471e-03	-1.75853e+00	
68	-1.93200e+00	-1.74381e-03	-1.75762e+00	
69	-1.93100e+00	-1.74291e-03	-1.75671e+00	
70	-1.93000e+00	-1.74201e-03	-1.75580e+00	
71	-1.92900e+00	-1.74111e-03	-1.75489e+00	
72	-1.92800e+00	-1.74021e-03	-1.75398e+00	
73	-1.92700e+00	-1.73931e-03	-1.75307e+00	
74	-1.92600e+00	-1.73841e-03	-1.75216e+00	
75	-1.92500e+00	-1.73751e-03	-1.75125e+00	
76	-1.92400e+00	-1.73660e-03	-1.75034e+00	
77	-1.92300e+00	-1.73570e-03	-1.74943e+00	
78	-1.92200e+00	-1.73480e-03	-1.74852e+00	
79	-1.92100e+00	-1.73390e-03	-1.74761e+00	
80	-1.92000e+00	-1.73300e-03	-1.74670e+00	
81	-1.91900e+00	-1.73210e-03	-1.74579e+00	
82	-1.91800e+00	-1.73120e-03	-1.74488e+00	
83	-1.91700e+00	-1.73030e-03	-1.74397e+00	
84	-1.91600e+00	-1.72940e-03	-1.74306e+00	
85	-1.91500e+00	-1.72850e-03	-1.74215e+00	
86	-1.91400e+00	-1.72760e-03	-1.74124e+00	
87	-1.91300e+00	-1.72670e-03	-1.74033e+00	
88	-1.91200e+00	-1.72579e-03	-1.73942e+00	
89	-1.91100e+00	-1.72489e-03	-1.73851e+00	
90	-1.91000e+00	-1.72399e-03	-1.73760e+00	
91	-1.90900e+00	-1.72309e-03	-1.73669e+00	
92	-1.90800e+00	-1.72219e-03	-1.73578e+00	
93	-1.90700e+00	-1.72129e-03	-1.73487e+00	
94	-1.90600e+00	-1.72039e-03	-1.73396e+00	
95	-1.90500e+00	-1.71949e-03	-1.73305e+00	
96	-1.90400e+00	-1.71859e-03	-1.73214e+00	
97	-1.90300e+00	-1.71769e-03	-1.73123e+00	
98	-1.90200e+00	-1.71679e-03	-1.73032e+00	
99	-1.90100e+00	-1.71588e-03	-1.72941e+00	
100	-1.90000e+00	-1.71498e-03	-1.72850e+00	
101	-1.89900e+00	-1.71408e-03	-1.72759e+00	
102	-1.89800e+00	-1.71318e-03	-1.72668e+00	
103	-1.89700e+00	-1.71228e-03	-1.72577e+00	
104	-1.89600e+00	-1.71138e-03	-1.72486e+00	
105	-1.89500e+00	-1.71048e-03	-1.72395e+00	
106	-1.89400e+00	-1.70958e-03	-1.72304e+00	
107	-1.89300e+00	-1.70868e-03	-1.72213e+00	
108	-1.89200e+00	-1.70778e-03	-1.72122e+00	
109	-1.89100e+00	-1.70688e-03	-1.72031e+00	
110	-1.89000e+00	-1.70597e-03	-1.71940e+00	
111	-1.88900e+00	-1.70507e-03	-1.71849e+00	
112	-1.88800e+00	-1.70417e-03	-1.71758e+00	

Index   v-sweep         -i(vs)          v(2)            
--------------------------------------------------------------------------------
113	-1.88700e+00	-1.70327e-03	-1.71667e+00	
114	-1.88600e+00	-1.70237e-03	-1.71576e+00	
115	-1.88500e+00	-1.70147e-03	-1.71485e+00	
116	-1.88400e+00	-1.70057e-03	-1.71394e+00	
117	-1.88300e+00	-1.69967e-03	-1.71303e+00	
118	-1.88200e+00	-1.69877e-03	-1.71212e+00	
119	-1.88100e+00	-1.69787e-03	-1.71121e+00	
120	-1.88000e+00	-1.69697e-03	-1.71030e+00	
121	-1.87900e+00	-1.69606e-03	-1.70939e+00	
122	-1.87800e+00	-1.69516e-03	-1.70848e+00	
123	-1.87700e+00	-1.69426e-03	-1.70757e+00	
124	-1.87600e+00	-1.69336e-03	-1.70666e+00	
125	-1.87500e+00	-1.69246e-03	-1.70575e+00	
126	-1.87400e+00	-1.69156e-03	-1.70484e+00	
127	-1.87300e+00	-1.69066e-03	-1.70393e+00	
128	-1.87200e+00	-1.68976e-03	-1.70302e+00	
129	-1.87100e+00	-1.68886e-03	-1.70211e+00	
130	-1.87000e+00	-1.68796e-03	-1.70120e+00	
131	-1.86900e+00	-1.68706e-03	-1.70029e+00	
132	-1.86800e+00	-1.68615e-03	-1.69938e+00	
133	-1.86700e+00	-1.68525e-03	-1.69847e+00	
134	-1.86600e+00	-1.68435e-03	-1.69756e+00	
135	-1.86500e+00	-1.68345e-03	-1.69665e+00	
136	-1.86400e+00	-1.68255e-03	-1.69574e+00	
137	-1.86300e+00	-1.68165e-03	-1.69484e+00	
138	-1.86200e+00	-1.68075e-03	-1.69393e+00	
139	-1.86100e+00	-1.67985e-03	-1.69302e+00	
140	-1.86000e+00	-1.67895e-03	-1.69211e+00	
141	-1.85900e+00	-1.67805e-03	-1.69120e+00	
142	-1.85800e+00	-1.67715e-03	-1.69029e+00	
143	-1.85700e+00	-1.67624e-03	-1.68938e+00	
144	-1.85600e+00	-1.67534e-03	-1.68847e+00	
145	-1.85500e+00	-1.67444e-03	-1.68756e+00	
146	-1.85400e+00	-1.67354e-03	-1.68665e+00	
147	-1.85300e+00	-1.67264e-03	-1.68574e+00	
148	-1.85200e+00	-1.67174e-03	-1.68483e+00	
149	-1.85100e+00	-1.67084e-03	-1.68392e+00	
150	-1.85000e+00	-1.66994e-03	-1.68301e+00	
151	-1.84900e+00	-1.66904e-03	-1.68210e+00	
152	-1.84800e+00	-1.66814e-03	-1.68119e+00	
153	-1.84700e+00	-1.66724e-03	-1.68028e+00	
154	-1.84600e+00	-1.66633e-03	-1.67937e+00	
155	-1.84500e+00	-1.66543e-03	-1.67846e+00	
156	-1.84400e+00	-1.66453e-03	-1.67755e+00	
157	-1.84300e+00	-1.66363e-03	-1.67664e+00	
158	-1.84200e+00	-1.66273e-03	-1.67573e+00	
159	-1.84100e+00	-1.66183e-03	-1.67482e+00	
160	-1.84000e+00	-1.66093e-03	-1.67391e+00	
161	-1.83900e+00	-1.66003e-03	-1.67300e+00	
162	-1.83800e+00	-1.65913e-03	-1.67209e+00	
163	-1.83700e+00	-1.65823e-03	-1.67118e+00	
164	-1.83600e+00	-1.65733e-03	-1.67027e+00	
165	-1.83500e+00	-1.65642e-03	-1.66936e+00	
166	-1.83400e+00	-1.65552e-03	-1.66845e+00	
167	-1.83300e+00	-1.65462e-03	-1.66754e+00	
168	-1.83200e+00	-1.65372e-03	-1.66663e+00	
169	-1.83100e+00	-1.65282e-03	-1.66572e+00	
170	-1.83000e+00	-1.65192e-03	-1.66481e+00	

Index   v-sweep         -i(vs)          v(2)            
--------------------------------------------------------------------------------
171	-1.82900e+00	-1.65102e-03	-1.66390e+00	
172	-1.82800e+00	-1.65012e-03	-1.66299e+00	
173	-1.82700e+00	-1.64922e-03	-1.66208e+00	
174	-1.82600e+00	-1.64832e-03	-1.66117e+00	
175	-1.82500e+00	-1.64742e-03	-1.66026e+00	
176	-1.82400e+00	-1.64651e-03	-1.65935e+00	
177	-1.82300e+00	-1.64561e-03	-1.65844e+00	
178	-1.82200e+00	-1.64471e-03	-1.65753e+00	
179	-1.82100e+00	-1.64381e-03	-1.65662e+00	
180	-1.82000e+00	-1.64291e-03	-1.65571e+00	
181	-1.81900e+00	-1.64201e-03	-1.65480e+00	
182	-1.81800e+00	-1.64111e-03	-1.65389e+00	
183	-1.81700e+00	-1.64021e-03	-1.65298e+00	
184	-1.81600e+00	-1.63931e-03	-1.65207e+00	
185	-1.81500e+00	-1.63841e-03	-1.65116e+00	
186	-1.81400e+00	-1.63751e-03	-1.65025e+00	
187	-1.81300e+00	-1.63660e-03	-1.64934e+00	
188	-1.81200e+00	-1.63570e-03	-1.64843e+00	
189	-1.81100e+00	-1.63480e-03	-1.64752e+00	
190	-1.81000e+00	-1.63390e-03	-1.64661e+00	
191	-1.80900e+00	-1.63300e-03	-1.64570e+00	
192	-1.80800e+00	-1.63210e-03	-1.64479e+00	
193	-1.80700e+00	-1.63120e-03	-1.64388e+00	
194	-1.80600e+00	-1.63030e-03	-1.64297e+00	
195	-1.80500e+00	-1.62940e-03	-1.64206e+00	
196	-1.80400e+00	-1.62850e-03	-1.64115e+00	
197	-1.80300e+00	-1.62760e-03	-1.64024e+00	
198	-1.80200e+00	-1.62669e-03	-1.63933e+00	
199	-1.80100e+00	-1.62579e-03	-1.63842e+00	
200	-1.80000e+00	-1.62489e-03	-1.63751e+00	
201	-1.79900e+00	-1.62399e-03	-1.63660e+00	
202	-1.79800e+00	-1.62309e-03	-1.63569e+00	
203	-1.79700e+00	-1.62219e-03	-1.63478e+00	
204	-1.79600e+00	-1.62129e-03	-1.63387e+00	
205	-1.79500e+00	-1.62039e-03	-1.63296e+00	
206	-1.79400e+00	-1.61949e-03	-1.63205e+00	
207	-1.79300e+00	-1.61859e-03	-1.63114e+00	
208	-1.79200e+00	-1.61769e-03	-1.63023e+00	
209	-1.79100e+00	-1.61679e-03	-1.62932e+00	
210	-1.79000e+00	-1.61588e-03	-1.62841e+00	
211	-1.78900e+00	-1.61498e-03	-1.62750e+00	
212	-1.78800e+00	-1.61408e-03	-1.62659e+00	
213	-1.78700e+00	-1.61318e-03	-1.62568e+00	
214	-1.78600e+00	-1.61228e-03	-1.62477e+00	
215	-1.78500e+00	-1.61138e-03	-1.62386e+00	
216	-1.78400e+00	-1.61048e-03	-1.62295e+00	
217	-1.78300e+00	-1.60958e-03	-1.62204e+00	
218	-1.78200e+00	-1.60868e-03	-1.62113e+00	
219	-1.78100e+00	-1.60778e-03	-1.62022e+00	
220	-1.78000e+00	-1.60688e-03	-1.61931e+00	
221	-1.77900e+00	-1.60597e-03	-1.61840e+00	
222	-1.77800e+00	-1.60507e-03	-1.61749e+00	
223	-1.77700e+00	-1.60417e-03	-1.61658e+00	
224	-1.77600e+00	-1.60327e-03	-1.61567e+00	
225	-1.77500e+00	-1.60237e-03	-1.61476e+00	
226	-1.77400e+00	-1.60147e-03	-1.61385e+00	
227	-1.77300e+00	-1.60057e-03	-1.61294e+00	
228	-1.77200e+00	-1.59967e-03	-1.61203e+00	

Index   v-sweep         -i(vs)          v(2)            
--------------------------------------------------------------------------------
229	-1.77100e+00	-1.59877e-03	-1.61112e+00	
230	-1.77000e+00	-1.59787e-03	-1.61021e+00	
231	-1.76900e+00	-1.59697e-03	-1.60930e+00	
232	-1.76800e+00	-1.59606e-03	-1.60839e+00	
233	-1.76700e+00	-1.59516e-03	-1.60748e+00	
234	-1.76600e+00	-1.59426e-03	-1.60657e+00	
235	-1.76500e+00	-1.59336e-03	-1.60566e+00	
236	-1.76400e+00	-1.59246e-03	-1.60475e+00	
237	-1.76300e+00	-1.59156e-03	-1.60384e+00	
238	-1.76200e+00	-1.59066e-03	-1.60293e+00	
239	-1.76100e+00	-1.58976e-03	-1.60202e+00	
240	-1.76000e+00	-1.58886e-03	-1.60111e+00	
241	-1.75900e+00	-1.58796e-03	-1.60020e+00	
242	-1.75800e+00	-1.58706e-03	-1.59929e+00	
243	-1.75700e+00	-1.58615e-03	-1.59838e+00	
244	-1.75600e+00	-1.58525e-03	-1.59747e+00	
245	-1.75500e+00	-1.58435e-03	-1.59656e+00	
246	-1.75400e+00	-1.58345e-03	-1.59565e+00	
247	-1.75300e+00	-1.58255e-03	-1.59474e+00	
248	-1.75200e+00	-1.58165e-03	-1.59384e+00	
249	-1.75100e+00	-1.58075e-03	-1.59293e+00	
250	-1.75000e+00	-1.57985e-03	-1.59202e+00	
251	-1.74900e+00	-1.57895e-03	-1.59111e+00	
252	-1.74800e+00	-1.57805e-03	-1.59020e+00	
253	-1.74700e+00	-1.57715e-03	-1.58929e+00	
254	-1.74600e+00	-1.57624e-03	-1.58838e+00	
255	-1.74500e+00	-1.57534e-03	-1.58747e+00	
256	-1.74400e+00	-1.57444e-03	-1.58656e+00	
257	-1.74300e+00	-1.57354e-03	-1.58565e+00	
258	-1.74200e+00	-1.57264e-03	-1.58474e+00	
259	-1.74100e+00	-1.57174e-03	-1.58383e+00	
260	-1.74000e+00	-1.57084e-03	-1.58292e+00	
261	-1.73900e+00	-1.56994e-03	-1.58201e+00	
262	-1.73800e+00	-1.56904e-03	-1.58110e+00	
263	-1.73700e+00	-1.56814e-03	-1.58019e+00	
264	-1.73600e+00	-1.56724e-03	-1.57928e+00	
265	-1.73500e+00	-1.56633e-03	-1.57837e+00	
266	-1.73400e+00	-1.56543e-03	-1.57746e+00	
267	-1.73300e+00	-1.56453e-03	-1.57655e+00	
268	-1.73200e+00	-1.56363e-03	-1.57564e+00	
269	-1.73100e+00	-1.56273e-03	-1.57473e+00	
270	-1.73000e+00	-1.56183e-03	-1.57382e+00	
271	-1.72900e+00	-1.56093e-03	-1.57291e+00	
272	-1.72800e+00	-1.56003e-03	-1.57200e+00	
273	-1.72700e+00	-1.55913e-03	-1.57109e+00	
274	-1.72600e+00	-1.55823e-03	-1.57018e+00	
275	-1.72500e+00	-1.55733e-03	-1.56927e+00	
276	-1.72400e+00	-1.55642e-03	-1.56836e+00	
277	-1.72300e+00	-1.55552e-03	-1.56745e+00	
278	-1.72200e+00	-1.55462e-03	-1.56654e+00	
279	-1.72100e+00	-1.55372e-03	-1.56563e+00	
280	-1.72000e+00	-1.55282e-03	-1.56472e+00	
281	-1.71900e+00	-1.55192e-03	-1.56381e+00	
282	-1.71800e+00	-1.55102e-03	-1.56290e+00	
283	-1.71700e+00	-1.55012e-03	-1.56199e+00	
284	-1.71600e+00	-1.54922e-03	-1.56108e+00	
285	-1.71500e+00	-1.54832e-03	-1.56017e+00	
286	-1.71400e+00	-1.54742e-03	-1.55926e+00	

Index   v-sweep         -i(vs)          v(2)            
--------------------------------------------------------------------------------
287	-1.71300e+00	-1.54651e-03	-1.55835e+00	
288	-1.71200e+00	-1.54561e-03	-1.55744e+00	
289	-1.71100e+00	-1.54471e-03	-1.55653e+00	
290	-1.71000e+00	-1.54381e-03	-1.55562e+00	
291	-1.70900e+00	-1.54291e-03	-1.55471e+00	
292	-1.70800e+00	-1.54201e-03	-1.55380e+00	
293	-1.70700e+00	-1.54111e-03	-1.55289e+00	
294	-1.70600e+00	-1.54021e-03	-1.55198e+00	
295	-1.70500e+00	-1.53931e-03	-1.55107e+00	
296	-1.70400e+00	-1.53841e-03	-1.55016e+00	
297	-1.70300e+00	-1.53751e-03	-1.54925e+00	
298	-1.70200e+00	-1.53660e-03	-1.54834e+00	
299	-1.70100e+00	-1.53570e-03	-1.54743e+00	
300	-1.70000e+00	-1.53480e-03	-1.54652e+00	
301	-1.69900e+00	-1.53390e-03	-1.54561e+00	
302	-1.69800e+00	-1.53300e-03	-1.54470e+00	
303	-1.69700e+00	-1.53210e-03	-1.54379e+00	
304	-1.69600e+00	-1.53120e-03	-1.54288e+00	
305	-1.69500e+00	-1.53030e-03	-1.54197e+00	
306	-1.69400e+00	-1.52940e-03	-1.54106e+00	
307	-1.69300e+00	-1.52850e-03	-1.54015e+00	
308	-1.69200e+00	-1.52760e-03	-1.53924e+00	
309	-1.69100e+00	-1.52669e-03	-1.53833e+00	
310	-1.69000e+00	-1.52579e-03	-1.53742e+00	
311	-1.68900e+00	-1.52489e-03	-1.53651e+00	
312	-1.68800e+00	-1.52399e-03	-1.53560e+00	
313	-1.68700e+00	-1.52309e-03	-1.53469e+00	
314	-1.68600e+00	-1.52219e-03	-1.53378e+00	
315	-1.68500e+00	-1.52129e-03	-1.53287e+00	
316	-1.68400e+00	-1.52039e-03	-1.53196e+00	
317	-1.68300e+00	-1.51949e-03	-1.53105e+00	
318	-1.68200e+00	-1.51859e-03	-1.53014e+00	
319	-1.68100e+00	-1.51769e-03	-1.52923e+00	
320	-1.68000e+00	-1.51679e-03	-1.52832e+00	
321	-1.67900e+00	-1.51588e-03	-1.52741e+00	
322	-1.67800e+00	-1.51498e-03	-1.52650e+00	
323	-1.67700e+00	-1.51408e-03	-1.52559e+00	
324	-1.67600e+00	-1.51318e-03	-1.52468e+00	
325	-1.67500e+00	-1.51228e-03	-1.52377e+00	
326	-1.67400e+00	-1.51138e-03	-1.52286e+00	
327	-1.67300e+00	-1.51048e-03	-1.52195e+00	
328	-1.67200e+00	-1.50958e-03	-1.52104e+00	
329	-1.67100e+00	-1.50868e-03	-1.52013e+00	
330	-1.67000e+00	-1.50778e-03	-1.51922e+00	
331	-1.66900e+00	-1.50688e-03	-1.51831e+00	
332	-1.66800e+00	-1.50597e-03	-1.51740e+00	
333	-1.66700e+00	-1.50507e-03	-1.51649e+00	
334	-1.66600e+00	-1.50417e-03	-1.51558e+00	
335	-1.66500e+00	-1.50327e-03	-1.51467e+00	
336	-1.66400e+00	-1.50237e-03	-1.51376e+00	
337	-1.66300e+00	-1.50147e-03	-1.51285e+00	
338	-1.66200e+00	-1.50057e-03	-1.51194e+00	
339	-1.66100e+00	-1.49967e-03	-1.51103e+00	
340	-1.66000e+00	-1.49877e-03	-1.51012e+00	
341	-1.65900e+00	-1.49787e-03	-1.50921e+00	
342	-1.65800e+00	-1.49697e-03	-1.50830e+00	
343	-1.65700e+00	-1.49606e-03	-1.50739e+00	
344	-1.65600e+00	-1.49516e-03	-1.50648e+00	

Index   v-sweep         -i(vs)          v(2)            
--------------------------------------------------------------------------------
345	-1.65500e+00	-1.49426e-03	-1.50557e+00	
346	-1.65400e+00	-1.49336e-03	-1.50466e+00	
347	-1.65300e+00	-1.49246e-03	-1.50375e+00	
348	-1.65200e+00	-1.49156e-03	-1.50284e+00	
349	-1.65100e+00	-1.49066e-03	-1.50193e+00	
350	-1.65000e+00	-1.48976e-03	-1.50102e+00	
351	-1.64900e+00	-1.48886e-03	-1.50011e+00	
352	-1.64800e+00	-1.48796e-03	-1.49920e+00	
353	-1.64700e+00	-1.48706e-03	-1.49829e+00	
354	-1.64600e+00	-1.48615e-03	-1.49738e+00	
355	-1.64500e+00	-1.48525e-03	-1.49647e+00	
356	-1.64400e+00	-1.48435e-03	-1.49556e+00	
357	-1.64300e+00	-1.48345e-03	-1.49465e+00	
358	-1.64200e+00	-1.48255e-03	-1.49374e+00	
359	-1.64100e+00	-1.48165e-03	-1.49284e+00	
360	-1.64000e+00	-1.48075e-03	-1.49193e+00	
361	-1.63900e+00	-1.47985e-03	-1.49102e+00	
362	-1.63800e+00	-1.47895e-03	-1.49011e+00	
363	-1.63700e+00	-1.47805e-03	-1.48920e+00	
364	-1.63600e+00	-1.47715e-03	-1.48829e+00	
365	-1.63500e+00	-1.47624e-03	-1.48738e+00	
366	-1.63400e+00	-1.47534e-03	-1.48647e+00	
367	-1.63300e+00	-1.47444e-03	-1.48556e+00	
368	-1.63200e+00	-1.47354e-03	-1.48465e+00	
369	-1.63100e+00	-1.47264e-03	-1.48374e+00	
370	-1.63000e+00	-1.47174e-03	-1.48283e+00	
371	-1.62900e+00	-1.47084e-03	-1.48192e+00	
372	-1.62800e+00	-1.46994e-03	-1.48101e+00	
373	-1.62700e+00	-1.46904e-03	-1.48010e+00	
374	-1.62600e+00	-1.46814e-03	-1.47919e+00	
375	-1.62500e+00	-1.46724e-03	-1.47828e+00	
376	-1.62400e+00	-1.46633e-03	-1.47737e+00	
377	-1.62300e+00	-1.46543e-03	-1.47646e+00	
378	-1.62200e+00	-1.46453e-03	-1.47555e+00	
379	-1.62100e+00	-1.46363e-03	-1.47464e+00	
380	-1.62000e+00	-1.46273e-03	-1.47373e+00	
381	-1.61900e+00	-1.46183e-03	-1.47282e+00	
382	-1.61800e+00	-1.46093e-03	-1.47191e+00	
383	-1.61700e+00	-1.46003e-03	-1.47100e+00	
384	-1.61600e+00	-1.45913e-03	-1.47009e+00	
385	-1.61500e+00	-1.45823e-03	-1.46918e+00	
386	-1.61400e+00	-1.45733e-03	-1.46827e+00	
387	-1.61300e+00	-1.45642e-03	-1.46736e+00	
388	-1.61200e+00	-1.45552e-03	-1.46645e+00	
389	-1.61100e+00	-1.45462e-03	-1.46554e+00	
390	-1.61000e+00	-1.45372e-03	-1.46463e+00	
391	-1.60900e+00	-1.45282e-03	-1.46372e+00	
392	-1.60800e+00	-1.45192e-03	-1.46281e+00	
393	-1.60700e+00	-1.45102e-03	-1.46190e+00	
394	-1.60600e+00	-1.45012e-03	-1.46099e+00	
395	-1.60500e+00	-1.44922e-03	-1.46008e+00	
396	-1.60400e+00	-1.44832e-03	-1.45917e+00	
397	-1.60300e+00	-1.44742e-03	-1.45826e+00	
398	-1.60200e+00	-1.44651e-03	-1.45735e+00	
399	-1.60100e+00	-1.44561e-03	-1.45644e+00	
400	-1.60000e+00	-1.44471e-03	-1.45553e+00	
401	-1.59900e+00	-1.44381e-03	-1.45462e+00	
402	-1.59800e+00	-1.44291e-03	-1.45371e+00	

Index   v-sweep         -i(vs)          v(2)            
--------------------------------------------------------------------------------
403	-1.59700e+00	-1.44201e-03	-1.45280e+00	
404	-1.59600e+00	-1.44111e-03	-1.45189e+00	
405	-1.59500e+00	-1.44021e-03	-1.45098e+00	
406	-1.59400e+00	-1.43931e-03	-1.45007e+00	
407	-1.59300e+00	-1.43841e-03	-1.44916e+00	
408	-1.59200e+00	-1.43751e-03	-1.44825e+00	
409	-1.59100e+00	-1.43660e-03	-1.44734e+00	
410	-1.59000e+00	-1.43570e-03	-1.44643e+00	
411	-1.58900e+00	-1.43480e-03	-1.44552e+00	
412	-1.58800e+00	-1.43390e-03	-1.44461e+00	
413	-1.58700e+00	-1.43300e-03	-1.44370e+00	
414	-1.58600e+00	-1.43210e-03	-1.44279e+00	
415	-1.58500e+00	-1.43120e-03	-1.44188e+00	
416	-1.58400e+00	-1.43030e-03	-1.44097e+00	
417	-1.58300e+00	-1.42940e-03	-1.44006e+00	
418	-1.58200e+00	-1.42850e-03	-1.43915e+00	
419	-1.58100e+00	-1.42760e-03	-1.43824e+00	
420	-1.58000e+00	-1.42669e-03	-1.43733e+00	
421	-1.57900e+00	-1.42579e-03	-1.43642e+00	
422	-1.57800e+00	-1.42489e-03	-1.43551e+00	
423	-1.57700e+00	-1.42399e-03	-1.43460e+00	
424	-1.57600e+00	-1.42309e-03	-1.43369e+00	
425	-1.57500e+00	-1.42219e-03	-1.43278e+00	
