     i-v characteristic of solar cell for different levels of illumination
     DC transfer characteristic  Sun Sep 25 21:58:28  2022
--------------------------------------------------------------------------------
Index   v-sweep         -i(vs)          v(2)            
--------------------------------------------------------------------------------
0	-2.00000e+00	-1.80842e-03	-1.81916e+00	
1	-1.99900e+00	-1.80752e-03	-1.81825e+00	
2	-1.99800e+00	-1.80662e-03	-1.81734e+00	
3	-1.99700e+00	-1.80572e-03	-1.81643e+00	
4	-1.99600e+00	-1.80482e-03	-1.81552e+00	
5	-1.99500e+00	-1.80392e-03	-1.81461e+00	
6	-1.99400e+00	-1.80302e-03	-1.81370e+00	
7	-1.99300e+00	-1.80212e-03	-1.81279e+00	
8	-1.99200e+00	-1.80121e-03	-1.81188e+00	
9	-1.99100e+00	-1.80031e-03	-1.81097e+00	
10	-1.99000e+00	-1.79941e-03	-1.81006e+00	
11	-1.98900e+00	-1.79851e-03	-1.80915e+00	
12	-1.98800e+00	-1.79761e-03	-1.80824e+00	
13	-1.98700e+00	-1.79671e-03	-1.80733e+00	
14	-1.98600e+00	-1.79581e-03	-1.80642e+00	
15	-1.98500e+00	-1.79491e-03	-1.80551e+00	
16	-1.98400e+00	-1.79401e-03	-1.80460e+00	
17	-1.98300e+00	-1.79311e-03	-1.80369e+00	
18	-1.98200e+00	-1.79221e-03	-1.80278e+00	
19	-1.98100e+00	-1.79130e-03	-1.80187e+00	
20	-1.98000e+00	-1.79040e-03	-1.80096e+00	
21	-1.97900e+00	-1.78950e-03	-1.80005e+00	
22	-1.97800e+00	-1.78860e-03	-1.79914e+00	
23	-1.97700e+00	-1.78770e-03	-1.79823e+00	
24	-1.97600e+00	-1.78680e-03	-1.79732e+00	
25	-1.97500e+00	-1.78590e-03	-1.79641e+00	
26	-1.97400e+00	-1.78500e-03	-1.79550e+00	
27	-1.97300e+00	-1.78410e-03	-1.79459e+00	
28	-1.97200e+00	-1.78320e-03	-1.79368e+00	
29	-1.97100e+00	-1.78230e-03	-1.79277e+00	
30	-1.97000e+00	-1.78139e-03	-1.79186e+00	
31	-1.96900e+00	-1.78049e-03	-1.79095e+00	
32	-1.96800e+00	-1.77959e-03	-1.79004e+00	
33	-1.96700e+00	-1.77869e-03	-1.78913e+00	
34	-1.96600e+00	-1.77779e-03	-1.78822e+00	
35	-1.96500e+00	-1.77689e-03	-1.78731e+00	
36	-1.96400e+00	-1.77599e-03	-1.78640e+00	
37	-1.96300e+00	-1.77509e-03	-1.78549e+00	
38	-1.96200e+00	-1.77419e-03	-1.78458e+00	
39	-1.96100e+00	-1.77329e-03	-1.78367e+00	
40	-1.96000e+00	-1.77239e-03	-1.78276e+00	
41	-1.95900e+00	-1.77149e-03	-1.78185e+00	
42	-1.95800e+00	-1.77058e-03	-1.78094e+00	
43	-1.95700e+00	-1.76968e-03	-1.78003e+00	
44	-1.95600e+00	-1.76878e-03	-1.77912e+00	
45	-1.95500e+00	-1.76788e-03	-1.77821e+00	
46	-1.95400e+00	-1.76698e-03	-1.77730e+00	
47	-1.95300e+00	-1.76608e-03	-1.77639e+00	
48	-1.95200e+00	-1.76518e-03	-1.77548e+00	
49	-1.95100e+00	-1.76428e-03	-1.77457e+00	
50	-1.95000e+00	-1.76338e-03	-1.77366e+00	
51	-1.94900e+00	-1.76248e-03	-1.77275e+00	
52	-1.94800e+00	-1.76158e-03	-1.77184e+00	
53	-1.94700e+00	-1.76067e-03	-1.77093e+00	
54	-1.94600e+00	-1.75977e-03	-1.77002e+00	

Index   v-sweep         -i(vs)          v(2)            
--------------------------------------------------------------------------------
55	-1.94500e+00	-1.75887e-03	-1.76911e+00	
56	-1.94400e+00	-1.75797e-03	-1.76820e+00	
57	-1.94300e+00	-1.75707e-03	-1.76729e+00	
58	-1.94200e+00	-1.75617e-03	-1.76638e+00	
59	-1.94100e+00	-1.75527e-03	-1.76547e+00	
60	-1.94000e+00	-1.75437e-03	-1.76456e+00	
61	-1.93900e+00	-1.75347e-03	-1.76365e+00	
62	-1.93800e+00	-1.75257e-03	-1.76274e+00	
63	-1.93700e+00	-1.75167e-03	-1.76183e+00	
64	-1.93600e+00	-1.75076e-03	-1.76092e+00	
65	-1.93500e+00	-1.74986e-03	-1.76001e+00	
66	-1.93400e+00	-1.74896e-03	-1.75910e+00	
67	-1.93300e+00	-1.74806e-03	-1.75819e+00	
68	-1.93200e+00	-1.74716e-03	-1.75728e+00	
69	-1.93100e+00	-1.74626e-03	-1.75637e+00	
70	-1.93000e+00	-1.74536e-03	-1.75546e+00	
71	-1.92900e+00	-1.74446e-03	-1.75455e+00	
72	-1.92800e+00	-1.74356e-03	-1.75364e+00	
73	-1.92700e+00	-1.74266e-03	-1.75273e+00	
74	-1.92600e+00	-1.74176e-03	-1.75182e+00	
75	-1.92500e+00	-1.74085e-03	-1.75091e+00	
76	-1.92400e+00	-1.73995e-03	-1.75000e+00	
77	-1.92300e+00	-1.73905e-03	-1.74909e+00	
78	-1.92200e+00	-1.73815e-03	-1.74818e+00	
79	-1.92100e+00	-1.73725e-03	-1.74727e+00	
80	-1.92000e+00	-1.73635e-03	-1.74637e+00	
81	-1.91900e+00	-1.73545e-03	-1.74546e+00	
82	-1.91800e+00	-1.73455e-03	-1.74455e+00	
83	-1.91700e+00	-1.73365e-03	-1.74364e+00	
84	-1.91600e+00	-1.73275e-03	-1.74273e+00	
85	-1.91500e+00	-1.73185e-03	-1.74182e+00	
86	-1.91400e+00	-1.73094e-03	-1.74091e+00	
87	-1.91300e+00	-1.73004e-03	-1.74000e+00	
88	-1.91200e+00	-1.72914e-03	-1.73909e+00	
89	-1.91100e+00	-1.72824e-03	-1.73818e+00	
90	-1.91000e+00	-1.72734e-03	-1.73727e+00	
91	-1.90900e+00	-1.72644e-03	-1.73636e+00	
92	-1.90800e+00	-1.72554e-03	-1.73545e+00	
93	-1.90700e+00	-1.72464e-03	-1.73454e+00	
94	-1.90600e+00	-1.72374e-03	-1.73363e+00	
95	-1.90500e+00	-1.72284e-03	-1.73272e+00	
96	-1.90400e+00	-1.72194e-03	-1.73181e+00	
97	-1.90300e+00	-1.72103e-03	-1.73090e+00	
98	-1.90200e+00	-1.72013e-03	-1.72999e+00	
99	-1.90100e+00	-1.71923e-03	-1.72908e+00	
100	-1.90000e+00	-1.71833e-03	-1.72817e+00	
101	-1.89900e+00	-1.71743e-03	-1.72726e+00	
102	-1.89800e+00	-1.71653e-03	-1.72635e+00	
103	-1.89700e+00	-1.71563e-03	-1.72544e+00	
104	-1.89600e+00	-1.71473e-03	-1.72453e+00	
105	-1.89500e+00	-1.71383e-03	-1.72362e+00	
106	-1.89400e+00	-1.71293e-03	-1.72271e+00	
107	-1.89300e+00	-1.71203e-03	-1.72180e+00	
108	-1.89200e+00	-1.71112e-03	-1.72089e+00	
109	-1.89100e+00	-1.71022e-03	-1.71998e+00	
110	-1.89000e+00	-1.70932e-03	-1.71907e+00	
111	-1.88900e+00	-1.70842e-03	-1.71816e+00	
112	-1.88800e+00	-1.70752e-03	-1.71725e+00	

Index   v-sweep         -i(vs)          v(2)            
--------------------------------------------------------------------------------
113	-1.88700e+00	-1.70662e-03	-1.71634e+00	
114	-1.88600e+00	-1.70572e-03	-1.71543e+00	
115	-1.88500e+00	-1.70482e-03	-1.71452e+00	
116	-1.88400e+00	-1.70392e-03	-1.71361e+00	
117	-1.88300e+00	-1.70302e-03	-1.71270e+00	
118	-1.88200e+00	-1.70212e-03	-1.71179e+00	
119	-1.88100e+00	-1.70121e-03	-1.71088e+00	
120	-1.88000e+00	-1.70031e-03	-1.70997e+00	
121	-1.87900e+00	-1.69941e-03	-1.70906e+00	
122	-1.87800e+00	-1.69851e-03	-1.70815e+00	
123	-1.87700e+00	-1.69761e-03	-1.70724e+00	
124	-1.87600e+00	-1.69671e-03	-1.70633e+00	
125	-1.87500e+00	-1.69581e-03	-1.70542e+00	
126	-1.87400e+00	-1.69491e-03	-1.70451e+00	
127	-1.87300e+00	-1.69401e-03	-1.70360e+00	
128	-1.87200e+00	-1.69311e-03	-1.70269e+00	
129	-1.87100e+00	-1.69221e-03	-1.70178e+00	
130	-1.87000e+00	-1.69130e-03	-1.70087e+00	
131	-1.86900e+00	-1.69040e-03	-1.69996e+00	
132	-1.86800e+00	-1.68950e-03	-1.69905e+00	
133	-1.86700e+00	-1.68860e-03	-1.69814e+00	
134	-1.86600e+00	-1.68770e-03	-1.69723e+00	
135	-1.86500e+00	-1.68680e-03	-1.69632e+00	
136	-1.86400e+00	-1.68590e-03	-1.69541e+00	
137	-1.86300e+00	-1.68500e-03	-1.69450e+00	
138	-1.86200e+00	-1.68410e-03	-1.69359e+00	
139	-1.86100e+00	-1.68320e-03	-1.69268e+00	
140	-1.86000e+00	-1.68230e-03	-1.69177e+00	
141	-1.85900e+00	-1.68139e-03	-1.69086e+00	
142	-1.85800e+00	-1.68049e-03	-1.68995e+00	
143	-1.85700e+00	-1.67959e-03	-1.68904e+00	
144	-1.85600e+00	-1.67869e-03	-1.68813e+00	
145	-1.85500e+00	-1.67779e-03	-1.68722e+00	
146	-1.85400e+00	-1.67689e-03	-1.68631e+00	
147	-1.85300e+00	-1.67599e-03	-1.68540e+00	
148	-1.85200e+00	-1.67509e-03	-1.68449e+00	
149	-1.85100e+00	-1.67419e-03	-1.68358e+00	
150	-1.85000e+00	-1.67329e-03	-1.68267e+00	
151	-1.84900e+00	-1.67239e-03	-1.68176e+00	
152	-1.84800e+00	-1.67148e-03	-1.68085e+00	
153	-1.84700e+00	-1.67058e-03	-1.67994e+00	
154	-1.84600e+00	-1.66968e-03	-1.67903e+00	
155	-1.84500e+00	-1.66878e-03	-1.67812e+00	
156	-1.84400e+00	-1.66788e-03	-1.67721e+00	
157	-1.84300e+00	-1.66698e-03	-1.67630e+00	
158	-1.84200e+00	-1.66608e-03	-1.67539e+00	
159	-1.84100e+00	-1.66518e-03	-1.67448e+00	
160	-1.84000e+00	-1.66428e-03	-1.67357e+00	
161	-1.83900e+00	-1.66338e-03	-1.67266e+00	
162	-1.83800e+00	-1.66248e-03	-1.67175e+00	
163	-1.83700e+00	-1.66158e-03	-1.67084e+00	
164	-1.83600e+00	-1.66067e-03	-1.66993e+00	
165	-1.83500e+00	-1.65977e-03	-1.66902e+00	
166	-1.83400e+00	-1.65887e-03	-1.66811e+00	
167	-1.83300e+00	-1.65797e-03	-1.66720e+00	
168	-1.83200e+00	-1.65707e-03	-1.66629e+00	
169	-1.83100e+00	-1.65617e-03	-1.66538e+00	
170	-1.83000e+00	-1.65527e-03	-1.66447e+00	

Index   v-sweep         -i(vs)          v(2)            
--------------------------------------------------------------------------------
171	-1.82900e+00	-1.65437e-03	-1.66356e+00	
172	-1.82800e+00	-1.65347e-03	-1.66265e+00	
173	-1.82700e+00	-1.65257e-03	-1.66174e+00	
174	-1.82600e+00	-1.65167e-03	-1.66083e+00	
175	-1.82500e+00	-1.65076e-03	-1.65992e+00	
176	-1.82400e+00	-1.64986e-03	-1.65901e+00	
177	-1.82300e+00	-1.64896e-03	-1.65810e+00	
178	-1.82200e+00	-1.64806e-03	-1.65719e+00	
179	-1.82100e+00	-1.64716e-03	-1.65628e+00	
180	-1.82000e+00	-1.64626e-03	-1.65537e+00	
181	-1.81900e+00	-1.64536e-03	-1.65446e+00	
182	-1.81800e+00	-1.64446e-03	-1.65355e+00	
183	-1.81700e+00	-1.64356e-03	-1.65264e+00	
184	-1.81600e+00	-1.64266e-03	-1.65173e+00	
185	-1.81500e+00	-1.64176e-03	-1.65082e+00	
186	-1.81400e+00	-1.64085e-03	-1.64991e+00	
187	-1.81300e+00	-1.63995e-03	-1.64900e+00	
188	-1.81200e+00	-1.63905e-03	-1.64809e+00	
189	-1.81100e+00	-1.63815e-03	-1.64718e+00	
190	-1.81000e+00	-1.63725e-03	-1.64627e+00	
191	-1.80900e+00	-1.63635e-03	-1.64537e+00	
192	-1.80800e+00	-1.63545e-03	-1.64446e+00	
193	-1.80700e+00	-1.63455e-03	-1.64355e+00	
194	-1.80600e+00	-1.63365e-03	-1.64264e+00	
195	-1.80500e+00	-1.63275e-03	-1.64173e+00	
196	-1.80400e+00	-1.63185e-03	-1.64082e+00	
197	-1.80300e+00	-1.63094e-03	-1.63991e+00	
198	-1.80200e+00	-1.63004e-03	-1.63900e+00	
199	-1.80100e+00	-1.62914e-03	-1.63809e+00	
200	-1.80000e+00	-1.62824e-03	-1.63718e+00	
201	-1.79900e+00	-1.62734e-03	-1.63627e+00	
202	-1.79800e+00	-1.62644e-03	-1.63536e+00	
203	-1.79700e+00	-1.62554e-03	-1.63445e+00	
204	-1.79600e+00	-1.62464e-03	-1.63354e+00	
205	-1.79500e+00	-1.62374e-03	-1.63263e+00	
206	-1.79400e+00	-1.62284e-03	-1.63172e+00	
207	-1.79300e+00	-1.62194e-03	-1.63081e+00	
208	-1.79200e+00	-1.62103e-03	-1.62990e+00	
209	-1.79100e+00	-1.62013e-03	-1.62899e+00	
210	-1.79000e+00	-1.61923e-03	-1.62808e+00	
211	-1.78900e+00	-1.61833e-03	-1.62717e+00	
212	-1.78800e+00	-1.61743e-03	-1.62626e+00	
213	-1.78700e+00	-1.61653e-03	-1.62535e+00	
214	-1.78600e+00	-1.61563e-03	-1.62444e+00	
215	-1.78500e+00	-1.61473e-03	-1.62353e+00	
216	-1.78400e+00	-1.61383e-03	-1.62262e+00	
217	-1.78300e+00	-1.61293e-03	-1.62171e+00	
218	-1.78200e+00	-1.61203e-03	-1.62080e+00	
219	-1.78100e+00	-1.61112e-03	-1.61989e+00	
220	-1.78000e+00	-1.61022e-03	-1.61898e+00	
221	-1.77900e+00	-1.60932e-03	-1.61807e+00	
222	-1.77800e+00	-1.60842e-03	-1.61716e+00	
223	-1.77700e+00	-1.60752e-03	-1.61625e+00	
224	-1.77600e+00	-1.60662e-03	-1.61534e+00	
225	-1.77500e+00	-1.60572e-03	-1.61443e+00	
226	-1.77400e+00	-1.60482e-03	-1.61352e+00	
227	-1.77300e+00	-1.60392e-03	-1.61261e+00	
228	-1.77200e+00	-1.60302e-03	-1.61170e+00	

Index   v-sweep         -i(vs)          v(2)            
--------------------------------------------------------------------------------
229	-1.77100e+00	-1.60212e-03	-1.61079e+00	
230	-1.77000e+00	-1.60121e-03	-1.60988e+00	
231	-1.76900e+00	-1.60031e-03	-1.60897e+00	
232	-1.76800e+00	-1.59941e-03	-1.60806e+00	
233	-1.76700e+00	-1.59851e-03	-1.60715e+00	
234	-1.76600e+00	-1.59761e-03	-1.60624e+00	
235	-1.76500e+00	-1.59671e-03	-1.60533e+00	
236	-1.76400e+00	-1.59581e-03	-1.60442e+00	
237	-1.76300e+00	-1.59491e-03	-1.60351e+00	
238	-1.76200e+00	-1.59401e-03	-1.60260e+00	
239	-1.76100e+00	-1.59311e-03	-1.60169e+00	
240	-1.76000e+00	-1.59221e-03	-1.60078e+00	
241	-1.75900e+00	-1.59130e-03	-1.59987e+00	
242	-1.75800e+00	-1.59040e-03	-1.59896e+00	
243	-1.75700e+00	-1.58950e-03	-1.59805e+00	
244	-1.75600e+00	-1.58860e-03	-1.59714e+00	
245	-1.75500e+00	-1.58770e-03	-1.59623e+00	
246	-1.75400e+00	-1.58680e-03	-1.59532e+00	
247	-1.75300e+00	-1.58590e-03	-1.59441e+00	
248	-1.75200e+00	-1.58500e-03	-1.59350e+00	
249	-1.75100e+00	-1.58410e-03	-1.59259e+00	
250	-1.75000e+00	-1.58320e-03	-1.59168e+00	
251	-1.74900e+00	-1.58230e-03	-1.59077e+00	
252	-1.74800e+00	-1.58139e-03	-1.58986e+00	
253	-1.74700e+00	-1.58049e-03	-1.58895e+00	
254	-1.74600e+00	-1.57959e-03	-1.58804e+00	
255	-1.74500e+00	-1.57869e-03	-1.58713e+00	
256	-1.74400e+00	-1.57779e-03	-1.58622e+00	
257	-1.74300e+00	-1.57689e-03	-1.58531e+00	
258	-1.74200e+00	-1.57599e-03	-1.58440e+00	
259	-1.74100e+00	-1.57509e-03	-1.58349e+00	
260	-1.74000e+00	-1.57419e-03	-1.58258e+00	
261	-1.73900e+00	-1.57329e-03	-1.58167e+00	
262	-1.73800e+00	-1.57239e-03	-1.58076e+00	
263	-1.73700e+00	-1.57148e-03	-1.57985e+00	
264	-1.73600e+00	-1.57058e-03	-1.57894e+00	
265	-1.73500e+00	-1.56968e-03	-1.57803e+00	
266	-1.73400e+00	-1.56878e-03	-1.57712e+00	
267	-1.73300e+00	-1.56788e-03	-1.57621e+00	
268	-1.73200e+00	-1.56698e-03	-1.57530e+00	
269	-1.73100e+00	-1.56608e-03	-1.57439e+00	
270	-1.73000e+00	-1.56518e-03	-1.57348e+00	
271	-1.72900e+00	-1.56428e-03	-1.57257e+00	
272	-1.72800e+00	-1.56338e-03	-1.57166e+00	
273	-1.72700e+00	-1.56248e-03	-1.57075e+00	
274	-1.72600e+00	-1.56157e-03	-1.56984e+00	
275	-1.72500e+00	-1.56067e-03	-1.56893e+00	
276	-1.72400e+00	-1.55977e-03	-1.56802e+00	
277	-1.72300e+00	-1.55887e-03	-1.56711e+00	
278	-1.72200e+00	-1.55797e-03	-1.56620e+00	
279	-1.72100e+00	-1.55707e-03	-1.56529e+00	
280	-1.72000e+00	-1.55617e-03	-1.56438e+00	
281	-1.71900e+00	-1.55527e-03	-1.56347e+00	
282	-1.71800e+00	-1.55437e-03	-1.56256e+00	
283	-1.71700e+00	-1.55347e-03	-1.56165e+00	
284	-1.71600e+00	-1.55257e-03	-1.56074e+00	
285	-1.71500e+00	-1.55167e-03	-1.55983e+00	
286	-1.71400e+00	-1.55076e-03	-1.55892e+00	

Index   v-sweep         -i(vs)          v(2)            
--------------------------------------------------------------------------------
287	-1.71300e+00	-1.54986e-03	-1.55801e+00	
288	-1.71200e+00	-1.54896e-03	-1.55710e+00	
289	-1.71100e+00	-1.54806e-03	-1.55619e+00	
290	-1.71000e+00	-1.54716e-03	-1.55528e+00	
291	-1.70900e+00	-1.54626e-03	-1.55437e+00	
292	-1.70800e+00	-1.54536e-03	-1.55346e+00	
293	-1.70700e+00	-1.54446e-03	-1.55255e+00	
294	-1.70600e+00	-1.54356e-03	-1.55164e+00	
295	-1.70500e+00	-1.54266e-03	-1.55073e+00	
296	-1.70400e+00	-1.54176e-03	-1.54982e+00	
297	-1.70300e+00	-1.54085e-03	-1.54891e+00	
298	-1.70200e+00	-1.53995e-03	-1.54800e+00	
299	-1.70100e+00	-1.53905e-03	-1.54709e+00	
300	-1.70000e+00	-1.53815e-03	-1.54618e+00	
301	-1.69900e+00	-1.53725e-03	-1.54527e+00	
302	-1.69800e+00	-1.53635e-03	-1.54437e+00	
303	-1.69700e+00	-1.53545e-03	-1.54346e+00	
304	-1.69600e+00	-1.53455e-03	-1.54255e+00	
305	-1.69500e+00	-1.53365e-03	-1.54164e+00	
306	-1.69400e+00	-1.53275e-03	-1.54073e+00	
307	-1.69300e+00	-1.53185e-03	-1.53982e+00	
308	-1.69200e+00	-1.53094e-03	-1.53891e+00	
309	-1.69100e+00	-1.53004e-03	-1.53800e+00	
310	-1.69000e+00	-1.52914e-03	-1.53709e+00	
311	-1.68900e+00	-1.52824e-03	-1.53618e+00	
312	-1.68800e+00	-1.52734e-03	-1.53527e+00	
313	-1.68700e+00	-1.52644e-03	-1.53436e+00	
314	-1.68600e+00	-1.52554e-03	-1.53345e+00	
315	-1.68500e+00	-1.52464e-03	-1.53254e+00	
316	-1.68400e+00	-1.52374e-03	-1.53163e+00	
317	-1.68300e+00	-1.52284e-03	-1.53072e+00	
318	-1.68200e+00	-1.52194e-03	-1.52981e+00	
319	-1.68100e+00	-1.52103e-03	-1.52890e+00	
320	-1.68000e+00	-1.52013e-03	-1.52799e+00	
321	-1.67900e+00	-1.51923e-03	-1.52708e+00	
322	-1.67800e+00	-1.51833e-03	-1.52617e+00	
323	-1.67700e+00	-1.51743e-03	-1.52526e+00	
324	-1.67600e+00	-1.51653e-03	-1.52435e+00	
325	-1.67500e+00	-1.51563e-03	-1.52344e+00	
326	-1.67400e+00	-1.51473e-03	-1.52253e+00	
327	-1.67300e+00	-1.51383e-03	-1.52162e+00	
328	-1.67200e+00	-1.51293e-03	-1.52071e+00	
329	-1.67100e+00	-1.51203e-03	-1.51980e+00	
330	-1.67000e+00	-1.51112e-03	-1.51889e+00	
331	-1.66900e+00	-1.51022e-03	-1.51798e+00	
332	-1.66800e+00	-1.50932e-03	-1.51707e+00	
333	-1.66700e+00	-1.50842e-03	-1.51616e+00	
334	-1.66600e+00	-1.50752e-03	-1.51525e+00	
335	-1.66500e+00	-1.50662e-03	-1.51434e+00	
336	-1.66400e+00	-1.50572e-03	-1.51343e+00	
337	-1.66300e+00	-1.50482e-03	-1.51252e+00	
338	-1.66200e+00	-1.50392e-03	-1.51161e+00	
339	-1.66100e+00	-1.50302e-03	-1.51070e+00	
340	-1.66000e+00	-1.50212e-03	-1.50979e+00	
341	-1.65900e+00	-1.50121e-03	-1.50888e+00	
342	-1.65800e+00	-1.50031e-03	-1.50797e+00	
343	-1.65700e+00	-1.49941e-03	-1.50706e+00	
344	-1.65600e+00	-1.49851e-03	-1.50615e+00	

Index   v-sweep         -i(vs)          v(2)            
--------------------------------------------------------------------------------
345	-1.65500e+00	-1.49761e-03	-1.50524e+00	
346	-1.65400e+00	-1.49671e-03	-1.50433e+00	
347	-1.65300e+00	-1.49581e-03	-1.50342e+00	
348	-1.65200e+00	-1.49491e-03	-1.50251e+00	
349	-1.65100e+00	-1.49401e-03	-1.50160e+00	
350	-1.65000e+00	-1.49311e-03	-1.50069e+00	
351	-1.64900e+00	-1.49221e-03	-1.49978e+00	
352	-1.64800e+00	-1.49130e-03	-1.49887e+00	
353	-1.64700e+00	-1.49040e-03	-1.49796e+00	
354	-1.64600e+00	-1.48950e-03	-1.49705e+00	
355	-1.64500e+00	-1.48860e-03	-1.49614e+00	
356	-1.64400e+00	-1.48770e-03	-1.49523e+00	
357	-1.64300e+00	-1.48680e-03	-1.49432e+00	
358	-1.64200e+00	-1.48590e-03	-1.49341e+00	
359	-1.64100e+00	-1.48500e-03	-1.49250e+00	
360	-1.64000e+00	-1.48410e-03	-1.49159e+00	
361	-1.63900e+00	-1.48320e-03	-1.49068e+00	
362	-1.63800e+00	-1.48230e-03	-1.48977e+00	
363	-1.63700e+00	-1.48139e-03	-1.48886e+00	
364	-1.63600e+00	-1.48049e-03	-1.48795e+00	
365	-1.63500e+00	-1.47959e-03	-1.48704e+00	
366	-1.63400e+00	-1.47869e-03	-1.48613e+00	
367	-1.63300e+00	-1.47779e-03	-1.48522e+00	
368	-1.63200e+00	-1.47689e-03	-1.48431e+00	
369	-1.63100e+00	-1.47599e-03	-1.48340e+00	
370	-1.63000e+00	-1.47509e-03	-1.48249e+00	
371	-1.62900e+00	-1.47419e-03	-1.48158e+00	
372	-1.62800e+00	-1.47329e-03	-1.48067e+00	
373	-1.62700e+00	-1.47239e-03	-1.47976e+00	
374	-1.62600e+00	-1.47148e-03	-1.47885e+00	
375	-1.62500e+00	-1.47058e-03	-1.47794e+00	
376	-1.62400e+00	-1.46968e-03	-1.47703e+00	
377	-1.62300e+00	-1.46878e-03	-1.47612e+00	
378	-1.62200e+00	-1.46788e-03	-1.47521e+00	
379	-1.62100e+00	-1.46698e-03	-1.47430e+00	
380	-1.62000e+00	-1.46608e-03	-1.47339e+00	
381	-1.61900e+00	-1.46518e-03	-1.47248e+00	
382	-1.61800e+00	-1.46428e-03	-1.47157e+00	
383	-1.61700e+00	-1.46338e-03	-1.47066e+00	
384	-1.61600e+00	-1.46248e-03	-1.46975e+00	
385	-1.61500e+00	-1.46157e-03	-1.46884e+00	
386	-1.61400e+00	-1.46067e-03	-1.46793e+00	
387	-1.61300e+00	-1.45977e-03	-1.46702e+00	
388	-1.61200e+00	-1.45887e-03	-1.46611e+00	
389	-1.61100e+00	-1.45797e-03	-1.46520e+00	
390	-1.61000e+00	-1.45707e-03	-1.46429e+00	
391	-1.60900e+00	-1.45617e-03	-1.46338e+00	
392	-1.60800e+00	-1.45527e-03	-1.46247e+00	
393	-1.60700e+00	-1.45437e-03	-1.46156e+00	
394	-1.60600e+00	-1.45347e-03	-1.46065e+00	
395	-1.60500e+00	-1.45257e-03	-1.45974e+00	
396	-1.60400e+00	-1.45166e-03	-1.45883e+00	
397	-1.60300e+00	-1.45076e-03	-1.45792e+00	
398	-1.60200e+00	-1.44986e-03	-1.45701e+00	
399	-1.60100e+00	-1.44896e-03	-1.45610e+00	
400	-1.60000e+00	-1.44806e-03	-1.45519e+00	
401	-1.59900e+00	-1.44716e-03	-1.45428e+00	
402	-1.59800e+00	-1.44626e-03	-1.45337e+00	

Index   v-sweep         -i(vs)          v(2)            
--------------------------------------------------------------------------------
403	-1.59700e+00	-1.44536e-03	-1.45246e+00	
404	-1.59600e+00	-1.44446e-03	-1.45155e+00	
405	-1.59500e+00	-1.44356e-03	-1.45064e+00	
406	-1.59400e+00	-1.44266e-03	-1.44973e+00	
407	-1.59300e+00	-1.44176e-03	-1.44882e+00	
408	-1.59200e+00	-1.44085e-03	-1.44791e+00	
409	-1.59100e+00	-1.43995e-03	-1.44700e+00	
410	-1.59000e+00	-1.43905e-03	-1.44609e+00	
411	-1.58900e+00	-1.43815e-03	-1.44518e+00	
412	-1.58800e+00	-1.43725e-03	-1.44427e+00	
413	-1.58700e+00	-1.43635e-03	-1.44337e+00	
414	-1.58600e+00	-1.43545e-03	-1.44246e+00	
415	-1.58500e+00	-1.43455e-03	-1.44155e+00	
416	-1.58400e+00	-1.43365e-03	-1.44064e+00	
417	-1.58300e+00	-1.43275e-03	-1.43973e+00	
418	-1.58200e+00	-1.43185e-03	-1.43882e+00	
419	-1.58100e+00	-1.43094e-03	-1.43791e+00	
420	-1.58000e+00	-1.43004e-03	-1.43700e+00	
421	-1.57900e+00	-1.42914e-03	-1.43609e+00	
422	-1.57800e+00	-1.42824e-03	-1.43518e+00	
423	-1.57700e+00	-1.42734e-03	-1.43427e+00	
424	-1.57600e+00	-1.42644e-03	-1.43336e+00	
425	-1.57500e+00	-1.42554e-03	-1.43245e+00	
