     i-v characteristic of solar cell for different levels of illumination
     DC transfer characteristic  Sun Sep 25 21:57:31  2022
--------------------------------------------------------------------------------
Index   v-sweep         -i(vs)          v(2)            
--------------------------------------------------------------------------------
0	-2.00000e+00	-1.08141e-02	-9.18592e-01	
1	-1.99900e+00	-1.08132e-02	-9.17682e-01	
2	-1.99800e+00	-1.08123e-02	-9.16772e-01	
3	-1.99700e+00	-1.08114e-02	-9.15862e-01	
4	-1.99600e+00	-1.08105e-02	-9.14952e-01	
5	-1.99500e+00	-1.08096e-02	-9.14042e-01	
6	-1.99400e+00	-1.08087e-02	-9.13132e-01	
7	-1.99300e+00	-1.08078e-02	-9.12223e-01	
8	-1.99200e+00	-1.08069e-02	-9.11313e-01	
9	-1.99100e+00	-1.08060e-02	-9.10403e-01	
10	-1.99000e+00	-1.08051e-02	-9.09493e-01	
11	-1.98900e+00	-1.08042e-02	-9.08583e-01	
12	-1.98800e+00	-1.08033e-02	-9.07673e-01	
13	-1.98700e+00	-1.08024e-02	-9.06763e-01	
14	-1.98600e+00	-1.08015e-02	-9.05853e-01	
15	-1.98500e+00	-1.08006e-02	-9.04943e-01	
16	-1.98400e+00	-1.07997e-02	-9.04033e-01	
17	-1.98300e+00	-1.07988e-02	-9.03123e-01	
18	-1.98200e+00	-1.07979e-02	-9.02214e-01	
19	-1.98100e+00	-1.07970e-02	-9.01304e-01	
20	-1.98000e+00	-1.07961e-02	-9.00394e-01	
21	-1.97900e+00	-1.07952e-02	-8.99484e-01	
22	-1.97800e+00	-1.07943e-02	-8.98574e-01	
23	-1.97700e+00	-1.07934e-02	-8.97664e-01	
24	-1.97600e+00	-1.07925e-02	-8.96754e-01	
25	-1.97500e+00	-1.07916e-02	-8.95844e-01	
26	-1.97400e+00	-1.07907e-02	-8.94934e-01	
27	-1.97300e+00	-1.07898e-02	-8.94024e-01	
28	-1.97200e+00	-1.07889e-02	-8.93114e-01	
29	-1.97100e+00	-1.07880e-02	-8.92204e-01	
30	-1.97000e+00	-1.07871e-02	-8.91295e-01	
31	-1.96900e+00	-1.07862e-02	-8.90385e-01	
32	-1.96800e+00	-1.07853e-02	-8.89475e-01	
33	-1.96700e+00	-1.07844e-02	-8.88565e-01	
34	-1.96600e+00	-1.07835e-02	-8.87655e-01	
35	-1.96500e+00	-1.07825e-02	-8.86745e-01	
36	-1.96400e+00	-1.07816e-02	-8.85835e-01	
37	-1.96300e+00	-1.07807e-02	-8.84925e-01	
38	-1.96200e+00	-1.07798e-02	-8.84015e-01	
39	-1.96100e+00	-1.07789e-02	-8.83105e-01	
40	-1.96000e+00	-1.07780e-02	-8.82195e-01	
41	-1.95900e+00	-1.07771e-02	-8.81286e-01	
42	-1.95800e+00	-1.07762e-02	-8.80376e-01	
43	-1.95700e+00	-1.07753e-02	-8.79466e-01	
44	-1.95600e+00	-1.07744e-02	-8.78556e-01	
45	-1.95500e+00	-1.07735e-02	-8.77646e-01	
46	-1.95400e+00	-1.07726e-02	-8.76736e-01	
47	-1.95300e+00	-1.07717e-02	-8.75826e-01	
48	-1.95200e+00	-1.07708e-02	-8.74916e-01	
49	-1.95100e+00	-1.07699e-02	-8.74006e-01	
50	-1.95000e+00	-1.07690e-02	-8.73096e-01	
51	-1.94900e+00	-1.07681e-02	-8.72186e-01	
52	-1.94800e+00	-1.07672e-02	-8.71277e-01	
53	-1.94700e+00	-1.07663e-02	-8.70367e-01	
54	-1.94600e+00	-1.07654e-02	-8.69457e-01	

Index   v-sweep         -i(vs)          v(2)            
--------------------------------------------------------------------------------
55	-1.94500e+00	-1.07645e-02	-8.68547e-01	
56	-1.94400e+00	-1.07636e-02	-8.67637e-01	
57	-1.94300e+00	-1.07627e-02	-8.66727e-01	
58	-1.94200e+00	-1.07618e-02	-8.65817e-01	
59	-1.94100e+00	-1.07609e-02	-8.64907e-01	
60	-1.94000e+00	-1.07600e-02	-8.63997e-01	
61	-1.93900e+00	-1.07591e-02	-8.63087e-01	
62	-1.93800e+00	-1.07582e-02	-8.62177e-01	
63	-1.93700e+00	-1.07573e-02	-8.61268e-01	
64	-1.93600e+00	-1.07564e-02	-8.60358e-01	
65	-1.93500e+00	-1.07555e-02	-8.59448e-01	
66	-1.93400e+00	-1.07546e-02	-8.58538e-01	
67	-1.93300e+00	-1.07537e-02	-8.57628e-01	
68	-1.93200e+00	-1.07528e-02	-8.56718e-01	
69	-1.93100e+00	-1.07519e-02	-8.55808e-01	
70	-1.93000e+00	-1.07510e-02	-8.54898e-01	
71	-1.92900e+00	-1.07501e-02	-8.53988e-01	
72	-1.92800e+00	-1.07492e-02	-8.53078e-01	
73	-1.92700e+00	-1.07483e-02	-8.52168e-01	
74	-1.92600e+00	-1.07474e-02	-8.51259e-01	
75	-1.92500e+00	-1.07465e-02	-8.50349e-01	
76	-1.92400e+00	-1.07456e-02	-8.49439e-01	
77	-1.92300e+00	-1.07447e-02	-8.48529e-01	
78	-1.92200e+00	-1.07438e-02	-8.47619e-01	
79	-1.92100e+00	-1.07429e-02	-8.46709e-01	
80	-1.92000e+00	-1.07420e-02	-8.45799e-01	
81	-1.91900e+00	-1.07411e-02	-8.44889e-01	
82	-1.91800e+00	-1.07402e-02	-8.43979e-01	
83	-1.91700e+00	-1.07393e-02	-8.43069e-01	
84	-1.91600e+00	-1.07384e-02	-8.42159e-01	
85	-1.91500e+00	-1.07375e-02	-8.41250e-01	
86	-1.91400e+00	-1.07366e-02	-8.40340e-01	
87	-1.91300e+00	-1.07357e-02	-8.39430e-01	
88	-1.91200e+00	-1.07348e-02	-8.38520e-01	
89	-1.91100e+00	-1.07339e-02	-8.37610e-01	
90	-1.91000e+00	-1.07330e-02	-8.36700e-01	
91	-1.90900e+00	-1.07321e-02	-8.35790e-01	
92	-1.90800e+00	-1.07312e-02	-8.34880e-01	
93	-1.90700e+00	-1.07303e-02	-8.33970e-01	
94	-1.90600e+00	-1.07294e-02	-8.33060e-01	
95	-1.90500e+00	-1.07285e-02	-8.32150e-01	
96	-1.90400e+00	-1.07276e-02	-8.31241e-01	
97	-1.90300e+00	-1.07267e-02	-8.30331e-01	
98	-1.90200e+00	-1.07258e-02	-8.29421e-01	
99	-1.90100e+00	-1.07249e-02	-8.28511e-01	
100	-1.90000e+00	-1.07240e-02	-8.27601e-01	
101	-1.89900e+00	-1.07231e-02	-8.26691e-01	
102	-1.89800e+00	-1.07222e-02	-8.25781e-01	
103	-1.89700e+00	-1.07213e-02	-8.24871e-01	
104	-1.89600e+00	-1.07204e-02	-8.23961e-01	
105	-1.89500e+00	-1.07195e-02	-8.23051e-01	
106	-1.89400e+00	-1.07186e-02	-8.22141e-01	
107	-1.89300e+00	-1.07177e-02	-8.21232e-01	
108	-1.89200e+00	-1.07168e-02	-8.20322e-01	
109	-1.89100e+00	-1.07159e-02	-8.19412e-01	
110	-1.89000e+00	-1.07150e-02	-8.18502e-01	
111	-1.88900e+00	-1.07141e-02	-8.17592e-01	
112	-1.88800e+00	-1.07132e-02	-8.16682e-01	

Index   v-sweep         -i(vs)          v(2)            
--------------------------------------------------------------------------------
113	-1.88700e+00	-1.07123e-02	-8.15772e-01	
114	-1.88600e+00	-1.07114e-02	-8.14862e-01	
115	-1.88500e+00	-1.07105e-02	-8.13952e-01	
116	-1.88400e+00	-1.07096e-02	-8.13042e-01	
117	-1.88300e+00	-1.07087e-02	-8.12132e-01	
118	-1.88200e+00	-1.07078e-02	-8.11223e-01	
119	-1.88100e+00	-1.07069e-02	-8.10313e-01	
120	-1.88000e+00	-1.07060e-02	-8.09403e-01	
121	-1.87900e+00	-1.07051e-02	-8.08493e-01	
122	-1.87800e+00	-1.07042e-02	-8.07583e-01	
123	-1.87700e+00	-1.07033e-02	-8.06673e-01	
124	-1.87600e+00	-1.07024e-02	-8.05763e-01	
125	-1.87500e+00	-1.07015e-02	-8.04853e-01	
126	-1.87400e+00	-1.07006e-02	-8.03943e-01	
127	-1.87300e+00	-1.06997e-02	-8.03033e-01	
128	-1.87200e+00	-1.06988e-02	-8.02123e-01	
129	-1.87100e+00	-1.06979e-02	-8.01214e-01	
130	-1.87000e+00	-1.06970e-02	-8.00304e-01	
131	-1.86900e+00	-1.06961e-02	-7.99394e-01	
132	-1.86800e+00	-1.06952e-02	-7.98484e-01	
133	-1.86700e+00	-1.06943e-02	-7.97574e-01	
134	-1.86600e+00	-1.06934e-02	-7.96664e-01	
135	-1.86500e+00	-1.06925e-02	-7.95754e-01	
136	-1.86400e+00	-1.06916e-02	-7.94844e-01	
137	-1.86300e+00	-1.06907e-02	-7.93934e-01	
138	-1.86200e+00	-1.06898e-02	-7.93024e-01	
139	-1.86100e+00	-1.06889e-02	-7.92114e-01	
140	-1.86000e+00	-1.06880e-02	-7.91205e-01	
141	-1.85900e+00	-1.06871e-02	-7.90295e-01	
142	-1.85800e+00	-1.06862e-02	-7.89385e-01	
143	-1.85700e+00	-1.06853e-02	-7.88475e-01	
144	-1.85600e+00	-1.06844e-02	-7.87565e-01	
145	-1.85500e+00	-1.06834e-02	-7.86655e-01	
146	-1.85400e+00	-1.06825e-02	-7.85745e-01	
147	-1.85300e+00	-1.06816e-02	-7.84835e-01	
148	-1.85200e+00	-1.06807e-02	-7.83925e-01	
149	-1.85100e+00	-1.06798e-02	-7.83015e-01	
150	-1.85000e+00	-1.06789e-02	-7.82105e-01	
151	-1.84900e+00	-1.06780e-02	-7.81196e-01	
152	-1.84800e+00	-1.06771e-02	-7.80286e-01	
153	-1.84700e+00	-1.06762e-02	-7.79376e-01	
154	-1.84600e+00	-1.06753e-02	-7.78466e-01	
155	-1.84500e+00	-1.06744e-02	-7.77556e-01	
156	-1.84400e+00	-1.06735e-02	-7.76646e-01	
157	-1.84300e+00	-1.06726e-02	-7.75736e-01	
158	-1.84200e+00	-1.06717e-02	-7.74826e-01	
159	-1.84100e+00	-1.06708e-02	-7.73916e-01	
160	-1.84000e+00	-1.06699e-02	-7.73006e-01	
161	-1.83900e+00	-1.06690e-02	-7.72096e-01	
162	-1.83800e+00	-1.06681e-02	-7.71187e-01	
163	-1.83700e+00	-1.06672e-02	-7.70277e-01	
164	-1.83600e+00	-1.06663e-02	-7.69367e-01	
165	-1.83500e+00	-1.06654e-02	-7.68457e-01	
166	-1.83400e+00	-1.06645e-02	-7.67547e-01	
167	-1.83300e+00	-1.06636e-02	-7.66637e-01	
168	-1.83200e+00	-1.06627e-02	-7.65727e-01	
169	-1.83100e+00	-1.06618e-02	-7.64817e-01	
170	-1.83000e+00	-1.06609e-02	-7.63907e-01	

Index   v-sweep         -i(vs)          v(2)            
--------------------------------------------------------------------------------
171	-1.82900e+00	-1.06600e-02	-7.62997e-01	
172	-1.82800e+00	-1.06591e-02	-7.62087e-01	
173	-1.82700e+00	-1.06582e-02	-7.61178e-01	
174	-1.82600e+00	-1.06573e-02	-7.60268e-01	
175	-1.82500e+00	-1.06564e-02	-7.59358e-01	
176	-1.82400e+00	-1.06555e-02	-7.58448e-01	
177	-1.82300e+00	-1.06546e-02	-7.57538e-01	
178	-1.82200e+00	-1.06537e-02	-7.56628e-01	
179	-1.82100e+00	-1.06528e-02	-7.55718e-01	
180	-1.82000e+00	-1.06519e-02	-7.54808e-01	
181	-1.81900e+00	-1.06510e-02	-7.53898e-01	
182	-1.81800e+00	-1.06501e-02	-7.52988e-01	
183	-1.81700e+00	-1.06492e-02	-7.52078e-01	
184	-1.81600e+00	-1.06483e-02	-7.51169e-01	
185	-1.81500e+00	-1.06474e-02	-7.50259e-01	
186	-1.81400e+00	-1.06465e-02	-7.49349e-01	
187	-1.81300e+00	-1.06456e-02	-7.48439e-01	
188	-1.81200e+00	-1.06447e-02	-7.47529e-01	
189	-1.81100e+00	-1.06438e-02	-7.46619e-01	
190	-1.81000e+00	-1.06429e-02	-7.45709e-01	
191	-1.80900e+00	-1.06420e-02	-7.44799e-01	
192	-1.80800e+00	-1.06411e-02	-7.43889e-01	
193	-1.80700e+00	-1.06402e-02	-7.42979e-01	
194	-1.80600e+00	-1.06393e-02	-7.42069e-01	
195	-1.80500e+00	-1.06384e-02	-7.41160e-01	
196	-1.80400e+00	-1.06375e-02	-7.40250e-01	
197	-1.80300e+00	-1.06366e-02	-7.39340e-01	
198	-1.80200e+00	-1.06357e-02	-7.38430e-01	
199	-1.80100e+00	-1.06348e-02	-7.37520e-01	
200	-1.80000e+00	-1.06339e-02	-7.36610e-01	
201	-1.79900e+00	-1.06330e-02	-7.35700e-01	
202	-1.79800e+00	-1.06321e-02	-7.34790e-01	
203	-1.79700e+00	-1.06312e-02	-7.33880e-01	
204	-1.79600e+00	-1.06303e-02	-7.32970e-01	
205	-1.79500e+00	-1.06294e-02	-7.32060e-01	
206	-1.79400e+00	-1.06285e-02	-7.31151e-01	
207	-1.79300e+00	-1.06276e-02	-7.30241e-01	
208	-1.79200e+00	-1.06267e-02	-7.29331e-01	
209	-1.79100e+00	-1.06258e-02	-7.28421e-01	
210	-1.79000e+00	-1.06249e-02	-7.27511e-01	
211	-1.78900e+00	-1.06240e-02	-7.26601e-01	
212	-1.78800e+00	-1.06231e-02	-7.25691e-01	
213	-1.78700e+00	-1.06222e-02	-7.24781e-01	
214	-1.78600e+00	-1.06213e-02	-7.23871e-01	
215	-1.78500e+00	-1.06204e-02	-7.22961e-01	
216	-1.78400e+00	-1.06195e-02	-7.22051e-01	
217	-1.78300e+00	-1.06186e-02	-7.21142e-01	
218	-1.78200e+00	-1.06177e-02	-7.20232e-01	
219	-1.78100e+00	-1.06168e-02	-7.19322e-01	
220	-1.78000e+00	-1.06159e-02	-7.18412e-01	
221	-1.77900e+00	-1.06150e-02	-7.17502e-01	
222	-1.77800e+00	-1.06141e-02	-7.16592e-01	
223	-1.77700e+00	-1.06132e-02	-7.15682e-01	
224	-1.77600e+00	-1.06123e-02	-7.14772e-01	
225	-1.77500e+00	-1.06114e-02	-7.13862e-01	
226	-1.77400e+00	-1.06105e-02	-7.12952e-01	
227	-1.77300e+00	-1.06096e-02	-7.12042e-01	
228	-1.77200e+00	-1.06087e-02	-7.11133e-01	

Index   v-sweep         -i(vs)          v(2)            
--------------------------------------------------------------------------------
229	-1.77100e+00	-1.06078e-02	-7.10223e-01	
230	-1.77000e+00	-1.06069e-02	-7.09313e-01	
231	-1.76900e+00	-1.06060e-02	-7.08403e-01	
232	-1.76800e+00	-1.06051e-02	-7.07493e-01	
233	-1.76700e+00	-1.06042e-02	-7.06583e-01	
234	-1.76600e+00	-1.06033e-02	-7.05673e-01	
235	-1.76500e+00	-1.06024e-02	-7.04763e-01	
236	-1.76400e+00	-1.06015e-02	-7.03853e-01	
237	-1.76300e+00	-1.06006e-02	-7.02943e-01	
238	-1.76200e+00	-1.05997e-02	-7.02034e-01	
239	-1.76100e+00	-1.05988e-02	-7.01124e-01	
240	-1.76000e+00	-1.05979e-02	-7.00214e-01	
241	-1.75900e+00	-1.05970e-02	-6.99304e-01	
242	-1.75800e+00	-1.05961e-02	-6.98394e-01	
243	-1.75700e+00	-1.05952e-02	-6.97484e-01	
244	-1.75600e+00	-1.05943e-02	-6.96574e-01	
245	-1.75500e+00	-1.05934e-02	-6.95664e-01	
246	-1.75400e+00	-1.05925e-02	-6.94754e-01	
247	-1.75300e+00	-1.05916e-02	-6.93844e-01	
248	-1.75200e+00	-1.05907e-02	-6.92934e-01	
249	-1.75100e+00	-1.05898e-02	-6.92025e-01	
250	-1.75000e+00	-1.05889e-02	-6.91115e-01	
251	-1.74900e+00	-1.05880e-02	-6.90205e-01	
252	-1.74800e+00	-1.05871e-02	-6.89295e-01	
253	-1.74700e+00	-1.05862e-02	-6.88385e-01	
254	-1.74600e+00	-1.05853e-02	-6.87475e-01	
255	-1.74500e+00	-1.05843e-02	-6.86565e-01	
256	-1.74400e+00	-1.05834e-02	-6.85655e-01	
257	-1.74300e+00	-1.05825e-02	-6.84745e-01	
258	-1.74200e+00	-1.05816e-02	-6.83835e-01	
259	-1.74100e+00	-1.05807e-02	-6.82925e-01	
260	-1.74000e+00	-1.05798e-02	-6.82016e-01	
261	-1.73900e+00	-1.05789e-02	-6.81106e-01	
262	-1.73800e+00	-1.05780e-02	-6.80196e-01	
263	-1.73700e+00	-1.05771e-02	-6.79286e-01	
264	-1.73600e+00	-1.05762e-02	-6.78376e-01	
265	-1.73500e+00	-1.05753e-02	-6.77466e-01	
266	-1.73400e+00	-1.05744e-02	-6.76556e-01	
267	-1.73300e+00	-1.05735e-02	-6.75646e-01	
268	-1.73200e+00	-1.05726e-02	-6.74736e-01	
269	-1.73100e+00	-1.05717e-02	-6.73826e-01	
270	-1.73000e+00	-1.05708e-02	-6.72916e-01	
271	-1.72900e+00	-1.05699e-02	-6.72007e-01	
272	-1.72800e+00	-1.05690e-02	-6.71097e-01	
273	-1.72700e+00	-1.05681e-02	-6.70187e-01	
274	-1.72600e+00	-1.05672e-02	-6.69277e-01	
275	-1.72500e+00	-1.05663e-02	-6.68367e-01	
276	-1.72400e+00	-1.05654e-02	-6.67457e-01	
277	-1.72300e+00	-1.05645e-02	-6.66547e-01	
278	-1.72200e+00	-1.05636e-02	-6.65637e-01	
279	-1.72100e+00	-1.05627e-02	-6.64727e-01	
280	-1.72000e+00	-1.05618e-02	-6.63817e-01	
281	-1.71900e+00	-1.05609e-02	-6.62907e-01	
282	-1.71800e+00	-1.05600e-02	-6.61998e-01	
283	-1.71700e+00	-1.05591e-02	-6.61088e-01	
284	-1.71600e+00	-1.05582e-02	-6.60178e-01	
285	-1.71500e+00	-1.05573e-02	-6.59268e-01	
286	-1.71400e+00	-1.05564e-02	-6.58358e-01	

Index   v-sweep         -i(vs)          v(2)            
--------------------------------------------------------------------------------
287	-1.71300e+00	-1.05555e-02	-6.57448e-01	
288	-1.71200e+00	-1.05546e-02	-6.56538e-01	
289	-1.71100e+00	-1.05537e-02	-6.55628e-01	
290	-1.71000e+00	-1.05528e-02	-6.54718e-01	
291	-1.70900e+00	-1.05519e-02	-6.53808e-01	
292	-1.70800e+00	-1.05510e-02	-6.52898e-01	
293	-1.70700e+00	-1.05501e-02	-6.51989e-01	
294	-1.70600e+00	-1.05492e-02	-6.51079e-01	
295	-1.70500e+00	-1.05483e-02	-6.50169e-01	
296	-1.70400e+00	-1.05474e-02	-6.49259e-01	
297	-1.70300e+00	-1.05465e-02	-6.48349e-01	
298	-1.70200e+00	-1.05456e-02	-6.47439e-01	
299	-1.70100e+00	-1.05447e-02	-6.46529e-01	
300	-1.70000e+00	-1.05438e-02	-6.45619e-01	
301	-1.69900e+00	-1.05429e-02	-6.44709e-01	
302	-1.69800e+00	-1.05420e-02	-6.43799e-01	
303	-1.69700e+00	-1.05411e-02	-6.42889e-01	
304	-1.69600e+00	-1.05402e-02	-6.41980e-01	
305	-1.69500e+00	-1.05393e-02	-6.41070e-01	
306	-1.69400e+00	-1.05384e-02	-6.40160e-01	
307	-1.69300e+00	-1.05375e-02	-6.39250e-01	
308	-1.69200e+00	-1.05366e-02	-6.38340e-01	
309	-1.69100e+00	-1.05357e-02	-6.37430e-01	
310	-1.69000e+00	-1.05348e-02	-6.36520e-01	
311	-1.68900e+00	-1.05339e-02	-6.35610e-01	
312	-1.68800e+00	-1.05330e-02	-6.34700e-01	
313	-1.68700e+00	-1.05321e-02	-6.33790e-01	
314	-1.68600e+00	-1.05312e-02	-6.32880e-01	
315	-1.68500e+00	-1.05303e-02	-6.31971e-01	
316	-1.68400e+00	-1.05294e-02	-6.31061e-01	
317	-1.68300e+00	-1.05285e-02	-6.30151e-01	
318	-1.68200e+00	-1.05276e-02	-6.29241e-01	
319	-1.68100e+00	-1.05267e-02	-6.28331e-01	
320	-1.68000e+00	-1.05258e-02	-6.27421e-01	
321	-1.67900e+00	-1.05249e-02	-6.26511e-01	
322	-1.67800e+00	-1.05240e-02	-6.25601e-01	
323	-1.67700e+00	-1.05231e-02	-6.24691e-01	
324	-1.67600e+00	-1.05222e-02	-6.23781e-01	
325	-1.67500e+00	-1.05213e-02	-6.22872e-01	
326	-1.67400e+00	-1.05204e-02	-6.21962e-01	
327	-1.67300e+00	-1.05195e-02	-6.21052e-01	
328	-1.67200e+00	-1.05186e-02	-6.20142e-01	
329	-1.67100e+00	-1.05177e-02	-6.19232e-01	
330	-1.67000e+00	-1.05168e-02	-6.18322e-01	
331	-1.66900e+00	-1.05159e-02	-6.17412e-01	
332	-1.66800e+00	-1.05150e-02	-6.16502e-01	
333	-1.66700e+00	-1.05141e-02	-6.15592e-01	
334	-1.66600e+00	-1.05132e-02	-6.14682e-01	
335	-1.66500e+00	-1.05123e-02	-6.13772e-01	
336	-1.66400e+00	-1.05114e-02	-6.12863e-01	
337	-1.66300e+00	-1.05105e-02	-6.11953e-01	
338	-1.66200e+00	-1.05096e-02	-6.11043e-01	
339	-1.66100e+00	-1.05087e-02	-6.10133e-01	
340	-1.66000e+00	-1.05078e-02	-6.09223e-01	
341	-1.65900e+00	-1.05069e-02	-6.08313e-01	
342	-1.65800e+00	-1.05060e-02	-6.07403e-01	
343	-1.65700e+00	-1.05051e-02	-6.06493e-01	
344	-1.65600e+00	-1.05042e-02	-6.05583e-01	

Index   v-sweep         -i(vs)          v(2)            
--------------------------------------------------------------------------------
345	-1.65500e+00	-1.05033e-02	-6.04673e-01	
346	-1.65400e+00	-1.05024e-02	-6.03763e-01	
347	-1.65300e+00	-1.05015e-02	-6.02854e-01	
348	-1.65200e+00	-1.05006e-02	-6.01944e-01	
349	-1.65100e+00	-1.04997e-02	-6.01034e-01	
350	-1.65000e+00	-1.04988e-02	-6.00124e-01	
351	-1.64900e+00	-1.04979e-02	-5.99214e-01	
352	-1.64800e+00	-1.04970e-02	-5.98304e-01	
353	-1.64700e+00	-1.04961e-02	-5.97394e-01	
354	-1.64600e+00	-1.04952e-02	-5.96484e-01	
355	-1.64500e+00	-1.04943e-02	-5.95574e-01	
356	-1.64400e+00	-1.04934e-02	-5.94664e-01	
357	-1.64300e+00	-1.04925e-02	-5.93754e-01	
358	-1.64200e+00	-1.04916e-02	-5.92845e-01	
359	-1.64100e+00	-1.04907e-02	-5.91935e-01	
360	-1.64000e+00	-1.04898e-02	-5.91025e-01	
361	-1.63900e+00	-1.04889e-02	-5.90115e-01	
362	-1.63800e+00	-1.04880e-02	-5.89205e-01	
363	-1.63700e+00	-1.04870e-02	-5.88295e-01	
364	-1.63600e+00	-1.04861e-02	-5.87385e-01	
365	-1.63500e+00	-1.04852e-02	-5.86475e-01	
366	-1.63400e+00	-1.04843e-02	-5.85565e-01	
367	-1.63300e+00	-1.04834e-02	-5.84655e-01	
368	-1.63200e+00	-1.04825e-02	-5.83746e-01	
369	-1.63100e+00	-1.04816e-02	-5.82836e-01	
370	-1.63000e+00	-1.04807e-02	-5.81926e-01	
371	-1.62900e+00	-1.04798e-02	-5.81016e-01	
372	-1.62800e+00	-1.04789e-02	-5.80106e-01	
373	-1.62700e+00	-1.04780e-02	-5.79196e-01	
374	-1.62600e+00	-1.04771e-02	-5.78286e-01	
375	-1.62500e+00	-1.04762e-02	-5.77376e-01	
376	-1.62400e+00	-1.04753e-02	-5.76466e-01	
377	-1.62300e+00	-1.04744e-02	-5.75556e-01	
378	-1.62200e+00	-1.04735e-02	-5.74646e-01	
379	-1.62100e+00	-1.04726e-02	-5.73737e-01	
380	-1.62000e+00	-1.04717e-02	-5.72827e-01	
381	-1.61900e+00	-1.04708e-02	-5.71917e-01	
382	-1.61800e+00	-1.04699e-02	-5.71007e-01	
383	-1.61700e+00	-1.04690e-02	-5.70097e-01	
384	-1.61600e+00	-1.04681e-02	-5.69187e-01	
385	-1.61500e+00	-1.04672e-02	-5.68277e-01	
386	-1.61400e+00	-1.04663e-02	-5.67367e-01	
387	-1.61300e+00	-1.04654e-02	-5.66457e-01	
388	-1.61200e+00	-1.04645e-02	-5.65547e-01	
389	-1.61100e+00	-1.04636e-02	-5.64637e-01	
390	-1.61000e+00	-1.04627e-02	-5.63728e-01	
391	-1.60900e+00	-1.04618e-02	-5.62818e-01	
392	-1.60800e+00	-1.04609e-02	-5.61908e-01	
393	-1.60700e+00	-1.04600e-02	-5.60998e-01	
394	-1.60600e+00	-1.04591e-02	-5.60088e-01	
395	-1.60500e+00	-1.04582e-02	-5.59178e-01	
396	-1.60400e+00	-1.04573e-02	-5.58268e-01	
397	-1.60300e+00	-1.04564e-02	-5.57358e-01	
398	-1.60200e+00	-1.04555e-02	-5.56448e-01	
399	-1.60100e+00	-1.04546e-02	-5.55538e-01	
400	-1.60000e+00	-1.04537e-02	-5.54629e-01	
401	-1.59900e+00	-1.04528e-02	-5.53719e-01	
402	-1.59800e+00	-1.04519e-02	-5.52809e-01	

Index   v-sweep         -i(vs)          v(2)            
--------------------------------------------------------------------------------
403	-1.59700e+00	-1.04510e-02	-5.51899e-01	
404	-1.59600e+00	-1.04501e-02	-5.50989e-01	
405	-1.59500e+00	-1.04492e-02	-5.50079e-01	
406	-1.59400e+00	-1.04483e-02	-5.49169e-01	
407	-1.59300e+00	-1.04474e-02	-5.48259e-01	
408	-1.59200e+00	-1.04465e-02	-5.47349e-01	
409	-1.59100e+00	-1.04456e-02	-5.46439e-01	
410	-1.59000e+00	-1.04447e-02	-5.45529e-01	
411	-1.58900e+00	-1.04438e-02	-5.44620e-01	
412	-1.58800e+00	-1.04429e-02	-5.43710e-01	
413	-1.58700e+00	-1.04420e-02	-5.42800e-01	
414	-1.58600e+00	-1.04411e-02	-5.41890e-01	
415	-1.58500e+00	-1.04402e-02	-5.40980e-01	
416	-1.58400e+00	-1.04393e-02	-5.40070e-01	
417	-1.58300e+00	-1.04384e-02	-5.39160e-01	
418	-1.58200e+00	-1.04375e-02	-5.38250e-01	
419	-1.58100e+00	-1.04366e-02	-5.37340e-01	
420	-1.58000e+00	-1.04357e-02	-5.36430e-01	
421	-1.57900e+00	-1.04348e-02	-5.35520e-01	
422	-1.57800e+00	-1.04339e-02	-5.34611e-01	
423	-1.57700e+00	-1.04330e-02	-5.33701e-01	
424	-1.57600e+00	-1.04321e-02	-5.32791e-01	
425	-1.57500e+00	-1.04312e-02	-5.31881e-01	
