     i-v characteristic of solar cell for different levels of illumination
     DC transfer characteristic  Sun Sep 25 21:57:31  2022
--------------------------------------------------------------------------------
Index   v-sweep         -i(vs)          v(2)            
--------------------------------------------------------------------------------
0	-2.00000e+00	-1.08174e-02	-9.18257e-01	
1	-1.99900e+00	-1.08165e-02	-9.17347e-01	
2	-1.99800e+00	-1.08156e-02	-9.16437e-01	
3	-1.99700e+00	-1.08147e-02	-9.15527e-01	
4	-1.99600e+00	-1.08138e-02	-9.14618e-01	
5	-1.99500e+00	-1.08129e-02	-9.13708e-01	
6	-1.99400e+00	-1.08120e-02	-9.12798e-01	
7	-1.99300e+00	-1.08111e-02	-9.11888e-01	
8	-1.99200e+00	-1.08102e-02	-9.10978e-01	
9	-1.99100e+00	-1.08093e-02	-9.10068e-01	
10	-1.99000e+00	-1.08084e-02	-9.09158e-01	
11	-1.98900e+00	-1.08075e-02	-9.08248e-01	
12	-1.98800e+00	-1.08066e-02	-9.07338e-01	
13	-1.98700e+00	-1.08057e-02	-9.06428e-01	
14	-1.98600e+00	-1.08048e-02	-9.05518e-01	
15	-1.98500e+00	-1.08039e-02	-9.04609e-01	
16	-1.98400e+00	-1.08030e-02	-9.03699e-01	
17	-1.98300e+00	-1.08021e-02	-9.02789e-01	
18	-1.98200e+00	-1.08012e-02	-9.01879e-01	
19	-1.98100e+00	-1.08003e-02	-9.00969e-01	
20	-1.98000e+00	-1.07994e-02	-9.00059e-01	
21	-1.97900e+00	-1.07985e-02	-8.99149e-01	
22	-1.97800e+00	-1.07976e-02	-8.98239e-01	
23	-1.97700e+00	-1.07967e-02	-8.97329e-01	
24	-1.97600e+00	-1.07958e-02	-8.96419e-01	
25	-1.97500e+00	-1.07949e-02	-8.95509e-01	
26	-1.97400e+00	-1.07940e-02	-8.94600e-01	
27	-1.97300e+00	-1.07931e-02	-8.93690e-01	
28	-1.97200e+00	-1.07922e-02	-8.92780e-01	
29	-1.97100e+00	-1.07913e-02	-8.91870e-01	
30	-1.97000e+00	-1.07904e-02	-8.90960e-01	
31	-1.96900e+00	-1.07895e-02	-8.90050e-01	
32	-1.96800e+00	-1.07886e-02	-8.89140e-01	
33	-1.96700e+00	-1.07877e-02	-8.88230e-01	
34	-1.96600e+00	-1.07868e-02	-8.87320e-01	
35	-1.96500e+00	-1.07859e-02	-8.86410e-01	
36	-1.96400e+00	-1.07850e-02	-8.85500e-01	
37	-1.96300e+00	-1.07841e-02	-8.84591e-01	
38	-1.96200e+00	-1.07832e-02	-8.83681e-01	
39	-1.96100e+00	-1.07823e-02	-8.82771e-01	
40	-1.96000e+00	-1.07814e-02	-8.81861e-01	
41	-1.95900e+00	-1.07805e-02	-8.80951e-01	
42	-1.95800e+00	-1.07796e-02	-8.80041e-01	
43	-1.95700e+00	-1.07787e-02	-8.79131e-01	
44	-1.95600e+00	-1.07778e-02	-8.78221e-01	
45	-1.95500e+00	-1.07769e-02	-8.77311e-01	
46	-1.95400e+00	-1.07760e-02	-8.76401e-01	
47	-1.95300e+00	-1.07751e-02	-8.75491e-01	
48	-1.95200e+00	-1.07742e-02	-8.74582e-01	
49	-1.95100e+00	-1.07733e-02	-8.73672e-01	
50	-1.95000e+00	-1.07724e-02	-8.72762e-01	
51	-1.94900e+00	-1.07715e-02	-8.71852e-01	
52	-1.94800e+00	-1.07706e-02	-8.70942e-01	
53	-1.94700e+00	-1.07697e-02	-8.70032e-01	
54	-1.94600e+00	-1.07688e-02	-8.69122e-01	

Index   v-sweep         -i(vs)          v(2)            
--------------------------------------------------------------------------------
55	-1.94500e+00	-1.07679e-02	-8.68212e-01	
56	-1.94400e+00	-1.07670e-02	-8.67302e-01	
57	-1.94300e+00	-1.07661e-02	-8.66392e-01	
58	-1.94200e+00	-1.07652e-02	-8.65482e-01	
59	-1.94100e+00	-1.07643e-02	-8.64573e-01	
60	-1.94000e+00	-1.07634e-02	-8.63663e-01	
61	-1.93900e+00	-1.07625e-02	-8.62753e-01	
62	-1.93800e+00	-1.07616e-02	-8.61843e-01	
63	-1.93700e+00	-1.07607e-02	-8.60933e-01	
64	-1.93600e+00	-1.07598e-02	-8.60023e-01	
65	-1.93500e+00	-1.07589e-02	-8.59113e-01	
66	-1.93400e+00	-1.07580e-02	-8.58203e-01	
67	-1.93300e+00	-1.07571e-02	-8.57293e-01	
68	-1.93200e+00	-1.07562e-02	-8.56383e-01	
69	-1.93100e+00	-1.07553e-02	-8.55473e-01	
70	-1.93000e+00	-1.07544e-02	-8.54564e-01	
71	-1.92900e+00	-1.07535e-02	-8.53654e-01	
72	-1.92800e+00	-1.07526e-02	-8.52744e-01	
73	-1.92700e+00	-1.07517e-02	-8.51834e-01	
74	-1.92600e+00	-1.07508e-02	-8.50924e-01	
75	-1.92500e+00	-1.07499e-02	-8.50014e-01	
76	-1.92400e+00	-1.07490e-02	-8.49104e-01	
77	-1.92300e+00	-1.07481e-02	-8.48194e-01	
78	-1.92200e+00	-1.07472e-02	-8.47284e-01	
79	-1.92100e+00	-1.07463e-02	-8.46374e-01	
80	-1.92000e+00	-1.07454e-02	-8.45464e-01	
81	-1.91900e+00	-1.07445e-02	-8.44555e-01	
82	-1.91800e+00	-1.07436e-02	-8.43645e-01	
83	-1.91700e+00	-1.07427e-02	-8.42735e-01	
84	-1.91600e+00	-1.07418e-02	-8.41825e-01	
85	-1.91500e+00	-1.07409e-02	-8.40915e-01	
86	-1.91400e+00	-1.07400e-02	-8.40005e-01	
87	-1.91300e+00	-1.07390e-02	-8.39095e-01	
88	-1.91200e+00	-1.07381e-02	-8.38185e-01	
89	-1.91100e+00	-1.07372e-02	-8.37275e-01	
90	-1.91000e+00	-1.07363e-02	-8.36365e-01	
91	-1.90900e+00	-1.07354e-02	-8.35455e-01	
92	-1.90800e+00	-1.07345e-02	-8.34546e-01	
93	-1.90700e+00	-1.07336e-02	-8.33636e-01	
94	-1.90600e+00	-1.07327e-02	-8.32726e-01	
95	-1.90500e+00	-1.07318e-02	-8.31816e-01	
96	-1.90400e+00	-1.07309e-02	-8.30906e-01	
97	-1.90300e+00	-1.07300e-02	-8.29996e-01	
98	-1.90200e+00	-1.07291e-02	-8.29086e-01	
99	-1.90100e+00	-1.07282e-02	-8.28176e-01	
100	-1.90000e+00	-1.07273e-02	-8.27266e-01	
101	-1.89900e+00	-1.07264e-02	-8.26356e-01	
102	-1.89800e+00	-1.07255e-02	-8.25446e-01	
103	-1.89700e+00	-1.07246e-02	-8.24537e-01	
104	-1.89600e+00	-1.07237e-02	-8.23627e-01	
105	-1.89500e+00	-1.07228e-02	-8.22717e-01	
106	-1.89400e+00	-1.07219e-02	-8.21807e-01	
107	-1.89300e+00	-1.07210e-02	-8.20897e-01	
108	-1.89200e+00	-1.07201e-02	-8.19987e-01	
109	-1.89100e+00	-1.07192e-02	-8.19077e-01	
110	-1.89000e+00	-1.07183e-02	-8.18167e-01	
111	-1.88900e+00	-1.07174e-02	-8.17257e-01	
112	-1.88800e+00	-1.07165e-02	-8.16347e-01	

Index   v-sweep         -i(vs)          v(2)            
--------------------------------------------------------------------------------
113	-1.88700e+00	-1.07156e-02	-8.15437e-01	
114	-1.88600e+00	-1.07147e-02	-8.14528e-01	
115	-1.88500e+00	-1.07138e-02	-8.13618e-01	
116	-1.88400e+00	-1.07129e-02	-8.12708e-01	
117	-1.88300e+00	-1.07120e-02	-8.11798e-01	
118	-1.88200e+00	-1.07111e-02	-8.10888e-01	
119	-1.88100e+00	-1.07102e-02	-8.09978e-01	
120	-1.88000e+00	-1.07093e-02	-8.09068e-01	
121	-1.87900e+00	-1.07084e-02	-8.08158e-01	
122	-1.87800e+00	-1.07075e-02	-8.07248e-01	
123	-1.87700e+00	-1.07066e-02	-8.06338e-01	
124	-1.87600e+00	-1.07057e-02	-8.05428e-01	
125	-1.87500e+00	-1.07048e-02	-8.04519e-01	
126	-1.87400e+00	-1.07039e-02	-8.03609e-01	
127	-1.87300e+00	-1.07030e-02	-8.02699e-01	
128	-1.87200e+00	-1.07021e-02	-8.01789e-01	
129	-1.87100e+00	-1.07012e-02	-8.00879e-01	
130	-1.87000e+00	-1.07003e-02	-7.99969e-01	
131	-1.86900e+00	-1.06994e-02	-7.99059e-01	
132	-1.86800e+00	-1.06985e-02	-7.98149e-01	
133	-1.86700e+00	-1.06976e-02	-7.97239e-01	
134	-1.86600e+00	-1.06967e-02	-7.96329e-01	
135	-1.86500e+00	-1.06958e-02	-7.95419e-01	
136	-1.86400e+00	-1.06949e-02	-7.94510e-01	
137	-1.86300e+00	-1.06940e-02	-7.93600e-01	
138	-1.86200e+00	-1.06931e-02	-7.92690e-01	
139	-1.86100e+00	-1.06922e-02	-7.91780e-01	
140	-1.86000e+00	-1.06913e-02	-7.90870e-01	
141	-1.85900e+00	-1.06904e-02	-7.89960e-01	
142	-1.85800e+00	-1.06895e-02	-7.89050e-01	
143	-1.85700e+00	-1.06886e-02	-7.88140e-01	
144	-1.85600e+00	-1.06877e-02	-7.87230e-01	
145	-1.85500e+00	-1.06868e-02	-7.86320e-01	
146	-1.85400e+00	-1.06859e-02	-7.85410e-01	
147	-1.85300e+00	-1.06850e-02	-7.84501e-01	
148	-1.85200e+00	-1.06841e-02	-7.83591e-01	
149	-1.85100e+00	-1.06832e-02	-7.82681e-01	
150	-1.85000e+00	-1.06823e-02	-7.81771e-01	
151	-1.84900e+00	-1.06814e-02	-7.80861e-01	
152	-1.84800e+00	-1.06805e-02	-7.79951e-01	
153	-1.84700e+00	-1.06796e-02	-7.79041e-01	
154	-1.84600e+00	-1.06787e-02	-7.78131e-01	
155	-1.84500e+00	-1.06778e-02	-7.77221e-01	
156	-1.84400e+00	-1.06769e-02	-7.76311e-01	
157	-1.84300e+00	-1.06760e-02	-7.75402e-01	
158	-1.84200e+00	-1.06751e-02	-7.74492e-01	
159	-1.84100e+00	-1.06742e-02	-7.73582e-01	
160	-1.84000e+00	-1.06733e-02	-7.72672e-01	
161	-1.83900e+00	-1.06724e-02	-7.71762e-01	
162	-1.83800e+00	-1.06715e-02	-7.70852e-01	
163	-1.83700e+00	-1.06706e-02	-7.69942e-01	
164	-1.83600e+00	-1.06697e-02	-7.69032e-01	
165	-1.83500e+00	-1.06688e-02	-7.68122e-01	
166	-1.83400e+00	-1.06679e-02	-7.67212e-01	
167	-1.83300e+00	-1.06670e-02	-7.66302e-01	
168	-1.83200e+00	-1.06661e-02	-7.65393e-01	
169	-1.83100e+00	-1.06652e-02	-7.64483e-01	
170	-1.83000e+00	-1.06643e-02	-7.63573e-01	

Index   v-sweep         -i(vs)          v(2)            
--------------------------------------------------------------------------------
171	-1.82900e+00	-1.06634e-02	-7.62663e-01	
172	-1.82800e+00	-1.06625e-02	-7.61753e-01	
173	-1.82700e+00	-1.06616e-02	-7.60843e-01	
174	-1.82600e+00	-1.06607e-02	-7.59933e-01	
175	-1.82500e+00	-1.06598e-02	-7.59023e-01	
176	-1.82400e+00	-1.06589e-02	-7.58113e-01	
177	-1.82300e+00	-1.06580e-02	-7.57203e-01	
178	-1.82200e+00	-1.06571e-02	-7.56293e-01	
179	-1.82100e+00	-1.06562e-02	-7.55384e-01	
180	-1.82000e+00	-1.06553e-02	-7.54474e-01	
181	-1.81900e+00	-1.06544e-02	-7.53564e-01	
182	-1.81800e+00	-1.06535e-02	-7.52654e-01	
183	-1.81700e+00	-1.06526e-02	-7.51744e-01	
184	-1.81600e+00	-1.06517e-02	-7.50834e-01	
185	-1.81500e+00	-1.06508e-02	-7.49924e-01	
186	-1.81400e+00	-1.06499e-02	-7.49014e-01	
187	-1.81300e+00	-1.06490e-02	-7.48104e-01	
188	-1.81200e+00	-1.06481e-02	-7.47194e-01	
189	-1.81100e+00	-1.06472e-02	-7.46284e-01	
190	-1.81000e+00	-1.06463e-02	-7.45375e-01	
191	-1.80900e+00	-1.06454e-02	-7.44465e-01	
192	-1.80800e+00	-1.06445e-02	-7.43555e-01	
193	-1.80700e+00	-1.06436e-02	-7.42645e-01	
194	-1.80600e+00	-1.06427e-02	-7.41735e-01	
195	-1.80500e+00	-1.06417e-02	-7.40825e-01	
196	-1.80400e+00	-1.06408e-02	-7.39915e-01	
197	-1.80300e+00	-1.06399e-02	-7.39005e-01	
198	-1.80200e+00	-1.06390e-02	-7.38095e-01	
199	-1.80100e+00	-1.06381e-02	-7.37185e-01	
200	-1.80000e+00	-1.06372e-02	-7.36275e-01	
201	-1.79900e+00	-1.06363e-02	-7.35366e-01	
202	-1.79800e+00	-1.06354e-02	-7.34456e-01	
203	-1.79700e+00	-1.06345e-02	-7.33546e-01	
204	-1.79600e+00	-1.06336e-02	-7.32636e-01	
205	-1.79500e+00	-1.06327e-02	-7.31726e-01	
206	-1.79400e+00	-1.06318e-02	-7.30816e-01	
207	-1.79300e+00	-1.06309e-02	-7.29906e-01	
208	-1.79200e+00	-1.06300e-02	-7.28996e-01	
209	-1.79100e+00	-1.06291e-02	-7.28086e-01	
210	-1.79000e+00	-1.06282e-02	-7.27176e-01	
211	-1.78900e+00	-1.06273e-02	-7.26267e-01	
212	-1.78800e+00	-1.06264e-02	-7.25357e-01	
213	-1.78700e+00	-1.06255e-02	-7.24447e-01	
214	-1.78600e+00	-1.06246e-02	-7.23537e-01	
215	-1.78500e+00	-1.06237e-02	-7.22627e-01	
216	-1.78400e+00	-1.06228e-02	-7.21717e-01	
217	-1.78300e+00	-1.06219e-02	-7.20807e-01	
218	-1.78200e+00	-1.06210e-02	-7.19897e-01	
219	-1.78100e+00	-1.06201e-02	-7.18987e-01	
220	-1.78000e+00	-1.06192e-02	-7.18077e-01	
221	-1.77900e+00	-1.06183e-02	-7.17167e-01	
222	-1.77800e+00	-1.06174e-02	-7.16258e-01	
223	-1.77700e+00	-1.06165e-02	-7.15348e-01	
224	-1.77600e+00	-1.06156e-02	-7.14438e-01	
225	-1.77500e+00	-1.06147e-02	-7.13528e-01	
226	-1.77400e+00	-1.06138e-02	-7.12618e-01	
227	-1.77300e+00	-1.06129e-02	-7.11708e-01	
228	-1.77200e+00	-1.06120e-02	-7.10798e-01	

Index   v-sweep         -i(vs)          v(2)            
--------------------------------------------------------------------------------
229	-1.77100e+00	-1.06111e-02	-7.09888e-01	
230	-1.77000e+00	-1.06102e-02	-7.08978e-01	
231	-1.76900e+00	-1.06093e-02	-7.08068e-01	
232	-1.76800e+00	-1.06084e-02	-7.07158e-01	
233	-1.76700e+00	-1.06075e-02	-7.06249e-01	
234	-1.76600e+00	-1.06066e-02	-7.05339e-01	
235	-1.76500e+00	-1.06057e-02	-7.04429e-01	
236	-1.76400e+00	-1.06048e-02	-7.03519e-01	
237	-1.76300e+00	-1.06039e-02	-7.02609e-01	
238	-1.76200e+00	-1.06030e-02	-7.01699e-01	
239	-1.76100e+00	-1.06021e-02	-7.00789e-01	
240	-1.76000e+00	-1.06012e-02	-6.99879e-01	
241	-1.75900e+00	-1.06003e-02	-6.98969e-01	
242	-1.75800e+00	-1.05994e-02	-6.98059e-01	
243	-1.75700e+00	-1.05985e-02	-6.97149e-01	
244	-1.75600e+00	-1.05976e-02	-6.96240e-01	
245	-1.75500e+00	-1.05967e-02	-6.95330e-01	
246	-1.75400e+00	-1.05958e-02	-6.94420e-01	
247	-1.75300e+00	-1.05949e-02	-6.93510e-01	
248	-1.75200e+00	-1.05940e-02	-6.92600e-01	
249	-1.75100e+00	-1.05931e-02	-6.91690e-01	
250	-1.75000e+00	-1.05922e-02	-6.90780e-01	
251	-1.74900e+00	-1.05913e-02	-6.89870e-01	
252	-1.74800e+00	-1.05904e-02	-6.88960e-01	
253	-1.74700e+00	-1.05895e-02	-6.88050e-01	
254	-1.74600e+00	-1.05886e-02	-6.87141e-01	
255	-1.74500e+00	-1.05877e-02	-6.86231e-01	
256	-1.74400e+00	-1.05868e-02	-6.85321e-01	
257	-1.74300e+00	-1.05859e-02	-6.84411e-01	
258	-1.74200e+00	-1.05850e-02	-6.83501e-01	
259	-1.74100e+00	-1.05841e-02	-6.82591e-01	
260	-1.74000e+00	-1.05832e-02	-6.81681e-01	
261	-1.73900e+00	-1.05823e-02	-6.80771e-01	
262	-1.73800e+00	-1.05814e-02	-6.79861e-01	
263	-1.73700e+00	-1.05805e-02	-6.78951e-01	
264	-1.73600e+00	-1.05796e-02	-6.78041e-01	
265	-1.73500e+00	-1.05787e-02	-6.77132e-01	
266	-1.73400e+00	-1.05778e-02	-6.76222e-01	
267	-1.73300e+00	-1.05769e-02	-6.75312e-01	
268	-1.73200e+00	-1.05760e-02	-6.74402e-01	
269	-1.73100e+00	-1.05751e-02	-6.73492e-01	
270	-1.73000e+00	-1.05742e-02	-6.72582e-01	
271	-1.72900e+00	-1.05733e-02	-6.71672e-01	
272	-1.72800e+00	-1.05724e-02	-6.70762e-01	
273	-1.72700e+00	-1.05715e-02	-6.69852e-01	
274	-1.72600e+00	-1.05706e-02	-6.68942e-01	
275	-1.72500e+00	-1.05697e-02	-6.68032e-01	
276	-1.72400e+00	-1.05688e-02	-6.67123e-01	
277	-1.72300e+00	-1.05679e-02	-6.66213e-01	
278	-1.72200e+00	-1.05670e-02	-6.65303e-01	
279	-1.72100e+00	-1.05661e-02	-6.64393e-01	
280	-1.72000e+00	-1.05652e-02	-6.63483e-01	
281	-1.71900e+00	-1.05643e-02	-6.62573e-01	
282	-1.71800e+00	-1.05634e-02	-6.61663e-01	
283	-1.71700e+00	-1.05625e-02	-6.60753e-01	
284	-1.71600e+00	-1.05616e-02	-6.59843e-01	
285	-1.71500e+00	-1.05607e-02	-6.58933e-01	
286	-1.71400e+00	-1.05598e-02	-6.58024e-01	

Index   v-sweep         -i(vs)          v(2)            
--------------------------------------------------------------------------------
287	-1.71300e+00	-1.05589e-02	-6.57114e-01	
288	-1.71200e+00	-1.05580e-02	-6.56204e-01	
289	-1.71100e+00	-1.05571e-02	-6.55294e-01	
290	-1.71000e+00	-1.05562e-02	-6.54384e-01	
291	-1.70900e+00	-1.05553e-02	-6.53474e-01	
292	-1.70800e+00	-1.05544e-02	-6.52564e-01	
293	-1.70700e+00	-1.05535e-02	-6.51654e-01	
294	-1.70600e+00	-1.05526e-02	-6.50744e-01	
295	-1.70500e+00	-1.05517e-02	-6.49834e-01	
296	-1.70400e+00	-1.05508e-02	-6.48924e-01	
297	-1.70300e+00	-1.05499e-02	-6.48015e-01	
298	-1.70200e+00	-1.05490e-02	-6.47105e-01	
299	-1.70100e+00	-1.05481e-02	-6.46195e-01	
300	-1.70000e+00	-1.05472e-02	-6.45285e-01	
301	-1.69900e+00	-1.05463e-02	-6.44375e-01	
302	-1.69800e+00	-1.05453e-02	-6.43465e-01	
303	-1.69700e+00	-1.05444e-02	-6.42555e-01	
304	-1.69600e+00	-1.05435e-02	-6.41645e-01	
305	-1.69500e+00	-1.05426e-02	-6.40735e-01	
306	-1.69400e+00	-1.05417e-02	-6.39825e-01	
307	-1.69300e+00	-1.05408e-02	-6.38916e-01	
308	-1.69200e+00	-1.05399e-02	-6.38006e-01	
309	-1.69100e+00	-1.05390e-02	-6.37096e-01	
310	-1.69000e+00	-1.05381e-02	-6.36186e-01	
311	-1.68900e+00	-1.05372e-02	-6.35276e-01	
312	-1.68800e+00	-1.05363e-02	-6.34366e-01	
313	-1.68700e+00	-1.05354e-02	-6.33456e-01	
314	-1.68600e+00	-1.05345e-02	-6.32546e-01	
315	-1.68500e+00	-1.05336e-02	-6.31636e-01	
316	-1.68400e+00	-1.05327e-02	-6.30726e-01	
317	-1.68300e+00	-1.05318e-02	-6.29816e-01	
318	-1.68200e+00	-1.05309e-02	-6.28907e-01	
319	-1.68100e+00	-1.05300e-02	-6.27997e-01	
320	-1.68000e+00	-1.05291e-02	-6.27087e-01	
321	-1.67900e+00	-1.05282e-02	-6.26177e-01	
322	-1.67800e+00	-1.05273e-02	-6.25267e-01	
323	-1.67700e+00	-1.05264e-02	-6.24357e-01	
324	-1.67600e+00	-1.05255e-02	-6.23447e-01	
325	-1.67500e+00	-1.05246e-02	-6.22537e-01	
326	-1.67400e+00	-1.05237e-02	-6.21627e-01	
327	-1.67300e+00	-1.05228e-02	-6.20717e-01	
328	-1.67200e+00	-1.05219e-02	-6.19808e-01	
329	-1.67100e+00	-1.05210e-02	-6.18898e-01	
330	-1.67000e+00	-1.05201e-02	-6.17988e-01	
331	-1.66900e+00	-1.05192e-02	-6.17078e-01	
332	-1.66800e+00	-1.05183e-02	-6.16168e-01	
333	-1.66700e+00	-1.05174e-02	-6.15258e-01	
334	-1.66600e+00	-1.05165e-02	-6.14348e-01	
335	-1.66500e+00	-1.05156e-02	-6.13438e-01	
336	-1.66400e+00	-1.05147e-02	-6.12528e-01	
337	-1.66300e+00	-1.05138e-02	-6.11618e-01	
338	-1.66200e+00	-1.05129e-02	-6.10708e-01	
339	-1.66100e+00	-1.05120e-02	-6.09799e-01	
340	-1.66000e+00	-1.05111e-02	-6.08889e-01	
341	-1.65900e+00	-1.05102e-02	-6.07979e-01	
342	-1.65800e+00	-1.05093e-02	-6.07069e-01	
343	-1.65700e+00	-1.05084e-02	-6.06159e-01	
344	-1.65600e+00	-1.05075e-02	-6.05249e-01	

Index   v-sweep         -i(vs)          v(2)            
--------------------------------------------------------------------------------
345	-1.65500e+00	-1.05066e-02	-6.04339e-01	
346	-1.65400e+00	-1.05057e-02	-6.03429e-01	
347	-1.65300e+00	-1.05048e-02	-6.02519e-01	
348	-1.65200e+00	-1.05039e-02	-6.01609e-01	
349	-1.65100e+00	-1.05030e-02	-6.00700e-01	
350	-1.65000e+00	-1.05021e-02	-5.99790e-01	
351	-1.64900e+00	-1.05012e-02	-5.98880e-01	
352	-1.64800e+00	-1.05003e-02	-5.97970e-01	
353	-1.64700e+00	-1.04994e-02	-5.97060e-01	
354	-1.64600e+00	-1.04985e-02	-5.96150e-01	
355	-1.64500e+00	-1.04976e-02	-5.95240e-01	
356	-1.64400e+00	-1.04967e-02	-5.94330e-01	
357	-1.64300e+00	-1.04958e-02	-5.93420e-01	
358	-1.64200e+00	-1.04949e-02	-5.92510e-01	
359	-1.64100e+00	-1.04940e-02	-5.91600e-01	
360	-1.64000e+00	-1.04931e-02	-5.90691e-01	
361	-1.63900e+00	-1.04922e-02	-5.89781e-01	
362	-1.63800e+00	-1.04913e-02	-5.88871e-01	
363	-1.63700e+00	-1.04904e-02	-5.87961e-01	
364	-1.63600e+00	-1.04895e-02	-5.87051e-01	
365	-1.63500e+00	-1.04886e-02	-5.86141e-01	
366	-1.63400e+00	-1.04877e-02	-5.85231e-01	
367	-1.63300e+00	-1.04868e-02	-5.84321e-01	
368	-1.63200e+00	-1.04859e-02	-5.83411e-01	
369	-1.63100e+00	-1.04850e-02	-5.82501e-01	
370	-1.63000e+00	-1.04841e-02	-5.81592e-01	
371	-1.62900e+00	-1.04832e-02	-5.80682e-01	
372	-1.62800e+00	-1.04823e-02	-5.79772e-01	
373	-1.62700e+00	-1.04814e-02	-5.78862e-01	
374	-1.62600e+00	-1.04805e-02	-5.77952e-01	
375	-1.62500e+00	-1.04796e-02	-5.77042e-01	
376	-1.62400e+00	-1.04787e-02	-5.76132e-01	
377	-1.62300e+00	-1.04778e-02	-5.75222e-01	
378	-1.62200e+00	-1.04769e-02	-5.74312e-01	
379	-1.62100e+00	-1.04760e-02	-5.73402e-01	
380	-1.62000e+00	-1.04751e-02	-5.72493e-01	
381	-1.61900e+00	-1.04742e-02	-5.71583e-01	
382	-1.61800e+00	-1.04733e-02	-5.70673e-01	
383	-1.61700e+00	-1.04724e-02	-5.69763e-01	
384	-1.61600e+00	-1.04715e-02	-5.68853e-01	
385	-1.61500e+00	-1.04706e-02	-5.67943e-01	
386	-1.61400e+00	-1.04697e-02	-5.67033e-01	
387	-1.61300e+00	-1.04688e-02	-5.66123e-01	
388	-1.61200e+00	-1.04679e-02	-5.65213e-01	
389	-1.61100e+00	-1.04670e-02	-5.64303e-01	
390	-1.61000e+00	-1.04661e-02	-5.63394e-01	
391	-1.60900e+00	-1.04652e-02	-5.62484e-01	
392	-1.60800e+00	-1.04643e-02	-5.61574e-01	
393	-1.60700e+00	-1.04634e-02	-5.60664e-01	
394	-1.60600e+00	-1.04625e-02	-5.59754e-01	
395	-1.60500e+00	-1.04616e-02	-5.58844e-01	
396	-1.60400e+00	-1.04607e-02	-5.57934e-01	
397	-1.60300e+00	-1.04598e-02	-5.57024e-01	
398	-1.60200e+00	-1.04589e-02	-5.56114e-01	
399	-1.60100e+00	-1.04580e-02	-5.55204e-01	
400	-1.60000e+00	-1.04571e-02	-5.54295e-01	
401	-1.59900e+00	-1.04562e-02	-5.53385e-01	
402	-1.59800e+00	-1.04553e-02	-5.52475e-01	

Index   v-sweep         -i(vs)          v(2)            
--------------------------------------------------------------------------------
403	-1.59700e+00	-1.04544e-02	-5.51565e-01	
404	-1.59600e+00	-1.04535e-02	-5.50655e-01	
405	-1.59500e+00	-1.04525e-02	-5.49745e-01	
406	-1.59400e+00	-1.04516e-02	-5.48835e-01	
407	-1.59300e+00	-1.04507e-02	-5.47925e-01	
408	-1.59200e+00	-1.04498e-02	-5.47015e-01	
409	-1.59100e+00	-1.04489e-02	-5.46105e-01	
410	-1.59000e+00	-1.04480e-02	-5.45196e-01	
411	-1.58900e+00	-1.04471e-02	-5.44286e-01	
412	-1.58800e+00	-1.04462e-02	-5.43376e-01	
413	-1.58700e+00	-1.04453e-02	-5.42466e-01	
414	-1.58600e+00	-1.04444e-02	-5.41556e-01	
415	-1.58500e+00	-1.04435e-02	-5.40646e-01	
416	-1.58400e+00	-1.04426e-02	-5.39736e-01	
417	-1.58300e+00	-1.04417e-02	-5.38826e-01	
418	-1.58200e+00	-1.04408e-02	-5.37916e-01	
419	-1.58100e+00	-1.04399e-02	-5.37006e-01	
420	-1.58000e+00	-1.04390e-02	-5.36097e-01	
421	-1.57900e+00	-1.04381e-02	-5.35187e-01	
422	-1.57800e+00	-1.04372e-02	-5.34277e-01	
423	-1.57700e+00	-1.04363e-02	-5.33367e-01	
424	-1.57600e+00	-1.04354e-02	-5.32457e-01	
425	-1.57500e+00	-1.04345e-02	-5.31547e-01	
