     i-v characteristic of solar cell for different levels of illumination
     DC transfer characteristic  Sun Sep 25 21:57:31  2022
--------------------------------------------------------------------------------
Index   v-sweep         -i(vs)          v(2)            
--------------------------------------------------------------------------------
0	-2.00000e+00	-1.08542e-02	-9.14585e-01	
1	-1.99900e+00	-1.08533e-02	-9.13675e-01	
2	-1.99800e+00	-1.08524e-02	-9.12765e-01	
3	-1.99700e+00	-1.08515e-02	-9.11855e-01	
4	-1.99600e+00	-1.08506e-02	-9.10945e-01	
5	-1.99500e+00	-1.08496e-02	-9.10035e-01	
6	-1.99400e+00	-1.08487e-02	-9.09125e-01	
7	-1.99300e+00	-1.08478e-02	-9.08215e-01	
8	-1.99200e+00	-1.08469e-02	-9.07305e-01	
9	-1.99100e+00	-1.08460e-02	-9.06395e-01	
10	-1.99000e+00	-1.08451e-02	-9.05486e-01	
11	-1.98900e+00	-1.08442e-02	-9.04576e-01	
12	-1.98800e+00	-1.08433e-02	-9.03666e-01	
13	-1.98700e+00	-1.08424e-02	-9.02756e-01	
14	-1.98600e+00	-1.08415e-02	-9.01846e-01	
15	-1.98500e+00	-1.08406e-02	-9.00936e-01	
16	-1.98400e+00	-1.08397e-02	-9.00026e-01	
17	-1.98300e+00	-1.08388e-02	-8.99116e-01	
18	-1.98200e+00	-1.08379e-02	-8.98206e-01	
19	-1.98100e+00	-1.08370e-02	-8.97296e-01	
20	-1.98000e+00	-1.08361e-02	-8.96387e-01	
21	-1.97900e+00	-1.08352e-02	-8.95477e-01	
22	-1.97800e+00	-1.08343e-02	-8.94567e-01	
23	-1.97700e+00	-1.08334e-02	-8.93657e-01	
24	-1.97600e+00	-1.08325e-02	-8.92747e-01	
25	-1.97500e+00	-1.08316e-02	-8.91837e-01	
26	-1.97400e+00	-1.08307e-02	-8.90927e-01	
27	-1.97300e+00	-1.08298e-02	-8.90017e-01	
28	-1.97200e+00	-1.08289e-02	-8.89107e-01	
29	-1.97100e+00	-1.08280e-02	-8.88197e-01	
30	-1.97000e+00	-1.08271e-02	-8.87288e-01	
31	-1.96900e+00	-1.08262e-02	-8.86378e-01	
32	-1.96800e+00	-1.08253e-02	-8.85468e-01	
33	-1.96700e+00	-1.08244e-02	-8.84558e-01	
34	-1.96600e+00	-1.08235e-02	-8.83648e-01	
35	-1.96500e+00	-1.08226e-02	-8.82738e-01	
36	-1.96400e+00	-1.08217e-02	-8.81828e-01	
37	-1.96300e+00	-1.08208e-02	-8.80918e-01	
38	-1.96200e+00	-1.08199e-02	-8.80008e-01	
39	-1.96100e+00	-1.08190e-02	-8.79098e-01	
40	-1.96000e+00	-1.08181e-02	-8.78189e-01	
41	-1.95900e+00	-1.08172e-02	-8.77279e-01	
42	-1.95800e+00	-1.08163e-02	-8.76369e-01	
43	-1.95700e+00	-1.08154e-02	-8.75459e-01	
44	-1.95600e+00	-1.08145e-02	-8.74549e-01	
45	-1.95500e+00	-1.08136e-02	-8.73639e-01	
46	-1.95400e+00	-1.08127e-02	-8.72729e-01	
47	-1.95300e+00	-1.08118e-02	-8.71819e-01	
48	-1.95200e+00	-1.08109e-02	-8.70909e-01	
49	-1.95100e+00	-1.08100e-02	-8.69999e-01	
50	-1.95000e+00	-1.08091e-02	-8.69090e-01	
51	-1.94900e+00	-1.08082e-02	-8.68180e-01	
52	-1.94800e+00	-1.08073e-02	-8.67270e-01	
53	-1.94700e+00	-1.08064e-02	-8.66360e-01	
54	-1.94600e+00	-1.08055e-02	-8.65450e-01	

Index   v-sweep         -i(vs)          v(2)            
--------------------------------------------------------------------------------
55	-1.94500e+00	-1.08046e-02	-8.64540e-01	
56	-1.94400e+00	-1.08037e-02	-8.63630e-01	
57	-1.94300e+00	-1.08028e-02	-8.62720e-01	
58	-1.94200e+00	-1.08019e-02	-8.61810e-01	
59	-1.94100e+00	-1.08010e-02	-8.60900e-01	
60	-1.94000e+00	-1.08001e-02	-8.59991e-01	
61	-1.93900e+00	-1.07992e-02	-8.59081e-01	
62	-1.93800e+00	-1.07983e-02	-8.58171e-01	
63	-1.93700e+00	-1.07974e-02	-8.57261e-01	
64	-1.93600e+00	-1.07965e-02	-8.56351e-01	
65	-1.93500e+00	-1.07956e-02	-8.55441e-01	
66	-1.93400e+00	-1.07947e-02	-8.54531e-01	
67	-1.93300e+00	-1.07938e-02	-8.53621e-01	
68	-1.93200e+00	-1.07929e-02	-8.52711e-01	
69	-1.93100e+00	-1.07920e-02	-8.51801e-01	
70	-1.93000e+00	-1.07911e-02	-8.50892e-01	
71	-1.92900e+00	-1.07902e-02	-8.49982e-01	
72	-1.92800e+00	-1.07893e-02	-8.49072e-01	
73	-1.92700e+00	-1.07884e-02	-8.48162e-01	
74	-1.92600e+00	-1.07875e-02	-8.47252e-01	
75	-1.92500e+00	-1.07866e-02	-8.46342e-01	
76	-1.92400e+00	-1.07857e-02	-8.45432e-01	
77	-1.92300e+00	-1.07848e-02	-8.44522e-01	
78	-1.92200e+00	-1.07839e-02	-8.43612e-01	
79	-1.92100e+00	-1.07830e-02	-8.42702e-01	
80	-1.92000e+00	-1.07821e-02	-8.41793e-01	
81	-1.91900e+00	-1.07812e-02	-8.40883e-01	
82	-1.91800e+00	-1.07803e-02	-8.39973e-01	
83	-1.91700e+00	-1.07794e-02	-8.39063e-01	
84	-1.91600e+00	-1.07785e-02	-8.38153e-01	
85	-1.91500e+00	-1.07776e-02	-8.37243e-01	
86	-1.91400e+00	-1.07767e-02	-8.36333e-01	
87	-1.91300e+00	-1.07758e-02	-8.35423e-01	
88	-1.91200e+00	-1.07749e-02	-8.34513e-01	
89	-1.91100e+00	-1.07740e-02	-8.33603e-01	
90	-1.91000e+00	-1.07731e-02	-8.32694e-01	
91	-1.90900e+00	-1.07722e-02	-8.31784e-01	
92	-1.90800e+00	-1.07713e-02	-8.30874e-01	
93	-1.90700e+00	-1.07704e-02	-8.29964e-01	
94	-1.90600e+00	-1.07695e-02	-8.29054e-01	
95	-1.90500e+00	-1.07686e-02	-8.28144e-01	
96	-1.90400e+00	-1.07677e-02	-8.27234e-01	
97	-1.90300e+00	-1.07668e-02	-8.26324e-01	
98	-1.90200e+00	-1.07659e-02	-8.25414e-01	
99	-1.90100e+00	-1.07650e-02	-8.24504e-01	
100	-1.90000e+00	-1.07641e-02	-8.23595e-01	
101	-1.89900e+00	-1.07632e-02	-8.22685e-01	
102	-1.89800e+00	-1.07623e-02	-8.21775e-01	
103	-1.89700e+00	-1.07614e-02	-8.20865e-01	
104	-1.89600e+00	-1.07604e-02	-8.19955e-01	
105	-1.89500e+00	-1.07595e-02	-8.19045e-01	
106	-1.89400e+00	-1.07586e-02	-8.18135e-01	
107	-1.89300e+00	-1.07577e-02	-8.17225e-01	
108	-1.89200e+00	-1.07568e-02	-8.16315e-01	
109	-1.89100e+00	-1.07559e-02	-8.15406e-01	
110	-1.89000e+00	-1.07550e-02	-8.14496e-01	
111	-1.88900e+00	-1.07541e-02	-8.13586e-01	
112	-1.88800e+00	-1.07532e-02	-8.12676e-01	

Index   v-sweep         -i(vs)          v(2)            
--------------------------------------------------------------------------------
113	-1.88700e+00	-1.07523e-02	-8.11766e-01	
114	-1.88600e+00	-1.07514e-02	-8.10856e-01	
115	-1.88500e+00	-1.07505e-02	-8.09946e-01	
116	-1.88400e+00	-1.07496e-02	-8.09036e-01	
117	-1.88300e+00	-1.07487e-02	-8.08126e-01	
118	-1.88200e+00	-1.07478e-02	-8.07216e-01	
119	-1.88100e+00	-1.07469e-02	-8.06307e-01	
120	-1.88000e+00	-1.07460e-02	-8.05397e-01	
121	-1.87900e+00	-1.07451e-02	-8.04487e-01	
122	-1.87800e+00	-1.07442e-02	-8.03577e-01	
123	-1.87700e+00	-1.07433e-02	-8.02667e-01	
124	-1.87600e+00	-1.07424e-02	-8.01757e-01	
125	-1.87500e+00	-1.07415e-02	-8.00847e-01	
126	-1.87400e+00	-1.07406e-02	-7.99937e-01	
127	-1.87300e+00	-1.07397e-02	-7.99027e-01	
128	-1.87200e+00	-1.07388e-02	-7.98118e-01	
129	-1.87100e+00	-1.07379e-02	-7.97208e-01	
130	-1.87000e+00	-1.07370e-02	-7.96298e-01	
131	-1.86900e+00	-1.07361e-02	-7.95388e-01	
132	-1.86800e+00	-1.07352e-02	-7.94478e-01	
133	-1.86700e+00	-1.07343e-02	-7.93568e-01	
134	-1.86600e+00	-1.07334e-02	-7.92658e-01	
135	-1.86500e+00	-1.07325e-02	-7.91748e-01	
136	-1.86400e+00	-1.07316e-02	-7.90838e-01	
137	-1.86300e+00	-1.07307e-02	-7.89928e-01	
138	-1.86200e+00	-1.07298e-02	-7.89019e-01	
139	-1.86100e+00	-1.07289e-02	-7.88109e-01	
140	-1.86000e+00	-1.07280e-02	-7.87199e-01	
141	-1.85900e+00	-1.07271e-02	-7.86289e-01	
142	-1.85800e+00	-1.07262e-02	-7.85379e-01	
143	-1.85700e+00	-1.07253e-02	-7.84469e-01	
144	-1.85600e+00	-1.07244e-02	-7.83559e-01	
145	-1.85500e+00	-1.07235e-02	-7.82649e-01	
146	-1.85400e+00	-1.07226e-02	-7.81739e-01	
147	-1.85300e+00	-1.07217e-02	-7.80830e-01	
148	-1.85200e+00	-1.07208e-02	-7.79920e-01	
149	-1.85100e+00	-1.07199e-02	-7.79010e-01	
150	-1.85000e+00	-1.07190e-02	-7.78100e-01	
151	-1.84900e+00	-1.07181e-02	-7.77190e-01	
152	-1.84800e+00	-1.07172e-02	-7.76280e-01	
153	-1.84700e+00	-1.07163e-02	-7.75370e-01	
154	-1.84600e+00	-1.07154e-02	-7.74460e-01	
155	-1.84500e+00	-1.07145e-02	-7.73550e-01	
156	-1.84400e+00	-1.07136e-02	-7.72640e-01	
157	-1.84300e+00	-1.07127e-02	-7.71731e-01	
158	-1.84200e+00	-1.07118e-02	-7.70821e-01	
159	-1.84100e+00	-1.07109e-02	-7.69911e-01	
160	-1.84000e+00	-1.07100e-02	-7.69001e-01	
161	-1.83900e+00	-1.07091e-02	-7.68091e-01	
162	-1.83800e+00	-1.07082e-02	-7.67181e-01	
163	-1.83700e+00	-1.07073e-02	-7.66271e-01	
164	-1.83600e+00	-1.07064e-02	-7.65361e-01	
165	-1.83500e+00	-1.07055e-02	-7.64451e-01	
166	-1.83400e+00	-1.07046e-02	-7.63542e-01	
167	-1.83300e+00	-1.07037e-02	-7.62632e-01	
168	-1.83200e+00	-1.07028e-02	-7.61722e-01	
169	-1.83100e+00	-1.07019e-02	-7.60812e-01	
170	-1.83000e+00	-1.07010e-02	-7.59902e-01	

Index   v-sweep         -i(vs)          v(2)            
--------------------------------------------------------------------------------
171	-1.82900e+00	-1.07001e-02	-7.58992e-01	
172	-1.82800e+00	-1.06992e-02	-7.58082e-01	
173	-1.82700e+00	-1.06983e-02	-7.57172e-01	
174	-1.82600e+00	-1.06974e-02	-7.56262e-01	
175	-1.82500e+00	-1.06965e-02	-7.55353e-01	
176	-1.82400e+00	-1.06956e-02	-7.54443e-01	
177	-1.82300e+00	-1.06947e-02	-7.53533e-01	
178	-1.82200e+00	-1.06938e-02	-7.52623e-01	
179	-1.82100e+00	-1.06929e-02	-7.51713e-01	
180	-1.82000e+00	-1.06920e-02	-7.50803e-01	
181	-1.81900e+00	-1.06911e-02	-7.49893e-01	
182	-1.81800e+00	-1.06902e-02	-7.48983e-01	
183	-1.81700e+00	-1.06893e-02	-7.48073e-01	
184	-1.81600e+00	-1.06884e-02	-7.47164e-01	
185	-1.81500e+00	-1.06875e-02	-7.46254e-01	
186	-1.81400e+00	-1.06866e-02	-7.45344e-01	
187	-1.81300e+00	-1.06857e-02	-7.44434e-01	
188	-1.81200e+00	-1.06848e-02	-7.43524e-01	
189	-1.81100e+00	-1.06839e-02	-7.42614e-01	
190	-1.81000e+00	-1.06830e-02	-7.41704e-01	
191	-1.80900e+00	-1.06821e-02	-7.40794e-01	
192	-1.80800e+00	-1.06812e-02	-7.39884e-01	
193	-1.80700e+00	-1.06803e-02	-7.38975e-01	
194	-1.80600e+00	-1.06794e-02	-7.38065e-01	
195	-1.80500e+00	-1.06785e-02	-7.37155e-01	
196	-1.80400e+00	-1.06776e-02	-7.36245e-01	
197	-1.80300e+00	-1.06767e-02	-7.35335e-01	
198	-1.80200e+00	-1.06757e-02	-7.34425e-01	
199	-1.80100e+00	-1.06748e-02	-7.33515e-01	
200	-1.80000e+00	-1.06739e-02	-7.32605e-01	
201	-1.79900e+00	-1.06730e-02	-7.31695e-01	
202	-1.79800e+00	-1.06721e-02	-7.30786e-01	
203	-1.79700e+00	-1.06712e-02	-7.29876e-01	
204	-1.79600e+00	-1.06703e-02	-7.28966e-01	
205	-1.79500e+00	-1.06694e-02	-7.28056e-01	
206	-1.79400e+00	-1.06685e-02	-7.27146e-01	
207	-1.79300e+00	-1.06676e-02	-7.26236e-01	
208	-1.79200e+00	-1.06667e-02	-7.25326e-01	
209	-1.79100e+00	-1.06658e-02	-7.24416e-01	
210	-1.79000e+00	-1.06649e-02	-7.23506e-01	
211	-1.78900e+00	-1.06640e-02	-7.22597e-01	
212	-1.78800e+00	-1.06631e-02	-7.21687e-01	
213	-1.78700e+00	-1.06622e-02	-7.20777e-01	
214	-1.78600e+00	-1.06613e-02	-7.19867e-01	
215	-1.78500e+00	-1.06604e-02	-7.18957e-01	
216	-1.78400e+00	-1.06595e-02	-7.18047e-01	
217	-1.78300e+00	-1.06586e-02	-7.17137e-01	
218	-1.78200e+00	-1.06577e-02	-7.16227e-01	
219	-1.78100e+00	-1.06568e-02	-7.15317e-01	
220	-1.78000e+00	-1.06559e-02	-7.14408e-01	
221	-1.77900e+00	-1.06550e-02	-7.13498e-01	
222	-1.77800e+00	-1.06541e-02	-7.12588e-01	
223	-1.77700e+00	-1.06532e-02	-7.11678e-01	
224	-1.77600e+00	-1.06523e-02	-7.10768e-01	
225	-1.77500e+00	-1.06514e-02	-7.09858e-01	
226	-1.77400e+00	-1.06505e-02	-7.08948e-01	
227	-1.77300e+00	-1.06496e-02	-7.08038e-01	
228	-1.77200e+00	-1.06487e-02	-7.07129e-01	

Index   v-sweep         -i(vs)          v(2)            
--------------------------------------------------------------------------------
229	-1.77100e+00	-1.06478e-02	-7.06219e-01	
230	-1.77000e+00	-1.06469e-02	-7.05309e-01	
231	-1.76900e+00	-1.06460e-02	-7.04399e-01	
232	-1.76800e+00	-1.06451e-02	-7.03489e-01	
233	-1.76700e+00	-1.06442e-02	-7.02579e-01	
234	-1.76600e+00	-1.06433e-02	-7.01669e-01	
235	-1.76500e+00	-1.06424e-02	-7.00759e-01	
236	-1.76400e+00	-1.06415e-02	-6.99849e-01	
237	-1.76300e+00	-1.06406e-02	-6.98940e-01	
238	-1.76200e+00	-1.06397e-02	-6.98030e-01	
239	-1.76100e+00	-1.06388e-02	-6.97120e-01	
240	-1.76000e+00	-1.06379e-02	-6.96210e-01	
241	-1.75900e+00	-1.06370e-02	-6.95300e-01	
242	-1.75800e+00	-1.06361e-02	-6.94390e-01	
243	-1.75700e+00	-1.06352e-02	-6.93480e-01	
244	-1.75600e+00	-1.06343e-02	-6.92570e-01	
245	-1.75500e+00	-1.06334e-02	-6.91661e-01	
246	-1.75400e+00	-1.06325e-02	-6.90751e-01	
247	-1.75300e+00	-1.06316e-02	-6.89841e-01	
248	-1.75200e+00	-1.06307e-02	-6.88931e-01	
249	-1.75100e+00	-1.06298e-02	-6.88021e-01	
250	-1.75000e+00	-1.06289e-02	-6.87111e-01	
251	-1.74900e+00	-1.06280e-02	-6.86201e-01	
252	-1.74800e+00	-1.06271e-02	-6.85291e-01	
253	-1.74700e+00	-1.06262e-02	-6.84381e-01	
254	-1.74600e+00	-1.06253e-02	-6.83472e-01	
255	-1.74500e+00	-1.06244e-02	-6.82562e-01	
256	-1.74400e+00	-1.06235e-02	-6.81652e-01	
257	-1.74300e+00	-1.06226e-02	-6.80742e-01	
258	-1.74200e+00	-1.06217e-02	-6.79832e-01	
259	-1.74100e+00	-1.06208e-02	-6.78922e-01	
260	-1.74000e+00	-1.06199e-02	-6.78012e-01	
261	-1.73900e+00	-1.06190e-02	-6.77102e-01	
262	-1.73800e+00	-1.06181e-02	-6.76193e-01	
263	-1.73700e+00	-1.06172e-02	-6.75283e-01	
264	-1.73600e+00	-1.06163e-02	-6.74373e-01	
265	-1.73500e+00	-1.06154e-02	-6.73463e-01	
266	-1.73400e+00	-1.06145e-02	-6.72553e-01	
267	-1.73300e+00	-1.06136e-02	-6.71643e-01	
268	-1.73200e+00	-1.06127e-02	-6.70733e-01	
269	-1.73100e+00	-1.06118e-02	-6.69823e-01	
270	-1.73000e+00	-1.06109e-02	-6.68914e-01	
271	-1.72900e+00	-1.06100e-02	-6.68004e-01	
272	-1.72800e+00	-1.06091e-02	-6.67094e-01	
273	-1.72700e+00	-1.06082e-02	-6.66184e-01	
274	-1.72600e+00	-1.06073e-02	-6.65274e-01	
275	-1.72500e+00	-1.06064e-02	-6.64364e-01	
276	-1.72400e+00	-1.06055e-02	-6.63454e-01	
277	-1.72300e+00	-1.06046e-02	-6.62544e-01	
278	-1.72200e+00	-1.06037e-02	-6.61635e-01	
279	-1.72100e+00	-1.06028e-02	-6.60725e-01	
280	-1.72000e+00	-1.06019e-02	-6.59815e-01	
281	-1.71900e+00	-1.06010e-02	-6.58905e-01	
282	-1.71800e+00	-1.06000e-02	-6.57995e-01	
283	-1.71700e+00	-1.05991e-02	-6.57085e-01	
284	-1.71600e+00	-1.05982e-02	-6.56175e-01	
285	-1.71500e+00	-1.05973e-02	-6.55265e-01	
286	-1.71400e+00	-1.05964e-02	-6.54356e-01	

Index   v-sweep         -i(vs)          v(2)            
--------------------------------------------------------------------------------
287	-1.71300e+00	-1.05955e-02	-6.53446e-01	
288	-1.71200e+00	-1.05946e-02	-6.52536e-01	
289	-1.71100e+00	-1.05937e-02	-6.51626e-01	
290	-1.71000e+00	-1.05928e-02	-6.50716e-01	
291	-1.70900e+00	-1.05919e-02	-6.49806e-01	
292	-1.70800e+00	-1.05910e-02	-6.48896e-01	
293	-1.70700e+00	-1.05901e-02	-6.47986e-01	
294	-1.70600e+00	-1.05892e-02	-6.47077e-01	
295	-1.70500e+00	-1.05883e-02	-6.46167e-01	
296	-1.70400e+00	-1.05874e-02	-6.45257e-01	
297	-1.70300e+00	-1.05865e-02	-6.44347e-01	
298	-1.70200e+00	-1.05856e-02	-6.43437e-01	
299	-1.70100e+00	-1.05847e-02	-6.42527e-01	
300	-1.70000e+00	-1.05838e-02	-6.41617e-01	
301	-1.69900e+00	-1.05829e-02	-6.40708e-01	
302	-1.69800e+00	-1.05820e-02	-6.39798e-01	
303	-1.69700e+00	-1.05811e-02	-6.38888e-01	
304	-1.69600e+00	-1.05802e-02	-6.37978e-01	
305	-1.69500e+00	-1.05793e-02	-6.37068e-01	
306	-1.69400e+00	-1.05784e-02	-6.36158e-01	
307	-1.69300e+00	-1.05775e-02	-6.35248e-01	
308	-1.69200e+00	-1.05766e-02	-6.34338e-01	
309	-1.69100e+00	-1.05757e-02	-6.33429e-01	
310	-1.69000e+00	-1.05748e-02	-6.32519e-01	
311	-1.68900e+00	-1.05739e-02	-6.31609e-01	
312	-1.68800e+00	-1.05730e-02	-6.30699e-01	
313	-1.68700e+00	-1.05721e-02	-6.29789e-01	
314	-1.68600e+00	-1.05712e-02	-6.28879e-01	
315	-1.68500e+00	-1.05703e-02	-6.27969e-01	
316	-1.68400e+00	-1.05694e-02	-6.27060e-01	
317	-1.68300e+00	-1.05685e-02	-6.26150e-01	
318	-1.68200e+00	-1.05676e-02	-6.25240e-01	
319	-1.68100e+00	-1.05667e-02	-6.24330e-01	
320	-1.68000e+00	-1.05658e-02	-6.23420e-01	
321	-1.67900e+00	-1.05649e-02	-6.22510e-01	
322	-1.67800e+00	-1.05640e-02	-6.21600e-01	
323	-1.67700e+00	-1.05631e-02	-6.20690e-01	
324	-1.67600e+00	-1.05622e-02	-6.19781e-01	
325	-1.67500e+00	-1.05613e-02	-6.18871e-01	
326	-1.67400e+00	-1.05604e-02	-6.17961e-01	
327	-1.67300e+00	-1.05595e-02	-6.17051e-01	
328	-1.67200e+00	-1.05586e-02	-6.16141e-01	
329	-1.67100e+00	-1.05577e-02	-6.15231e-01	
330	-1.67000e+00	-1.05568e-02	-6.14321e-01	
331	-1.66900e+00	-1.05559e-02	-6.13412e-01	
332	-1.66800e+00	-1.05550e-02	-6.12502e-01	
333	-1.66700e+00	-1.05541e-02	-6.11592e-01	
334	-1.66600e+00	-1.05532e-02	-6.10682e-01	
335	-1.66500e+00	-1.05523e-02	-6.09772e-01	
336	-1.66400e+00	-1.05514e-02	-6.08862e-01	
337	-1.66300e+00	-1.05505e-02	-6.07952e-01	
338	-1.66200e+00	-1.05496e-02	-6.07043e-01	
339	-1.66100e+00	-1.05487e-02	-6.06133e-01	
340	-1.66000e+00	-1.05478e-02	-6.05223e-01	
341	-1.65900e+00	-1.05469e-02	-6.04313e-01	
342	-1.65800e+00	-1.05460e-02	-6.03403e-01	
343	-1.65700e+00	-1.05451e-02	-6.02493e-01	
344	-1.65600e+00	-1.05442e-02	-6.01583e-01	

Index   v-sweep         -i(vs)          v(2)            
--------------------------------------------------------------------------------
345	-1.65500e+00	-1.05433e-02	-6.00674e-01	
346	-1.65400e+00	-1.05424e-02	-5.99764e-01	
347	-1.65300e+00	-1.05415e-02	-5.98854e-01	
348	-1.65200e+00	-1.05406e-02	-5.97944e-01	
349	-1.65100e+00	-1.05397e-02	-5.97034e-01	
350	-1.65000e+00	-1.05388e-02	-5.96124e-01	
351	-1.64900e+00	-1.05379e-02	-5.95214e-01	
352	-1.64800e+00	-1.05370e-02	-5.94305e-01	
353	-1.64700e+00	-1.05361e-02	-5.93395e-01	
354	-1.64600e+00	-1.05352e-02	-5.92485e-01	
355	-1.64500e+00	-1.05342e-02	-5.91575e-01	
356	-1.64400e+00	-1.05333e-02	-5.90665e-01	
357	-1.64300e+00	-1.05324e-02	-5.89755e-01	
358	-1.64200e+00	-1.05315e-02	-5.88846e-01	
359	-1.64100e+00	-1.05306e-02	-5.87936e-01	
360	-1.64000e+00	-1.05297e-02	-5.87026e-01	
361	-1.63900e+00	-1.05288e-02	-5.86116e-01	
362	-1.63800e+00	-1.05279e-02	-5.85206e-01	
363	-1.63700e+00	-1.05270e-02	-5.84296e-01	
364	-1.63600e+00	-1.05261e-02	-5.83386e-01	
365	-1.63500e+00	-1.05252e-02	-5.82477e-01	
366	-1.63400e+00	-1.05243e-02	-5.81567e-01	
367	-1.63300e+00	-1.05234e-02	-5.80657e-01	
368	-1.63200e+00	-1.05225e-02	-5.79747e-01	
369	-1.63100e+00	-1.05216e-02	-5.78837e-01	
370	-1.63000e+00	-1.05207e-02	-5.77927e-01	
371	-1.62900e+00	-1.05198e-02	-5.77018e-01	
372	-1.62800e+00	-1.05189e-02	-5.76108e-01	
373	-1.62700e+00	-1.05180e-02	-5.75198e-01	
374	-1.62600e+00	-1.05171e-02	-5.74288e-01	
375	-1.62500e+00	-1.05162e-02	-5.73378e-01	
376	-1.62400e+00	-1.05153e-02	-5.72468e-01	
377	-1.62300e+00	-1.05144e-02	-5.71559e-01	
378	-1.62200e+00	-1.05135e-02	-5.70649e-01	
379	-1.62100e+00	-1.05126e-02	-5.69739e-01	
380	-1.62000e+00	-1.05117e-02	-5.68829e-01	
381	-1.61900e+00	-1.05108e-02	-5.67919e-01	
382	-1.61800e+00	-1.05099e-02	-5.67009e-01	
383	-1.61700e+00	-1.05090e-02	-5.66100e-01	
384	-1.61600e+00	-1.05081e-02	-5.65190e-01	
385	-1.61500e+00	-1.05072e-02	-5.64280e-01	
386	-1.61400e+00	-1.05063e-02	-5.63370e-01	
387	-1.61300e+00	-1.05054e-02	-5.62460e-01	
388	-1.61200e+00	-1.05045e-02	-5.61550e-01	
389	-1.61100e+00	-1.05036e-02	-5.60641e-01	
390	-1.61000e+00	-1.05027e-02	-5.59731e-01	
391	-1.60900e+00	-1.05018e-02	-5.58821e-01	
392	-1.60800e+00	-1.05009e-02	-5.57911e-01	
393	-1.60700e+00	-1.05000e-02	-5.57001e-01	
394	-1.60600e+00	-1.04991e-02	-5.56091e-01	
395	-1.60500e+00	-1.04982e-02	-5.55182e-01	
396	-1.60400e+00	-1.04973e-02	-5.54272e-01	
397	-1.60300e+00	-1.04964e-02	-5.53362e-01	
398	-1.60200e+00	-1.04955e-02	-5.52452e-01	
399	-1.60100e+00	-1.04946e-02	-5.51542e-01	
400	-1.60000e+00	-1.04937e-02	-5.50632e-01	
401	-1.59900e+00	-1.04928e-02	-5.49723e-01	
402	-1.59800e+00	-1.04919e-02	-5.48813e-01	

Index   v-sweep         -i(vs)          v(2)            
--------------------------------------------------------------------------------
403	-1.59700e+00	-1.04910e-02	-5.47903e-01	
404	-1.59600e+00	-1.04901e-02	-5.46993e-01	
405	-1.59500e+00	-1.04892e-02	-5.46083e-01	
406	-1.59400e+00	-1.04883e-02	-5.45173e-01	
407	-1.59300e+00	-1.04874e-02	-5.44264e-01	
408	-1.59200e+00	-1.04865e-02	-5.43354e-01	
409	-1.59100e+00	-1.04856e-02	-5.42444e-01	
410	-1.59000e+00	-1.04847e-02	-5.41534e-01	
411	-1.58900e+00	-1.04838e-02	-5.40624e-01	
412	-1.58800e+00	-1.04829e-02	-5.39715e-01	
413	-1.58700e+00	-1.04820e-02	-5.38805e-01	
414	-1.58600e+00	-1.04811e-02	-5.37895e-01	
415	-1.58500e+00	-1.04801e-02	-5.36985e-01	
416	-1.58400e+00	-1.04792e-02	-5.36075e-01	
417	-1.58300e+00	-1.04783e-02	-5.35166e-01	
418	-1.58200e+00	-1.04774e-02	-5.34256e-01	
419	-1.58100e+00	-1.04765e-02	-5.33346e-01	
420	-1.58000e+00	-1.04756e-02	-5.32436e-01	
421	-1.57900e+00	-1.04747e-02	-5.31526e-01	
422	-1.57800e+00	-1.04738e-02	-5.30616e-01	
423	-1.57700e+00	-1.04729e-02	-5.29707e-01	
424	-1.57600e+00	-1.04720e-02	-5.28797e-01	
425	-1.57500e+00	-1.04711e-02	-5.27887e-01	
