     i-v characteristic of solar cell for different levels of illumination
     DC transfer characteristic  Sun Sep 25 21:57:31  2022
--------------------------------------------------------------------------------
Index   v-sweep         -i(vs)          v(2)            
--------------------------------------------------------------------------------
0	-2.00000e+00	-1.08237e-02	-9.17634e-01	
1	-1.99900e+00	-1.08228e-02	-9.16724e-01	
2	-1.99800e+00	-1.08219e-02	-9.15815e-01	
3	-1.99700e+00	-1.08210e-02	-9.14905e-01	
4	-1.99600e+00	-1.08201e-02	-9.13995e-01	
5	-1.99500e+00	-1.08192e-02	-9.13085e-01	
6	-1.99400e+00	-1.08183e-02	-9.12175e-01	
7	-1.99300e+00	-1.08174e-02	-9.11265e-01	
8	-1.99200e+00	-1.08164e-02	-9.10355e-01	
9	-1.99100e+00	-1.08155e-02	-9.09445e-01	
10	-1.99000e+00	-1.08146e-02	-9.08535e-01	
11	-1.98900e+00	-1.08137e-02	-9.07625e-01	
12	-1.98800e+00	-1.08128e-02	-9.06715e-01	
13	-1.98700e+00	-1.08119e-02	-9.05806e-01	
14	-1.98600e+00	-1.08110e-02	-9.04896e-01	
15	-1.98500e+00	-1.08101e-02	-9.03986e-01	
16	-1.98400e+00	-1.08092e-02	-9.03076e-01	
17	-1.98300e+00	-1.08083e-02	-9.02166e-01	
18	-1.98200e+00	-1.08074e-02	-9.01256e-01	
19	-1.98100e+00	-1.08065e-02	-9.00346e-01	
20	-1.98000e+00	-1.08056e-02	-8.99436e-01	
21	-1.97900e+00	-1.08047e-02	-8.98526e-01	
22	-1.97800e+00	-1.08038e-02	-8.97616e-01	
23	-1.97700e+00	-1.08029e-02	-8.96706e-01	
24	-1.97600e+00	-1.08020e-02	-8.95797e-01	
25	-1.97500e+00	-1.08011e-02	-8.94887e-01	
26	-1.97400e+00	-1.08002e-02	-8.93977e-01	
27	-1.97300e+00	-1.07993e-02	-8.93067e-01	
28	-1.97200e+00	-1.07984e-02	-8.92157e-01	
29	-1.97100e+00	-1.07975e-02	-8.91247e-01	
30	-1.97000e+00	-1.07966e-02	-8.90337e-01	
31	-1.96900e+00	-1.07957e-02	-8.89427e-01	
32	-1.96800e+00	-1.07948e-02	-8.88517e-01	
33	-1.96700e+00	-1.07939e-02	-8.87607e-01	
34	-1.96600e+00	-1.07930e-02	-8.86697e-01	
35	-1.96500e+00	-1.07921e-02	-8.85788e-01	
36	-1.96400e+00	-1.07912e-02	-8.84878e-01	
37	-1.96300e+00	-1.07903e-02	-8.83968e-01	
38	-1.96200e+00	-1.07894e-02	-8.83058e-01	
39	-1.96100e+00	-1.07885e-02	-8.82148e-01	
40	-1.96000e+00	-1.07876e-02	-8.81238e-01	
41	-1.95900e+00	-1.07867e-02	-8.80328e-01	
42	-1.95800e+00	-1.07858e-02	-8.79418e-01	
43	-1.95700e+00	-1.07849e-02	-8.78508e-01	
44	-1.95600e+00	-1.07840e-02	-8.77598e-01	
45	-1.95500e+00	-1.07831e-02	-8.76688e-01	
46	-1.95400e+00	-1.07822e-02	-8.75779e-01	
47	-1.95300e+00	-1.07813e-02	-8.74869e-01	
48	-1.95200e+00	-1.07804e-02	-8.73959e-01	
49	-1.95100e+00	-1.07795e-02	-8.73049e-01	
50	-1.95000e+00	-1.07786e-02	-8.72139e-01	
51	-1.94900e+00	-1.07777e-02	-8.71229e-01	
52	-1.94800e+00	-1.07768e-02	-8.70319e-01	
53	-1.94700e+00	-1.07759e-02	-8.69409e-01	
54	-1.94600e+00	-1.07750e-02	-8.68499e-01	

Index   v-sweep         -i(vs)          v(2)            
--------------------------------------------------------------------------------
55	-1.94500e+00	-1.07741e-02	-8.67589e-01	
56	-1.94400e+00	-1.07732e-02	-8.66680e-01	
57	-1.94300e+00	-1.07723e-02	-8.65770e-01	
58	-1.94200e+00	-1.07714e-02	-8.64860e-01	
59	-1.94100e+00	-1.07705e-02	-8.63950e-01	
60	-1.94000e+00	-1.07696e-02	-8.63040e-01	
61	-1.93900e+00	-1.07687e-02	-8.62130e-01	
62	-1.93800e+00	-1.07678e-02	-8.61220e-01	
63	-1.93700e+00	-1.07669e-02	-8.60310e-01	
64	-1.93600e+00	-1.07660e-02	-8.59400e-01	
65	-1.93500e+00	-1.07651e-02	-8.58490e-01	
66	-1.93400e+00	-1.07642e-02	-8.57580e-01	
67	-1.93300e+00	-1.07633e-02	-8.56671e-01	
68	-1.93200e+00	-1.07624e-02	-8.55761e-01	
69	-1.93100e+00	-1.07615e-02	-8.54851e-01	
70	-1.93000e+00	-1.07606e-02	-8.53941e-01	
71	-1.92900e+00	-1.07597e-02	-8.53031e-01	
72	-1.92800e+00	-1.07588e-02	-8.52121e-01	
73	-1.92700e+00	-1.07579e-02	-8.51211e-01	
74	-1.92600e+00	-1.07570e-02	-8.50301e-01	
75	-1.92500e+00	-1.07561e-02	-8.49391e-01	
76	-1.92400e+00	-1.07552e-02	-8.48481e-01	
77	-1.92300e+00	-1.07543e-02	-8.47571e-01	
78	-1.92200e+00	-1.07534e-02	-8.46662e-01	
79	-1.92100e+00	-1.07525e-02	-8.45752e-01	
80	-1.92000e+00	-1.07516e-02	-8.44842e-01	
81	-1.91900e+00	-1.07507e-02	-8.43932e-01	
82	-1.91800e+00	-1.07498e-02	-8.43022e-01	
83	-1.91700e+00	-1.07489e-02	-8.42112e-01	
84	-1.91600e+00	-1.07480e-02	-8.41202e-01	
85	-1.91500e+00	-1.07471e-02	-8.40292e-01	
86	-1.91400e+00	-1.07462e-02	-8.39382e-01	
87	-1.91300e+00	-1.07453e-02	-8.38472e-01	
88	-1.91200e+00	-1.07444e-02	-8.37562e-01	
89	-1.91100e+00	-1.07435e-02	-8.36653e-01	
90	-1.91000e+00	-1.07426e-02	-8.35743e-01	
91	-1.90900e+00	-1.07417e-02	-8.34833e-01	
92	-1.90800e+00	-1.07408e-02	-8.33923e-01	
93	-1.90700e+00	-1.07399e-02	-8.33013e-01	
94	-1.90600e+00	-1.07390e-02	-8.32103e-01	
95	-1.90500e+00	-1.07381e-02	-8.31193e-01	
96	-1.90400e+00	-1.07372e-02	-8.30283e-01	
97	-1.90300e+00	-1.07363e-02	-8.29373e-01	
98	-1.90200e+00	-1.07354e-02	-8.28463e-01	
99	-1.90100e+00	-1.07345e-02	-8.27553e-01	
100	-1.90000e+00	-1.07336e-02	-8.26644e-01	
101	-1.89900e+00	-1.07327e-02	-8.25734e-01	
102	-1.89800e+00	-1.07318e-02	-8.24824e-01	
103	-1.89700e+00	-1.07309e-02	-8.23914e-01	
104	-1.89600e+00	-1.07300e-02	-8.23004e-01	
105	-1.89500e+00	-1.07291e-02	-8.22094e-01	
106	-1.89400e+00	-1.07282e-02	-8.21184e-01	
107	-1.89300e+00	-1.07273e-02	-8.20274e-01	
108	-1.89200e+00	-1.07264e-02	-8.19364e-01	
109	-1.89100e+00	-1.07255e-02	-8.18454e-01	
110	-1.89000e+00	-1.07246e-02	-8.17545e-01	
111	-1.88900e+00	-1.07237e-02	-8.16635e-01	
112	-1.88800e+00	-1.07228e-02	-8.15725e-01	

Index   v-sweep         -i(vs)          v(2)            
--------------------------------------------------------------------------------
113	-1.88700e+00	-1.07219e-02	-8.14815e-01	
114	-1.88600e+00	-1.07210e-02	-8.13905e-01	
115	-1.88500e+00	-1.07201e-02	-8.12995e-01	
116	-1.88400e+00	-1.07191e-02	-8.12085e-01	
117	-1.88300e+00	-1.07182e-02	-8.11175e-01	
118	-1.88200e+00	-1.07173e-02	-8.10265e-01	
119	-1.88100e+00	-1.07164e-02	-8.09355e-01	
120	-1.88000e+00	-1.07155e-02	-8.08445e-01	
121	-1.87900e+00	-1.07146e-02	-8.07536e-01	
122	-1.87800e+00	-1.07137e-02	-8.06626e-01	
123	-1.87700e+00	-1.07128e-02	-8.05716e-01	
124	-1.87600e+00	-1.07119e-02	-8.04806e-01	
125	-1.87500e+00	-1.07110e-02	-8.03896e-01	
126	-1.87400e+00	-1.07101e-02	-8.02986e-01	
127	-1.87300e+00	-1.07092e-02	-8.02076e-01	
128	-1.87200e+00	-1.07083e-02	-8.01166e-01	
129	-1.87100e+00	-1.07074e-02	-8.00256e-01	
130	-1.87000e+00	-1.07065e-02	-7.99346e-01	
131	-1.86900e+00	-1.07056e-02	-7.98436e-01	
132	-1.86800e+00	-1.07047e-02	-7.97527e-01	
133	-1.86700e+00	-1.07038e-02	-7.96617e-01	
134	-1.86600e+00	-1.07029e-02	-7.95707e-01	
135	-1.86500e+00	-1.07020e-02	-7.94797e-01	
136	-1.86400e+00	-1.07011e-02	-7.93887e-01	
137	-1.86300e+00	-1.07002e-02	-7.92977e-01	
138	-1.86200e+00	-1.06993e-02	-7.92067e-01	
139	-1.86100e+00	-1.06984e-02	-7.91157e-01	
140	-1.86000e+00	-1.06975e-02	-7.90247e-01	
141	-1.85900e+00	-1.06966e-02	-7.89337e-01	
142	-1.85800e+00	-1.06957e-02	-7.88428e-01	
143	-1.85700e+00	-1.06948e-02	-7.87518e-01	
144	-1.85600e+00	-1.06939e-02	-7.86608e-01	
145	-1.85500e+00	-1.06930e-02	-7.85698e-01	
146	-1.85400e+00	-1.06921e-02	-7.84788e-01	
147	-1.85300e+00	-1.06912e-02	-7.83878e-01	
148	-1.85200e+00	-1.06903e-02	-7.82968e-01	
149	-1.85100e+00	-1.06894e-02	-7.82058e-01	
150	-1.85000e+00	-1.06885e-02	-7.81148e-01	
151	-1.84900e+00	-1.06876e-02	-7.80238e-01	
152	-1.84800e+00	-1.06867e-02	-7.79328e-01	
153	-1.84700e+00	-1.06858e-02	-7.78419e-01	
154	-1.84600e+00	-1.06849e-02	-7.77509e-01	
155	-1.84500e+00	-1.06840e-02	-7.76599e-01	
156	-1.84400e+00	-1.06831e-02	-7.75689e-01	
157	-1.84300e+00	-1.06822e-02	-7.74779e-01	
158	-1.84200e+00	-1.06813e-02	-7.73869e-01	
159	-1.84100e+00	-1.06804e-02	-7.72959e-01	
160	-1.84000e+00	-1.06795e-02	-7.72049e-01	
161	-1.83900e+00	-1.06786e-02	-7.71139e-01	
162	-1.83800e+00	-1.06777e-02	-7.70229e-01	
163	-1.83700e+00	-1.06768e-02	-7.69319e-01	
164	-1.83600e+00	-1.06759e-02	-7.68410e-01	
165	-1.83500e+00	-1.06750e-02	-7.67500e-01	
166	-1.83400e+00	-1.06741e-02	-7.66590e-01	
167	-1.83300e+00	-1.06732e-02	-7.65680e-01	
168	-1.83200e+00	-1.06723e-02	-7.64770e-01	
169	-1.83100e+00	-1.06714e-02	-7.63860e-01	
170	-1.83000e+00	-1.06705e-02	-7.62950e-01	

Index   v-sweep         -i(vs)          v(2)            
--------------------------------------------------------------------------------
171	-1.82900e+00	-1.06696e-02	-7.62040e-01	
172	-1.82800e+00	-1.06687e-02	-7.61130e-01	
173	-1.82700e+00	-1.06678e-02	-7.60220e-01	
174	-1.82600e+00	-1.06669e-02	-7.59311e-01	
175	-1.82500e+00	-1.06660e-02	-7.58401e-01	
176	-1.82400e+00	-1.06651e-02	-7.57491e-01	
177	-1.82300e+00	-1.06642e-02	-7.56581e-01	
178	-1.82200e+00	-1.06633e-02	-7.55671e-01	
179	-1.82100e+00	-1.06624e-02	-7.54761e-01	
180	-1.82000e+00	-1.06615e-02	-7.53851e-01	
181	-1.81900e+00	-1.06606e-02	-7.52941e-01	
182	-1.81800e+00	-1.06597e-02	-7.52031e-01	
183	-1.81700e+00	-1.06588e-02	-7.51121e-01	
184	-1.81600e+00	-1.06579e-02	-7.50211e-01	
185	-1.81500e+00	-1.06570e-02	-7.49302e-01	
186	-1.81400e+00	-1.06561e-02	-7.48392e-01	
187	-1.81300e+00	-1.06552e-02	-7.47482e-01	
188	-1.81200e+00	-1.06543e-02	-7.46572e-01	
189	-1.81100e+00	-1.06534e-02	-7.45662e-01	
190	-1.81000e+00	-1.06525e-02	-7.44752e-01	
191	-1.80900e+00	-1.06516e-02	-7.43842e-01	
192	-1.80800e+00	-1.06507e-02	-7.42932e-01	
193	-1.80700e+00	-1.06498e-02	-7.42022e-01	
194	-1.80600e+00	-1.06489e-02	-7.41112e-01	
195	-1.80500e+00	-1.06480e-02	-7.40203e-01	
196	-1.80400e+00	-1.06471e-02	-7.39293e-01	
197	-1.80300e+00	-1.06462e-02	-7.38383e-01	
198	-1.80200e+00	-1.06453e-02	-7.37473e-01	
199	-1.80100e+00	-1.06444e-02	-7.36563e-01	
200	-1.80000e+00	-1.06435e-02	-7.35653e-01	
201	-1.79900e+00	-1.06426e-02	-7.34743e-01	
202	-1.79800e+00	-1.06417e-02	-7.33833e-01	
203	-1.79700e+00	-1.06408e-02	-7.32923e-01	
204	-1.79600e+00	-1.06399e-02	-7.32013e-01	
205	-1.79500e+00	-1.06390e-02	-7.31103e-01	
206	-1.79400e+00	-1.06381e-02	-7.30194e-01	
207	-1.79300e+00	-1.06372e-02	-7.29284e-01	
208	-1.79200e+00	-1.06363e-02	-7.28374e-01	
209	-1.79100e+00	-1.06354e-02	-7.27464e-01	
210	-1.79000e+00	-1.06345e-02	-7.26554e-01	
211	-1.78900e+00	-1.06336e-02	-7.25644e-01	
212	-1.78800e+00	-1.06327e-02	-7.24734e-01	
213	-1.78700e+00	-1.06318e-02	-7.23824e-01	
214	-1.78600e+00	-1.06309e-02	-7.22914e-01	
215	-1.78500e+00	-1.06300e-02	-7.22004e-01	
216	-1.78400e+00	-1.06291e-02	-7.21095e-01	
217	-1.78300e+00	-1.06282e-02	-7.20185e-01	
218	-1.78200e+00	-1.06273e-02	-7.19275e-01	
219	-1.78100e+00	-1.06264e-02	-7.18365e-01	
220	-1.78000e+00	-1.06255e-02	-7.17455e-01	
221	-1.77900e+00	-1.06245e-02	-7.16545e-01	
222	-1.77800e+00	-1.06236e-02	-7.15635e-01	
223	-1.77700e+00	-1.06227e-02	-7.14725e-01	
224	-1.77600e+00	-1.06218e-02	-7.13815e-01	
225	-1.77500e+00	-1.06209e-02	-7.12905e-01	
226	-1.77400e+00	-1.06200e-02	-7.11996e-01	
227	-1.77300e+00	-1.06191e-02	-7.11086e-01	
228	-1.77200e+00	-1.06182e-02	-7.10176e-01	

Index   v-sweep         -i(vs)          v(2)            
--------------------------------------------------------------------------------
229	-1.77100e+00	-1.06173e-02	-7.09266e-01	
230	-1.77000e+00	-1.06164e-02	-7.08356e-01	
231	-1.76900e+00	-1.06155e-02	-7.07446e-01	
232	-1.76800e+00	-1.06146e-02	-7.06536e-01	
233	-1.76700e+00	-1.06137e-02	-7.05626e-01	
234	-1.76600e+00	-1.06128e-02	-7.04716e-01	
235	-1.76500e+00	-1.06119e-02	-7.03806e-01	
236	-1.76400e+00	-1.06110e-02	-7.02896e-01	
237	-1.76300e+00	-1.06101e-02	-7.01987e-01	
238	-1.76200e+00	-1.06092e-02	-7.01077e-01	
239	-1.76100e+00	-1.06083e-02	-7.00167e-01	
240	-1.76000e+00	-1.06074e-02	-6.99257e-01	
241	-1.75900e+00	-1.06065e-02	-6.98347e-01	
242	-1.75800e+00	-1.06056e-02	-6.97437e-01	
243	-1.75700e+00	-1.06047e-02	-6.96527e-01	
244	-1.75600e+00	-1.06038e-02	-6.95617e-01	
245	-1.75500e+00	-1.06029e-02	-6.94707e-01	
246	-1.75400e+00	-1.06020e-02	-6.93797e-01	
247	-1.75300e+00	-1.06011e-02	-6.92888e-01	
248	-1.75200e+00	-1.06002e-02	-6.91978e-01	
249	-1.75100e+00	-1.05993e-02	-6.91068e-01	
250	-1.75000e+00	-1.05984e-02	-6.90158e-01	
251	-1.74900e+00	-1.05975e-02	-6.89248e-01	
252	-1.74800e+00	-1.05966e-02	-6.88338e-01	
253	-1.74700e+00	-1.05957e-02	-6.87428e-01	
254	-1.74600e+00	-1.05948e-02	-6.86518e-01	
255	-1.74500e+00	-1.05939e-02	-6.85608e-01	
256	-1.74400e+00	-1.05930e-02	-6.84698e-01	
257	-1.74300e+00	-1.05921e-02	-6.83789e-01	
258	-1.74200e+00	-1.05912e-02	-6.82879e-01	
259	-1.74100e+00	-1.05903e-02	-6.81969e-01	
260	-1.74000e+00	-1.05894e-02	-6.81059e-01	
261	-1.73900e+00	-1.05885e-02	-6.80149e-01	
262	-1.73800e+00	-1.05876e-02	-6.79239e-01	
263	-1.73700e+00	-1.05867e-02	-6.78329e-01	
264	-1.73600e+00	-1.05858e-02	-6.77419e-01	
265	-1.73500e+00	-1.05849e-02	-6.76509e-01	
266	-1.73400e+00	-1.05840e-02	-6.75599e-01	
267	-1.73300e+00	-1.05831e-02	-6.74689e-01	
268	-1.73200e+00	-1.05822e-02	-6.73780e-01	
269	-1.73100e+00	-1.05813e-02	-6.72870e-01	
270	-1.73000e+00	-1.05804e-02	-6.71960e-01	
271	-1.72900e+00	-1.05795e-02	-6.71050e-01	
272	-1.72800e+00	-1.05786e-02	-6.70140e-01	
273	-1.72700e+00	-1.05777e-02	-6.69230e-01	
274	-1.72600e+00	-1.05768e-02	-6.68320e-01	
275	-1.72500e+00	-1.05759e-02	-6.67410e-01	
276	-1.72400e+00	-1.05750e-02	-6.66500e-01	
277	-1.72300e+00	-1.05741e-02	-6.65590e-01	
278	-1.72200e+00	-1.05732e-02	-6.64681e-01	
279	-1.72100e+00	-1.05723e-02	-6.63771e-01	
280	-1.72000e+00	-1.05714e-02	-6.62861e-01	
281	-1.71900e+00	-1.05705e-02	-6.61951e-01	
282	-1.71800e+00	-1.05696e-02	-6.61041e-01	
283	-1.71700e+00	-1.05687e-02	-6.60131e-01	
284	-1.71600e+00	-1.05678e-02	-6.59221e-01	
285	-1.71500e+00	-1.05669e-02	-6.58311e-01	
286	-1.71400e+00	-1.05660e-02	-6.57401e-01	

Index   v-sweep         -i(vs)          v(2)            
--------------------------------------------------------------------------------
287	-1.71300e+00	-1.05651e-02	-6.56491e-01	
288	-1.71200e+00	-1.05642e-02	-6.55582e-01	
289	-1.71100e+00	-1.05633e-02	-6.54672e-01	
290	-1.71000e+00	-1.05624e-02	-6.53762e-01	
291	-1.70900e+00	-1.05615e-02	-6.52852e-01	
292	-1.70800e+00	-1.05606e-02	-6.51942e-01	
293	-1.70700e+00	-1.05597e-02	-6.51032e-01	
294	-1.70600e+00	-1.05588e-02	-6.50122e-01	
295	-1.70500e+00	-1.05579e-02	-6.49212e-01	
296	-1.70400e+00	-1.05570e-02	-6.48302e-01	
297	-1.70300e+00	-1.05561e-02	-6.47392e-01	
298	-1.70200e+00	-1.05552e-02	-6.46483e-01	
299	-1.70100e+00	-1.05543e-02	-6.45573e-01	
300	-1.70000e+00	-1.05534e-02	-6.44663e-01	
301	-1.69900e+00	-1.05525e-02	-6.43753e-01	
302	-1.69800e+00	-1.05516e-02	-6.42843e-01	
303	-1.69700e+00	-1.05507e-02	-6.41933e-01	
304	-1.69600e+00	-1.05498e-02	-6.41023e-01	
305	-1.69500e+00	-1.05489e-02	-6.40113e-01	
306	-1.69400e+00	-1.05480e-02	-6.39203e-01	
307	-1.69300e+00	-1.05471e-02	-6.38293e-01	
308	-1.69200e+00	-1.05462e-02	-6.37384e-01	
309	-1.69100e+00	-1.05453e-02	-6.36474e-01	
310	-1.69000e+00	-1.05444e-02	-6.35564e-01	
311	-1.68900e+00	-1.05435e-02	-6.34654e-01	
312	-1.68800e+00	-1.05426e-02	-6.33744e-01	
313	-1.68700e+00	-1.05417e-02	-6.32834e-01	
314	-1.68600e+00	-1.05408e-02	-6.31924e-01	
315	-1.68500e+00	-1.05399e-02	-6.31014e-01	
316	-1.68400e+00	-1.05390e-02	-6.30104e-01	
317	-1.68300e+00	-1.05381e-02	-6.29194e-01	
318	-1.68200e+00	-1.05372e-02	-6.28285e-01	
319	-1.68100e+00	-1.05363e-02	-6.27375e-01	
320	-1.68000e+00	-1.05354e-02	-6.26465e-01	
321	-1.67900e+00	-1.05345e-02	-6.25555e-01	
322	-1.67800e+00	-1.05336e-02	-6.24645e-01	
323	-1.67700e+00	-1.05326e-02	-6.23735e-01	
324	-1.67600e+00	-1.05317e-02	-6.22825e-01	
325	-1.67500e+00	-1.05308e-02	-6.21915e-01	
326	-1.67400e+00	-1.05299e-02	-6.21005e-01	
327	-1.67300e+00	-1.05290e-02	-6.20095e-01	
328	-1.67200e+00	-1.05281e-02	-6.19186e-01	
329	-1.67100e+00	-1.05272e-02	-6.18276e-01	
330	-1.67000e+00	-1.05263e-02	-6.17366e-01	
331	-1.66900e+00	-1.05254e-02	-6.16456e-01	
332	-1.66800e+00	-1.05245e-02	-6.15546e-01	
333	-1.66700e+00	-1.05236e-02	-6.14636e-01	
334	-1.66600e+00	-1.05227e-02	-6.13726e-01	
335	-1.66500e+00	-1.05218e-02	-6.12816e-01	
336	-1.66400e+00	-1.05209e-02	-6.11906e-01	
337	-1.66300e+00	-1.05200e-02	-6.10997e-01	
338	-1.66200e+00	-1.05191e-02	-6.10087e-01	
339	-1.66100e+00	-1.05182e-02	-6.09177e-01	
340	-1.66000e+00	-1.05173e-02	-6.08267e-01	
341	-1.65900e+00	-1.05164e-02	-6.07357e-01	
342	-1.65800e+00	-1.05155e-02	-6.06447e-01	
343	-1.65700e+00	-1.05146e-02	-6.05537e-01	
344	-1.65600e+00	-1.05137e-02	-6.04627e-01	

Index   v-sweep         -i(vs)          v(2)            
--------------------------------------------------------------------------------
345	-1.65500e+00	-1.05128e-02	-6.03717e-01	
346	-1.65400e+00	-1.05119e-02	-6.02807e-01	
347	-1.65300e+00	-1.05110e-02	-6.01898e-01	
348	-1.65200e+00	-1.05101e-02	-6.00988e-01	
349	-1.65100e+00	-1.05092e-02	-6.00078e-01	
350	-1.65000e+00	-1.05083e-02	-5.99168e-01	
351	-1.64900e+00	-1.05074e-02	-5.98258e-01	
352	-1.64800e+00	-1.05065e-02	-5.97348e-01	
353	-1.64700e+00	-1.05056e-02	-5.96438e-01	
354	-1.64600e+00	-1.05047e-02	-5.95528e-01	
355	-1.64500e+00	-1.05038e-02	-5.94618e-01	
356	-1.64400e+00	-1.05029e-02	-5.93708e-01	
357	-1.64300e+00	-1.05020e-02	-5.92799e-01	
358	-1.64200e+00	-1.05011e-02	-5.91889e-01	
359	-1.64100e+00	-1.05002e-02	-5.90979e-01	
360	-1.64000e+00	-1.04993e-02	-5.90069e-01	
361	-1.63900e+00	-1.04984e-02	-5.89159e-01	
362	-1.63800e+00	-1.04975e-02	-5.88249e-01	
363	-1.63700e+00	-1.04966e-02	-5.87339e-01	
364	-1.63600e+00	-1.04957e-02	-5.86429e-01	
365	-1.63500e+00	-1.04948e-02	-5.85519e-01	
366	-1.63400e+00	-1.04939e-02	-5.84610e-01	
367	-1.63300e+00	-1.04930e-02	-5.83700e-01	
368	-1.63200e+00	-1.04921e-02	-5.82790e-01	
369	-1.63100e+00	-1.04912e-02	-5.81880e-01	
370	-1.63000e+00	-1.04903e-02	-5.80970e-01	
371	-1.62900e+00	-1.04894e-02	-5.80060e-01	
372	-1.62800e+00	-1.04885e-02	-5.79150e-01	
373	-1.62700e+00	-1.04876e-02	-5.78240e-01	
374	-1.62600e+00	-1.04867e-02	-5.77330e-01	
375	-1.62500e+00	-1.04858e-02	-5.76421e-01	
376	-1.62400e+00	-1.04849e-02	-5.75511e-01	
377	-1.62300e+00	-1.04840e-02	-5.74601e-01	
378	-1.62200e+00	-1.04831e-02	-5.73691e-01	
379	-1.62100e+00	-1.04822e-02	-5.72781e-01	
380	-1.62000e+00	-1.04813e-02	-5.71871e-01	
381	-1.61900e+00	-1.04804e-02	-5.70961e-01	
382	-1.61800e+00	-1.04795e-02	-5.70051e-01	
383	-1.61700e+00	-1.04786e-02	-5.69141e-01	
384	-1.61600e+00	-1.04777e-02	-5.68231e-01	
385	-1.61500e+00	-1.04768e-02	-5.67322e-01	
386	-1.61400e+00	-1.04759e-02	-5.66412e-01	
387	-1.61300e+00	-1.04750e-02	-5.65502e-01	
388	-1.61200e+00	-1.04741e-02	-5.64592e-01	
389	-1.61100e+00	-1.04732e-02	-5.63682e-01	
390	-1.61000e+00	-1.04723e-02	-5.62772e-01	
391	-1.60900e+00	-1.04714e-02	-5.61862e-01	
392	-1.60800e+00	-1.04705e-02	-5.60952e-01	
393	-1.60700e+00	-1.04696e-02	-5.60042e-01	
394	-1.60600e+00	-1.04687e-02	-5.59133e-01	
395	-1.60500e+00	-1.04678e-02	-5.58223e-01	
396	-1.60400e+00	-1.04669e-02	-5.57313e-01	
397	-1.60300e+00	-1.04660e-02	-5.56403e-01	
398	-1.60200e+00	-1.04651e-02	-5.55493e-01	
399	-1.60100e+00	-1.04642e-02	-5.54583e-01	
400	-1.60000e+00	-1.04633e-02	-5.53673e-01	
401	-1.59900e+00	-1.04624e-02	-5.52763e-01	
402	-1.59800e+00	-1.04615e-02	-5.51853e-01	

Index   v-sweep         -i(vs)          v(2)            
--------------------------------------------------------------------------------
403	-1.59700e+00	-1.04606e-02	-5.50944e-01	
404	-1.59600e+00	-1.04597e-02	-5.50034e-01	
405	-1.59500e+00	-1.04588e-02	-5.49124e-01	
406	-1.59400e+00	-1.04579e-02	-5.48214e-01	
407	-1.59300e+00	-1.04570e-02	-5.47304e-01	
408	-1.59200e+00	-1.04561e-02	-5.46394e-01	
409	-1.59100e+00	-1.04552e-02	-5.45484e-01	
410	-1.59000e+00	-1.04543e-02	-5.44574e-01	
411	-1.58900e+00	-1.04534e-02	-5.43664e-01	
412	-1.58800e+00	-1.04525e-02	-5.42755e-01	
413	-1.58700e+00	-1.04516e-02	-5.41845e-01	
414	-1.58600e+00	-1.04507e-02	-5.40935e-01	
415	-1.58500e+00	-1.04498e-02	-5.40025e-01	
416	-1.58400e+00	-1.04488e-02	-5.39115e-01	
417	-1.58300e+00	-1.04479e-02	-5.38205e-01	
418	-1.58200e+00	-1.04470e-02	-5.37295e-01	
419	-1.58100e+00	-1.04461e-02	-5.36385e-01	
420	-1.58000e+00	-1.04452e-02	-5.35475e-01	
421	-1.57900e+00	-1.04443e-02	-5.34566e-01	
422	-1.57800e+00	-1.04434e-02	-5.33656e-01	
423	-1.57700e+00	-1.04425e-02	-5.32746e-01	
424	-1.57600e+00	-1.04416e-02	-5.31836e-01	
425	-1.57500e+00	-1.04407e-02	-5.30926e-01	
