     i-v characteristic of solar cell for different levels of illumination
     DC transfer characteristic  Mon Sep 12 16:40:45  2022
--------------------------------------------------------------------------------
Index   v-sweep         i(vd)           v(3)            
--------------------------------------------------------------------------------
0	-2.00000e+00	-3.33499e-03	-1.66650e+00	
1	-1.99900e+00	-3.33333e-03	-1.66567e+00	
2	-1.99800e+00	-3.33166e-03	-1.66483e+00	
3	-1.99700e+00	-3.32999e-03	-1.66400e+00	
4	-1.99600e+00	-3.32833e-03	-1.66317e+00	
5	-1.99500e+00	-3.32666e-03	-1.66233e+00	
6	-1.99400e+00	-3.32499e-03	-1.66150e+00	
7	-1.99300e+00	-3.32333e-03	-1.66067e+00	
8	-1.99200e+00	-3.32166e-03	-1.65983e+00	
9	-1.99100e+00	-3.31999e-03	-1.65900e+00	
10	-1.99000e+00	-3.31833e-03	-1.65817e+00	
11	-1.98900e+00	-3.31666e-03	-1.65733e+00	
12	-1.98800e+00	-3.31499e-03	-1.65650e+00	
13	-1.98700e+00	-3.31333e-03	-1.65567e+00	
14	-1.98600e+00	-3.31166e-03	-1.65483e+00	
15	-1.98500e+00	-3.30999e-03	-1.65400e+00	
16	-1.98400e+00	-3.30833e-03	-1.65317e+00	
17	-1.98300e+00	-3.30666e-03	-1.65233e+00	
18	-1.98200e+00	-3.30499e-03	-1.65150e+00	
19	-1.98100e+00	-3.30333e-03	-1.65067e+00	
20	-1.98000e+00	-3.30166e-03	-1.64983e+00	
21	-1.97900e+00	-3.29999e-03	-1.64900e+00	
22	-1.97800e+00	-3.29833e-03	-1.64817e+00	
23	-1.97700e+00	-3.29666e-03	-1.64733e+00	
24	-1.97600e+00	-3.29499e-03	-1.64650e+00	
25	-1.97500e+00	-3.29333e-03	-1.64567e+00	
26	-1.97400e+00	-3.29166e-03	-1.64483e+00	
27	-1.97300e+00	-3.28999e-03	-1.64400e+00	
28	-1.97200e+00	-3.28833e-03	-1.64317e+00	
29	-1.97100e+00	-3.28666e-03	-1.64233e+00	
30	-1.97000e+00	-3.28499e-03	-1.64150e+00	
31	-1.96900e+00	-3.28333e-03	-1.64067e+00	
32	-1.96800e+00	-3.28166e-03	-1.63983e+00	
33	-1.96700e+00	-3.27999e-03	-1.63900e+00	
34	-1.96600e+00	-3.27833e-03	-1.63817e+00	
35	-1.96500e+00	-3.27666e-03	-1.63733e+00	
36	-1.96400e+00	-3.27499e-03	-1.63650e+00	
37	-1.96300e+00	-3.27333e-03	-1.63567e+00	
38	-1.96200e+00	-3.27166e-03	-1.63483e+00	
39	-1.96100e+00	-3.26999e-03	-1.63400e+00	
40	-1.96000e+00	-3.26833e-03	-1.63317e+00	
41	-1.95900e+00	-3.26666e-03	-1.63233e+00	
42	-1.95800e+00	-3.26499e-03	-1.63150e+00	
43	-1.95700e+00	-3.26333e-03	-1.63067e+00	
44	-1.95600e+00	-3.26166e-03	-1.62983e+00	
45	-1.95500e+00	-3.25999e-03	-1.62900e+00	
46	-1.95400e+00	-3.25833e-03	-1.62817e+00	
47	-1.95300e+00	-3.25666e-03	-1.62733e+00	
48	-1.95200e+00	-3.25499e-03	-1.62650e+00	
49	-1.95100e+00	-3.25333e-03	-1.62567e+00	
50	-1.95000e+00	-3.25166e-03	-1.62483e+00	
51	-1.94900e+00	-3.24999e-03	-1.62400e+00	
52	-1.94800e+00	-3.24833e-03	-1.62317e+00	
53	-1.94700e+00	-3.24666e-03	-1.62233e+00	
54	-1.94600e+00	-3.24499e-03	-1.62150e+00	

Index   v-sweep         i(vd)           v(3)            
--------------------------------------------------------------------------------
55	-1.94500e+00	-3.24333e-03	-1.62067e+00	
56	-1.94400e+00	-3.24166e-03	-1.61983e+00	
57	-1.94300e+00	-3.23999e-03	-1.61900e+00	
58	-1.94200e+00	-3.23833e-03	-1.61817e+00	
59	-1.94100e+00	-3.23666e-03	-1.61733e+00	
60	-1.94000e+00	-3.23499e-03	-1.61650e+00	
61	-1.93900e+00	-3.23333e-03	-1.61567e+00	
62	-1.93800e+00	-3.23166e-03	-1.61483e+00	
63	-1.93700e+00	-3.22999e-03	-1.61400e+00	
64	-1.93600e+00	-3.22833e-03	-1.61317e+00	
65	-1.93500e+00	-3.22666e-03	-1.61233e+00	
66	-1.93400e+00	-3.22499e-03	-1.61150e+00	
67	-1.93300e+00	-3.22333e-03	-1.61067e+00	
68	-1.93200e+00	-3.22166e-03	-1.60983e+00	
69	-1.93100e+00	-3.21999e-03	-1.60900e+00	
70	-1.93000e+00	-3.21833e-03	-1.60817e+00	
71	-1.92900e+00	-3.21666e-03	-1.60733e+00	
72	-1.92800e+00	-3.21499e-03	-1.60650e+00	
73	-1.92700e+00	-3.21333e-03	-1.60567e+00	
74	-1.92600e+00	-3.21166e-03	-1.60483e+00	
75	-1.92500e+00	-3.20999e-03	-1.60400e+00	
76	-1.92400e+00	-3.20833e-03	-1.60317e+00	
77	-1.92300e+00	-3.20666e-03	-1.60233e+00	
78	-1.92200e+00	-3.20499e-03	-1.60150e+00	
79	-1.92100e+00	-3.20333e-03	-1.60067e+00	
80	-1.92000e+00	-3.20166e-03	-1.59983e+00	
81	-1.91900e+00	-3.19999e-03	-1.59900e+00	
82	-1.91800e+00	-3.19833e-03	-1.59817e+00	
83	-1.91700e+00	-3.19666e-03	-1.59733e+00	
84	-1.91600e+00	-3.19499e-03	-1.59650e+00	
85	-1.91500e+00	-3.19333e-03	-1.59567e+00	
86	-1.91400e+00	-3.19166e-03	-1.59483e+00	
87	-1.91300e+00	-3.18999e-03	-1.59400e+00	
88	-1.91200e+00	-3.18833e-03	-1.59317e+00	
89	-1.91100e+00	-3.18666e-03	-1.59233e+00	
90	-1.91000e+00	-3.18499e-03	-1.59150e+00	
91	-1.90900e+00	-3.18333e-03	-1.59067e+00	
92	-1.90800e+00	-3.18166e-03	-1.58983e+00	
93	-1.90700e+00	-3.17999e-03	-1.58900e+00	
94	-1.90600e+00	-3.17833e-03	-1.58817e+00	
95	-1.90500e+00	-3.17666e-03	-1.58733e+00	
96	-1.90400e+00	-3.17499e-03	-1.58650e+00	
97	-1.90300e+00	-3.17333e-03	-1.58567e+00	
98	-1.90200e+00	-3.17166e-03	-1.58483e+00	
99	-1.90100e+00	-3.16999e-03	-1.58400e+00	
100	-1.90000e+00	-3.16833e-03	-1.58317e+00	
101	-1.89900e+00	-3.16666e-03	-1.58233e+00	
102	-1.89800e+00	-3.16499e-03	-1.58150e+00	
103	-1.89700e+00	-3.16333e-03	-1.58067e+00	
104	-1.89600e+00	-3.16166e-03	-1.57983e+00	
105	-1.89500e+00	-3.15999e-03	-1.57900e+00	
106	-1.89400e+00	-3.15833e-03	-1.57817e+00	
107	-1.89300e+00	-3.15666e-03	-1.57733e+00	
108	-1.89200e+00	-3.15499e-03	-1.57650e+00	
109	-1.89100e+00	-3.15333e-03	-1.57567e+00	
110	-1.89000e+00	-3.15166e-03	-1.57483e+00	
111	-1.88900e+00	-3.14999e-03	-1.57400e+00	
112	-1.88800e+00	-3.14833e-03	-1.57317e+00	

Index   v-sweep         i(vd)           v(3)            
--------------------------------------------------------------------------------
113	-1.88700e+00	-3.14666e-03	-1.57233e+00	
114	-1.88600e+00	-3.14499e-03	-1.57150e+00	
115	-1.88500e+00	-3.14333e-03	-1.57067e+00	
116	-1.88400e+00	-3.14166e-03	-1.56983e+00	
117	-1.88300e+00	-3.13999e-03	-1.56900e+00	
118	-1.88200e+00	-3.13833e-03	-1.56817e+00	
119	-1.88100e+00	-3.13666e-03	-1.56733e+00	
120	-1.88000e+00	-3.13499e-03	-1.56650e+00	
121	-1.87900e+00	-3.13333e-03	-1.56567e+00	
122	-1.87800e+00	-3.13166e-03	-1.56483e+00	
123	-1.87700e+00	-3.12999e-03	-1.56400e+00	
124	-1.87600e+00	-3.12833e-03	-1.56317e+00	
125	-1.87500e+00	-3.12666e-03	-1.56233e+00	
126	-1.87400e+00	-3.12499e-03	-1.56150e+00	
127	-1.87300e+00	-3.12333e-03	-1.56067e+00	
128	-1.87200e+00	-3.12166e-03	-1.55983e+00	
129	-1.87100e+00	-3.11999e-03	-1.55900e+00	
130	-1.87000e+00	-3.11833e-03	-1.55817e+00	
131	-1.86900e+00	-3.11666e-03	-1.55733e+00	
132	-1.86800e+00	-3.11499e-03	-1.55650e+00	
133	-1.86700e+00	-3.11333e-03	-1.55567e+00	
134	-1.86600e+00	-3.11166e-03	-1.55483e+00	
135	-1.86500e+00	-3.10999e-03	-1.55400e+00	
136	-1.86400e+00	-3.10833e-03	-1.55317e+00	
137	-1.86300e+00	-3.10666e-03	-1.55233e+00	
138	-1.86200e+00	-3.10499e-03	-1.55150e+00	
139	-1.86100e+00	-3.10333e-03	-1.55067e+00	
140	-1.86000e+00	-3.10166e-03	-1.54983e+00	
141	-1.85900e+00	-3.09999e-03	-1.54900e+00	
142	-1.85800e+00	-3.09833e-03	-1.54817e+00	
143	-1.85700e+00	-3.09666e-03	-1.54733e+00	
144	-1.85600e+00	-3.09499e-03	-1.54650e+00	
145	-1.85500e+00	-3.09333e-03	-1.54567e+00	
146	-1.85400e+00	-3.09166e-03	-1.54483e+00	
147	-1.85300e+00	-3.08999e-03	-1.54400e+00	
148	-1.85200e+00	-3.08833e-03	-1.54317e+00	
149	-1.85100e+00	-3.08666e-03	-1.54233e+00	
150	-1.85000e+00	-3.08499e-03	-1.54150e+00	
151	-1.84900e+00	-3.08333e-03	-1.54067e+00	
152	-1.84800e+00	-3.08166e-03	-1.53983e+00	
153	-1.84700e+00	-3.07999e-03	-1.53900e+00	
154	-1.84600e+00	-3.07833e-03	-1.53817e+00	
155	-1.84500e+00	-3.07666e-03	-1.53733e+00	
156	-1.84400e+00	-3.07499e-03	-1.53650e+00	
157	-1.84300e+00	-3.07333e-03	-1.53567e+00	
158	-1.84200e+00	-3.07166e-03	-1.53483e+00	
159	-1.84100e+00	-3.06999e-03	-1.53400e+00	
160	-1.84000e+00	-3.06833e-03	-1.53317e+00	
161	-1.83900e+00	-3.06666e-03	-1.53233e+00	
162	-1.83800e+00	-3.06499e-03	-1.53150e+00	
163	-1.83700e+00	-3.06333e-03	-1.53067e+00	
164	-1.83600e+00	-3.06166e-03	-1.52983e+00	
165	-1.83500e+00	-3.05999e-03	-1.52900e+00	
166	-1.83400e+00	-3.05833e-03	-1.52817e+00	
167	-1.83300e+00	-3.05666e-03	-1.52733e+00	
168	-1.83200e+00	-3.05499e-03	-1.52650e+00	
169	-1.83100e+00	-3.05333e-03	-1.52567e+00	
170	-1.83000e+00	-3.05166e-03	-1.52483e+00	

Index   v-sweep         i(vd)           v(3)            
--------------------------------------------------------------------------------
171	-1.82900e+00	-3.04999e-03	-1.52400e+00	
172	-1.82800e+00	-3.04833e-03	-1.52317e+00	
173	-1.82700e+00	-3.04666e-03	-1.52233e+00	
174	-1.82600e+00	-3.04499e-03	-1.52150e+00	
175	-1.82500e+00	-3.04333e-03	-1.52067e+00	
176	-1.82400e+00	-3.04166e-03	-1.51983e+00	
177	-1.82300e+00	-3.03999e-03	-1.51900e+00	
178	-1.82200e+00	-3.03833e-03	-1.51817e+00	
179	-1.82100e+00	-3.03666e-03	-1.51733e+00	
180	-1.82000e+00	-3.03499e-03	-1.51650e+00	
181	-1.81900e+00	-3.03333e-03	-1.51567e+00	
182	-1.81800e+00	-3.03166e-03	-1.51483e+00	
183	-1.81700e+00	-3.02999e-03	-1.51400e+00	
184	-1.81600e+00	-3.02833e-03	-1.51317e+00	
185	-1.81500e+00	-3.02666e-03	-1.51233e+00	
186	-1.81400e+00	-3.02499e-03	-1.51150e+00	
187	-1.81300e+00	-3.02333e-03	-1.51067e+00	
188	-1.81200e+00	-3.02166e-03	-1.50983e+00	
189	-1.81100e+00	-3.01999e-03	-1.50900e+00	
190	-1.81000e+00	-3.01833e-03	-1.50817e+00	
191	-1.80900e+00	-3.01666e-03	-1.50733e+00	
192	-1.80800e+00	-3.01499e-03	-1.50650e+00	
193	-1.80700e+00	-3.01333e-03	-1.50567e+00	
194	-1.80600e+00	-3.01166e-03	-1.50483e+00	
195	-1.80500e+00	-3.00999e-03	-1.50400e+00	
196	-1.80400e+00	-3.00833e-03	-1.50317e+00	
197	-1.80300e+00	-3.00666e-03	-1.50233e+00	
198	-1.80200e+00	-3.00499e-03	-1.50150e+00	
199	-1.80100e+00	-3.00333e-03	-1.50067e+00	
200	-1.80000e+00	-3.00166e-03	-1.49983e+00	
201	-1.79900e+00	-2.99999e-03	-1.49900e+00	
202	-1.79800e+00	-2.99833e-03	-1.49817e+00	
203	-1.79700e+00	-2.99666e-03	-1.49733e+00	
204	-1.79600e+00	-2.99499e-03	-1.49650e+00	
205	-1.79500e+00	-2.99333e-03	-1.49567e+00	
206	-1.79400e+00	-2.99166e-03	-1.49483e+00	
207	-1.79300e+00	-2.98999e-03	-1.49400e+00	
208	-1.79200e+00	-2.98833e-03	-1.49317e+00	
209	-1.79100e+00	-2.98666e-03	-1.49233e+00	
210	-1.79000e+00	-2.98499e-03	-1.49150e+00	
211	-1.78900e+00	-2.98333e-03	-1.49067e+00	
212	-1.78800e+00	-2.98166e-03	-1.48983e+00	
213	-1.78700e+00	-2.97999e-03	-1.48900e+00	
214	-1.78600e+00	-2.97833e-03	-1.48817e+00	
215	-1.78500e+00	-2.97666e-03	-1.48733e+00	
216	-1.78400e+00	-2.97499e-03	-1.48650e+00	
217	-1.78300e+00	-2.97333e-03	-1.48567e+00	
218	-1.78200e+00	-2.97166e-03	-1.48483e+00	
219	-1.78100e+00	-2.96999e-03	-1.48400e+00	
220	-1.78000e+00	-2.96833e-03	-1.48317e+00	
221	-1.77900e+00	-2.96666e-03	-1.48233e+00	
222	-1.77800e+00	-2.96499e-03	-1.48150e+00	
223	-1.77700e+00	-2.96333e-03	-1.48067e+00	
224	-1.77600e+00	-2.96166e-03	-1.47983e+00	
225	-1.77500e+00	-2.95999e-03	-1.47900e+00	
226	-1.77400e+00	-2.95833e-03	-1.47817e+00	
227	-1.77300e+00	-2.95666e-03	-1.47733e+00	
228	-1.77200e+00	-2.95499e-03	-1.47650e+00	

Index   v-sweep         i(vd)           v(3)            
--------------------------------------------------------------------------------
229	-1.77100e+00	-2.95333e-03	-1.47567e+00	
230	-1.77000e+00	-2.95166e-03	-1.47483e+00	
231	-1.76900e+00	-2.94999e-03	-1.47400e+00	
232	-1.76800e+00	-2.94833e-03	-1.47317e+00	
233	-1.76700e+00	-2.94666e-03	-1.47233e+00	
234	-1.76600e+00	-2.94499e-03	-1.47150e+00	
235	-1.76500e+00	-2.94333e-03	-1.47067e+00	
236	-1.76400e+00	-2.94166e-03	-1.46983e+00	
237	-1.76300e+00	-2.94000e-03	-1.46900e+00	
238	-1.76200e+00	-2.93833e-03	-1.46817e+00	
239	-1.76100e+00	-2.93666e-03	-1.46733e+00	
240	-1.76000e+00	-2.93500e-03	-1.46650e+00	
241	-1.75900e+00	-2.93333e-03	-1.46567e+00	
242	-1.75800e+00	-2.93166e-03	-1.46483e+00	
243	-1.75700e+00	-2.93000e-03	-1.46400e+00	
244	-1.75600e+00	-2.92833e-03	-1.46317e+00	
245	-1.75500e+00	-2.92666e-03	-1.46233e+00	
246	-1.75400e+00	-2.92500e-03	-1.46150e+00	
247	-1.75300e+00	-2.92333e-03	-1.46067e+00	
248	-1.75200e+00	-2.92166e-03	-1.45983e+00	
249	-1.75100e+00	-2.92000e-03	-1.45900e+00	
250	-1.75000e+00	-2.91833e-03	-1.45817e+00	
251	-1.74900e+00	-2.91666e-03	-1.45733e+00	
252	-1.74800e+00	-2.91500e-03	-1.45650e+00	
253	-1.74700e+00	-2.91333e-03	-1.45567e+00	
254	-1.74600e+00	-2.91166e-03	-1.45483e+00	
255	-1.74500e+00	-2.91000e-03	-1.45400e+00	
256	-1.74400e+00	-2.90833e-03	-1.45317e+00	
257	-1.74300e+00	-2.90666e-03	-1.45233e+00	
258	-1.74200e+00	-2.90500e-03	-1.45150e+00	
259	-1.74100e+00	-2.90333e-03	-1.45067e+00	
260	-1.74000e+00	-2.90166e-03	-1.44983e+00	
261	-1.73900e+00	-2.90000e-03	-1.44900e+00	
262	-1.73800e+00	-2.89833e-03	-1.44817e+00	
263	-1.73700e+00	-2.89666e-03	-1.44733e+00	
264	-1.73600e+00	-2.89500e-03	-1.44650e+00	
265	-1.73500e+00	-2.89333e-03	-1.44567e+00	
266	-1.73400e+00	-2.89166e-03	-1.44483e+00	
267	-1.73300e+00	-2.89000e-03	-1.44400e+00	
268	-1.73200e+00	-2.88833e-03	-1.44317e+00	
269	-1.73100e+00	-2.88666e-03	-1.44233e+00	
270	-1.73000e+00	-2.88500e-03	-1.44150e+00	
271	-1.72900e+00	-2.88333e-03	-1.44067e+00	
272	-1.72800e+00	-2.88166e-03	-1.43983e+00	
273	-1.72700e+00	-2.88000e-03	-1.43900e+00	
274	-1.72600e+00	-2.87833e-03	-1.43817e+00	
275	-1.72500e+00	-2.87666e-03	-1.43733e+00	
276	-1.72400e+00	-2.87500e-03	-1.43650e+00	
277	-1.72300e+00	-2.87333e-03	-1.43567e+00	
278	-1.72200e+00	-2.87166e-03	-1.43483e+00	
279	-1.72100e+00	-2.87000e-03	-1.43400e+00	
280	-1.72000e+00	-2.86833e-03	-1.43317e+00	
281	-1.71900e+00	-2.86666e-03	-1.43233e+00	
282	-1.71800e+00	-2.86500e-03	-1.43150e+00	
283	-1.71700e+00	-2.86333e-03	-1.43067e+00	
284	-1.71600e+00	-2.86166e-03	-1.42983e+00	
285	-1.71500e+00	-2.86000e-03	-1.42900e+00	
286	-1.71400e+00	-2.85833e-03	-1.42817e+00	

Index   v-sweep         i(vd)           v(3)            
--------------------------------------------------------------------------------
287	-1.71300e+00	-2.85666e-03	-1.42733e+00	
288	-1.71200e+00	-2.85500e-03	-1.42650e+00	
289	-1.71100e+00	-2.85333e-03	-1.42567e+00	
290	-1.71000e+00	-2.85166e-03	-1.42483e+00	
291	-1.70900e+00	-2.85000e-03	-1.42400e+00	
292	-1.70800e+00	-2.84833e-03	-1.42317e+00	
293	-1.70700e+00	-2.84666e-03	-1.42233e+00	
294	-1.70600e+00	-2.84500e-03	-1.42150e+00	
295	-1.70500e+00	-2.84333e-03	-1.42067e+00	
296	-1.70400e+00	-2.84166e-03	-1.41983e+00	
297	-1.70300e+00	-2.84000e-03	-1.41900e+00	
298	-1.70200e+00	-2.83833e-03	-1.41817e+00	
299	-1.70100e+00	-2.83666e-03	-1.41733e+00	
300	-1.70000e+00	-2.83500e-03	-1.41650e+00	
301	-1.69900e+00	-2.83333e-03	-1.41567e+00	
302	-1.69800e+00	-2.83166e-03	-1.41483e+00	
303	-1.69700e+00	-2.83000e-03	-1.41400e+00	
304	-1.69600e+00	-2.82833e-03	-1.41317e+00	
305	-1.69500e+00	-2.82666e-03	-1.41233e+00	
306	-1.69400e+00	-2.82500e-03	-1.41150e+00	
307	-1.69300e+00	-2.82333e-03	-1.41067e+00	
308	-1.69200e+00	-2.82166e-03	-1.40983e+00	
309	-1.69100e+00	-2.82000e-03	-1.40900e+00	
310	-1.69000e+00	-2.81833e-03	-1.40817e+00	
311	-1.68900e+00	-2.81666e-03	-1.40733e+00	
312	-1.68800e+00	-2.81500e-03	-1.40650e+00	
313	-1.68700e+00	-2.81333e-03	-1.40567e+00	
314	-1.68600e+00	-2.81166e-03	-1.40483e+00	
315	-1.68500e+00	-2.81000e-03	-1.40400e+00	
316	-1.68400e+00	-2.80833e-03	-1.40317e+00	
317	-1.68300e+00	-2.80666e-03	-1.40233e+00	
318	-1.68200e+00	-2.80500e-03	-1.40150e+00	
319	-1.68100e+00	-2.80333e-03	-1.40067e+00	
320	-1.68000e+00	-2.80166e-03	-1.39983e+00	
321	-1.67900e+00	-2.80000e-03	-1.39900e+00	
322	-1.67800e+00	-2.79833e-03	-1.39817e+00	
323	-1.67700e+00	-2.79666e-03	-1.39733e+00	
324	-1.67600e+00	-2.79500e-03	-1.39650e+00	
325	-1.67500e+00	-2.79333e-03	-1.39567e+00	
326	-1.67400e+00	-2.79166e-03	-1.39483e+00	
327	-1.67300e+00	-2.79000e-03	-1.39400e+00	
328	-1.67200e+00	-2.78833e-03	-1.39317e+00	
329	-1.67100e+00	-2.78666e-03	-1.39233e+00	
330	-1.67000e+00	-2.78500e-03	-1.39150e+00	
331	-1.66900e+00	-2.78333e-03	-1.39067e+00	
332	-1.66800e+00	-2.78166e-03	-1.38983e+00	
333	-1.66700e+00	-2.78000e-03	-1.38900e+00	
334	-1.66600e+00	-2.77833e-03	-1.38817e+00	
335	-1.66500e+00	-2.77666e-03	-1.38733e+00	
336	-1.66400e+00	-2.77500e-03	-1.38650e+00	
337	-1.66300e+00	-2.77333e-03	-1.38567e+00	
338	-1.66200e+00	-2.77166e-03	-1.38483e+00	
339	-1.66100e+00	-2.77000e-03	-1.38400e+00	
340	-1.66000e+00	-2.76833e-03	-1.38317e+00	
341	-1.65900e+00	-2.76666e-03	-1.38233e+00	
342	-1.65800e+00	-2.76500e-03	-1.38150e+00	
343	-1.65700e+00	-2.76333e-03	-1.38067e+00	
344	-1.65600e+00	-2.76166e-03	-1.37983e+00	

Index   v-sweep         i(vd)           v(3)            
--------------------------------------------------------------------------------
345	-1.65500e+00	-2.76000e-03	-1.37900e+00	
346	-1.65400e+00	-2.75833e-03	-1.37817e+00	
347	-1.65300e+00	-2.75666e-03	-1.37733e+00	
348	-1.65200e+00	-2.75500e-03	-1.37650e+00	
349	-1.65100e+00	-2.75333e-03	-1.37567e+00	
350	-1.65000e+00	-2.75166e-03	-1.37483e+00	
351	-1.64900e+00	-2.75000e-03	-1.37400e+00	
352	-1.64800e+00	-2.74833e-03	-1.37317e+00	
353	-1.64700e+00	-2.74666e-03	-1.37233e+00	
354	-1.64600e+00	-2.74500e-03	-1.37150e+00	
355	-1.64500e+00	-2.74333e-03	-1.37067e+00	
356	-1.64400e+00	-2.74166e-03	-1.36983e+00	
357	-1.64300e+00	-2.74000e-03	-1.36900e+00	
358	-1.64200e+00	-2.73833e-03	-1.36817e+00	
359	-1.64100e+00	-2.73666e-03	-1.36733e+00	
360	-1.64000e+00	-2.73500e-03	-1.36650e+00	
361	-1.63900e+00	-2.73333e-03	-1.36567e+00	
362	-1.63800e+00	-2.73166e-03	-1.36483e+00	
363	-1.63700e+00	-2.73000e-03	-1.36400e+00	
364	-1.63600e+00	-2.72833e-03	-1.36317e+00	
365	-1.63500e+00	-2.72666e-03	-1.36233e+00	
366	-1.63400e+00	-2.72500e-03	-1.36150e+00	
367	-1.63300e+00	-2.72333e-03	-1.36067e+00	
368	-1.63200e+00	-2.72166e-03	-1.35983e+00	
369	-1.63100e+00	-2.72000e-03	-1.35900e+00	
370	-1.63000e+00	-2.71833e-03	-1.35817e+00	
371	-1.62900e+00	-2.71666e-03	-1.35733e+00	
372	-1.62800e+00	-2.71500e-03	-1.35650e+00	
373	-1.62700e+00	-2.71333e-03	-1.35567e+00	
374	-1.62600e+00	-2.71166e-03	-1.35483e+00	
375	-1.62500e+00	-2.71000e-03	-1.35400e+00	
376	-1.62400e+00	-2.70833e-03	-1.35317e+00	
377	-1.62300e+00	-2.70666e-03	-1.35233e+00	
378	-1.62200e+00	-2.70500e-03	-1.35150e+00	
379	-1.62100e+00	-2.70333e-03	-1.35067e+00	
380	-1.62000e+00	-2.70166e-03	-1.34983e+00	
381	-1.61900e+00	-2.70000e-03	-1.34900e+00	
382	-1.61800e+00	-2.69833e-03	-1.34817e+00	
383	-1.61700e+00	-2.69666e-03	-1.34733e+00	
384	-1.61600e+00	-2.69500e-03	-1.34650e+00	
385	-1.61500e+00	-2.69333e-03	-1.34567e+00	
386	-1.61400e+00	-2.69166e-03	-1.34483e+00	
387	-1.61300e+00	-2.69000e-03	-1.34400e+00	
388	-1.61200e+00	-2.68833e-03	-1.34317e+00	
389	-1.61100e+00	-2.68666e-03	-1.34233e+00	
390	-1.61000e+00	-2.68500e-03	-1.34150e+00	
391	-1.60900e+00	-2.68333e-03	-1.34067e+00	
392	-1.60800e+00	-2.68166e-03	-1.33983e+00	
393	-1.60700e+00	-2.68000e-03	-1.33900e+00	
394	-1.60600e+00	-2.67833e-03	-1.33817e+00	
395	-1.60500e+00	-2.67666e-03	-1.33733e+00	
396	-1.60400e+00	-2.67500e-03	-1.33650e+00	
397	-1.60300e+00	-2.67333e-03	-1.33567e+00	
398	-1.60200e+00	-2.67166e-03	-1.33483e+00	
399	-1.60100e+00	-2.67000e-03	-1.33400e+00	
400	-1.60000e+00	-2.66833e-03	-1.33317e+00	
401	-1.59900e+00	-2.66666e-03	-1.33233e+00	
402	-1.59800e+00	-2.66500e-03	-1.33150e+00	

Index   v-sweep         i(vd)           v(3)            
--------------------------------------------------------------------------------
403	-1.59700e+00	-2.66333e-03	-1.33067e+00	
404	-1.59600e+00	-2.66166e-03	-1.32983e+00	
405	-1.59500e+00	-2.66000e-03	-1.32900e+00	
406	-1.59400e+00	-2.65833e-03	-1.32817e+00	
407	-1.59300e+00	-2.65666e-03	-1.32733e+00	
408	-1.59200e+00	-2.65500e-03	-1.32650e+00	
409	-1.59100e+00	-2.65333e-03	-1.32567e+00	
410	-1.59000e+00	-2.65166e-03	-1.32483e+00	
411	-1.58900e+00	-2.65000e-03	-1.32400e+00	
412	-1.58800e+00	-2.64833e-03	-1.32317e+00	
413	-1.58700e+00	-2.64666e-03	-1.32233e+00	
414	-1.58600e+00	-2.64500e-03	-1.32150e+00	
415	-1.58500e+00	-2.64333e-03	-1.32067e+00	
416	-1.58400e+00	-2.64166e-03	-1.31983e+00	
417	-1.58300e+00	-2.64000e-03	-1.31900e+00	
418	-1.58200e+00	-2.63833e-03	-1.31817e+00	
419	-1.58100e+00	-2.63666e-03	-1.31733e+00	
420	-1.58000e+00	-2.63500e-03	-1.31650e+00	
421	-1.57900e+00	-2.63333e-03	-1.31567e+00	
422	-1.57800e+00	-2.63166e-03	-1.31483e+00	
423	-1.57700e+00	-2.63000e-03	-1.31400e+00	
424	-1.57600e+00	-2.62833e-03	-1.31317e+00	
425	-1.57500e+00	-2.62666e-03	-1.31233e+00	
