            * rf switch using in914 junction diodes with vbias = 3v
            Transient Analysis  Sun Aug 28 21:22:45  2022
--------------------------------------------------------------------------------
Index   time            v(1)            v(6)            i(vd)           
--------------------------------------------------------------------------------
0	1.000186e-07	7.013154e-03	2.909307e-01	-3.98240e-03	
1	1.001186e-07	4.471185e-02	3.277784e-01	-4.79306e-03	
2	1.002186e-07	8.240879e-02	3.646136e-01	-5.60345e-03	
3	1.003186e-07	1.201025e-01	4.014349e-01	-6.41353e-03	
4	1.004186e-07	1.577914e-01	4.382405e-01	-7.22327e-03	
5	1.005186e-07	1.954741e-01	4.750287e-01	-8.03263e-03	
6	1.006186e-07	2.331491e-01	5.117979e-01	-8.84157e-03	
7	1.007186e-07	2.708149e-01	5.485462e-01	-9.65006e-03	
8	1.008186e-07	3.084700e-01	5.852721e-01	-1.04581e-02	
9	1.009186e-07	3.461129e-01	6.219737e-01	-1.12655e-02	
10	1.010186e-07	3.837422e-01	6.586494e-01	-1.20724e-02	
11	1.011186e-07	4.213563e-01	6.952974e-01	-1.28787e-02	
12	1.012186e-07	4.589538e-01	7.319160e-01	-1.36843e-02	
13	1.013186e-07	4.965331e-01	7.685033e-01	-1.44893e-02	
14	1.014186e-07	5.340929e-01	8.050577e-01	-1.52935e-02	
15	1.015186e-07	5.716315e-01	8.415772e-01	-1.60970e-02	
16	1.016186e-07	6.091476e-01	8.780602e-01	-1.68996e-02	
17	1.017186e-07	6.466397e-01	9.145048e-01	-1.77014e-02	
18	1.018186e-07	6.841062e-01	9.509092e-01	-1.85024e-02	
19	1.019186e-07	7.215457e-01	9.872715e-01	-1.93024e-02	
20	1.020186e-07	7.589567e-01	1.023590e+00	-2.01014e-02	
21	1.021186e-07	7.963378e-01	1.059862e+00	-2.08995e-02	
22	1.022186e-07	8.336874e-01	1.096087e+00	-2.16965e-02	
23	1.023186e-07	8.710042e-01	1.132262e+00	-2.24924e-02	
24	1.024186e-07	9.082865e-01	1.168386e+00	-2.32871e-02	
25	1.025186e-07	9.455330e-01	1.204456e+00	-2.40807e-02	
26	1.026186e-07	9.827421e-01	1.240471e+00	-2.48731e-02	
27	1.027186e-07	1.019912e+00	1.276428e+00	-2.56642e-02	
28	1.028186e-07	1.057043e+00	1.312325e+00	-2.64540e-02	
29	1.029186e-07	1.094131e+00	1.348161e+00	-2.72424e-02	
30	1.030186e-07	1.131176e+00	1.383933e+00	-2.80295e-02	
31	1.031186e-07	1.168177e+00	1.419640e+00	-2.88151e-02	
32	1.032186e-07	1.205131e+00	1.455278e+00	-2.95992e-02	
33	1.033186e-07	1.242038e+00	1.490846e+00	-3.03817e-02	
34	1.034186e-07	1.278896e+00	1.526341e+00	-3.11627e-02	
35	1.035186e-07	1.315703e+00	1.561762e+00	-3.19420e-02	
36	1.036186e-07	1.352458e+00	1.597105e+00	-3.27196e-02	
37	1.037186e-07	1.389160e+00	1.632369e+00	-3.34955e-02	
38	1.038186e-07	1.425807e+00	1.667550e+00	-3.42695e-02	
39	1.039186e-07	1.462398e+00	1.702647e+00	-3.50417e-02	
40	1.040186e-07	1.498931e+00	1.737657e+00	-3.58120e-02	
41	1.041186e-07	1.535405e+00	1.772576e+00	-3.65803e-02	
42	1.042186e-07	1.571818e+00	1.807403e+00	-3.73466e-02	
43	1.043186e-07	1.608170e+00	1.842135e+00	-3.81107e-02	
44	1.044186e-07	1.644457e+00	1.876767e+00	-3.88727e-02	
45	1.045186e-07	1.680680e+00	1.911298e+00	-3.96325e-02	
46	1.046186e-07	1.716837e+00	1.945724e+00	-4.03899e-02	
47	1.047186e-07	1.752925e+00	1.980042e+00	-4.11450e-02	
48	1.048186e-07	1.788945e+00	2.014248e+00	-4.18976e-02	
49	1.049186e-07	1.824894e+00	2.048338e+00	-4.26477e-02	
50	1.050186e-07	1.860771e+00	2.082308e+00	-4.33951e-02	
51	1.051186e-07	1.896574e+00	2.116155e+00	-4.41398e-02	
52	1.052186e-07	1.932302e+00	2.149874e+00	-4.48817e-02	
53	1.053186e-07	1.967955e+00	2.183459e+00	-4.56207e-02	
54	1.054186e-07	2.003529e+00	2.216907e+00	-4.63566e-02	

Index   time            v(1)            v(6)            i(vd)           
--------------------------------------------------------------------------------
55	1.055186e-07	2.039025e+00	2.250212e+00	-4.70894e-02	
56	1.056186e-07	2.074440e+00	2.283368e+00	-4.78189e-02	
57	1.057186e-07	2.109773e+00	2.316368e+00	-4.85450e-02	
58	1.058186e-07	2.145022e+00	2.349206e+00	-4.92676e-02	
59	1.059186e-07	2.180187e+00	2.381874e+00	-4.99863e-02	
60	1.060186e-07	2.215266e+00	2.414363e+00	-5.07012e-02	
61	1.061186e-07	2.250258e+00	2.446666e+00	-5.14120e-02	
62	1.062186e-07	2.285161e+00	2.478770e+00	-5.21184e-02	
63	1.063186e-07	2.319973e+00	2.510665e+00	-5.28201e-02	
64	1.064186e-07	2.354694e+00	2.542337e+00	-5.35170e-02	
65	1.065186e-07	2.389322e+00	2.573772e+00	-5.42087e-02	
66	1.066186e-07	2.423856e+00	2.604951e+00	-5.48947e-02	
67	1.067186e-07	2.458294e+00	2.635855e+00	-5.55747e-02	
68	1.068186e-07	2.492635e+00	2.666460e+00	-5.62481e-02	
69	1.069186e-07	2.526877e+00	2.696736e+00	-5.69143e-02	
70	1.070186e-07	2.561020e+00	2.726651e+00	-5.75726e-02	
71	1.071186e-07	2.595061e+00	2.756161e+00	-5.82219e-02	
72	1.072186e-07	2.629000e+00	2.785213e+00	-5.88612e-02	
73	1.073186e-07	2.662836e+00	2.813740e+00	-5.94889e-02	
74	1.074186e-07	2.696566e+00	2.841655e+00	-6.01031e-02	
75	1.075186e-07	2.730190e+00	2.868839e+00	-6.07013e-02	
76	1.076186e-07	2.763706e+00	2.895129e+00	-6.12798e-02	
77	1.077186e-07	2.797113e+00	2.920288e+00	-6.18334e-02	
78	1.078186e-07	2.830409e+00	2.943955e+00	-6.23542e-02	
79	1.079186e-07	2.863594e+00	2.965541e+00	-6.28292e-02	
80	1.080186e-07	2.896666e+00	2.983979e+00	-6.32349e-02	
81	1.081186e-07	2.929623e+00	2.997057e+00	-6.35228e-02	
82	1.082186e-07	2.962465e+00	2.998971e+00	-6.35650e-02	
83	1.083186e-07	2.995189e+00	2.943243e+00	-6.23391e-02	
84	1.084186e-07	3.027796e+00	2.430059e-01	-2.93395e-03	
85	1.085186e-07	3.060283e+00	9.389748e-02	3.464298e-04	
86	1.085725e-07	3.077751e+00	1.176688e-01	-1.76542e-04	
87	1.086406e-07	3.099768e+00	1.200862e-01	-2.29728e-04	
88	1.087406e-07	3.131985e+00	1.199650e-01	-2.27066e-04	
89	1.088406e-07	3.164078e+00	1.199283e-01	-2.26264e-04	
90	1.089406e-07	3.196046e+00	1.198782e-01	-2.25166e-04	
91	1.090406e-07	3.227889e+00	1.198307e-01	-2.24126e-04	
92	1.091406e-07	3.259603e+00	1.197824e-01	-2.23067e-04	
93	1.092406e-07	3.291190e+00	1.197339e-01	-2.22005e-04	
94	1.093406e-07	3.322646e+00	1.196851e-01	-2.20936e-04	
95	1.094406e-07	3.353971e+00	1.196360e-01	-2.19862e-04	
96	1.095406e-07	3.385163e+00	1.195867e-01	-2.18783e-04	
97	1.096406e-07	3.416222e+00	1.195372e-01	-2.17697e-04	
98	1.097406e-07	3.447146e+00	1.194874e-01	-2.16606e-04	
99	1.098406e-07	3.477934e+00	1.194373e-01	-2.15509e-04	
100	1.099406e-07	3.508585e+00	1.193870e-01	-2.14407e-04	
101	1.100406e-07	3.539097e+00	1.193364e-01	-2.13299e-04	
102	1.101406e-07	3.569470e+00	1.192856e-01	-2.12185e-04	
103	1.102406e-07	3.599701e+00	1.192345e-01	-2.11066e-04	
104	1.103406e-07	3.629791e+00	1.191831e-01	-2.09941e-04	
105	1.104406e-07	3.659737e+00	1.191315e-01	-2.08810e-04	
106	1.105406e-07	3.689539e+00	1.190796e-01	-2.07674e-04	
107	1.106406e-07	3.719195e+00	1.190275e-01	-2.06533e-04	
108	1.107406e-07	3.748704e+00	1.189752e-01	-2.05385e-04	
109	1.108406e-07	3.778065e+00	1.189226e-01	-2.04233e-04	
110	1.109406e-07	3.807277e+00	1.188697e-01	-2.03075e-04	
111	1.110406e-07	3.836339e+00	1.188166e-01	-2.01911e-04	
112	1.111406e-07	3.865249e+00	1.187632e-01	-2.00742e-04	

Index   time            v(1)            v(6)            i(vd)           
--------------------------------------------------------------------------------
113	1.112406e-07	3.894007e+00	1.187096e-01	-1.99567e-04	
114	1.113406e-07	3.922611e+00	1.186558e-01	-1.98387e-04	
115	1.114406e-07	3.951060e+00	1.186017e-01	-1.97202e-04	
116	1.115406e-07	3.979353e+00	1.185473e-01	-1.96011e-04	
117	1.116406e-07	4.007489e+00	1.184928e-01	-1.94815e-04	
118	1.117406e-07	4.035467e+00	1.184379e-01	-1.93613e-04	
119	1.118406e-07	4.063285e+00	1.183829e-01	-1.92406e-04	
120	1.119406e-07	4.090943e+00	1.183275e-01	-1.91194e-04	
121	1.120406e-07	4.118440e+00	1.182720e-01	-1.89977e-04	
122	1.121406e-07	4.145774e+00	1.182162e-01	-1.88754e-04	
123	1.122406e-07	4.172944e+00	1.181602e-01	-1.87526e-04	
124	1.123406e-07	4.199950e+00	1.181039e-01	-1.86293e-04	
125	1.124406e-07	4.226790e+00	1.180474e-01	-1.85055e-04	
126	1.125406e-07	4.253462e+00	1.179907e-01	-1.83812e-04	
127	1.126406e-07	4.279967e+00	1.179337e-01	-1.82563e-04	
128	1.127406e-07	4.306303e+00	1.178765e-01	-1.81310e-04	
129	1.128406e-07	4.332469e+00	1.178191e-01	-1.80051e-04	
130	1.129406e-07	4.358464e+00	1.177614e-01	-1.78788e-04	
131	1.130406e-07	4.384287e+00	1.177036e-01	-1.77519e-04	
132	1.131406e-07	4.409937e+00	1.176455e-01	-1.76245e-04	
133	1.132406e-07	4.435413e+00	1.175871e-01	-1.74967e-04	
134	1.133406e-07	4.460714e+00	1.175286e-01	-1.73683e-04	
135	1.134406e-07	4.485838e+00	1.174698e-01	-1.72395e-04	
136	1.135406e-07	4.510786e+00	1.174108e-01	-1.71102e-04	
137	1.136406e-07	4.535555e+00	1.173516e-01	-1.69803e-04	
138	1.137406e-07	4.560145e+00	1.172921e-01	-1.68501e-04	
139	1.138406e-07	4.584556e+00	1.172325e-01	-1.67193e-04	
140	1.139406e-07	4.608785e+00	1.171726e-01	-1.65881e-04	
141	1.140406e-07	4.632832e+00	1.171125e-01	-1.64563e-04	
142	1.141406e-07	4.656697e+00	1.170523e-01	-1.63242e-04	
143	1.142406e-07	4.680377e+00	1.169918e-01	-1.61915e-04	
144	1.143406e-07	4.703873e+00	1.169310e-01	-1.60584e-04	
145	1.144406e-07	4.727183e+00	1.168701e-01	-1.59249e-04	
146	1.145406e-07	4.750307e+00	1.168090e-01	-1.57909e-04	
147	1.146406e-07	4.773243e+00	1.167477e-01	-1.56564e-04	
148	1.147406e-07	4.795990e+00	1.166861e-01	-1.55215e-04	
149	1.148406e-07	4.818548e+00	1.166244e-01	-1.53861e-04	
150	1.149406e-07	4.840916e+00	1.165625e-01	-1.52503e-04	
151	1.150406e-07	4.863093e+00	1.165003e-01	-1.51141e-04	
152	1.151406e-07	4.885078e+00	1.164380e-01	-1.49774e-04	
153	1.152406e-07	4.906870e+00	1.163755e-01	-1.48403e-04	
154	1.153406e-07	4.928468e+00	1.163127e-01	-1.47028e-04	
155	1.154406e-07	4.949872e+00	1.162498e-01	-1.45649e-04	
156	1.155406e-07	4.971081e+00	1.161867e-01	-1.44265e-04	
157	1.156406e-07	4.992093e+00	1.161234e-01	-1.42877e-04	
158	1.157406e-07	5.012908e+00	1.160600e-01	-1.41486e-04	
159	1.158406e-07	5.033525e+00	1.159963e-01	-1.40090e-04	
160	1.159406e-07	5.053943e+00	1.159324e-01	-1.38690e-04	
161	1.160406e-07	5.074162e+00	1.158684e-01	-1.37285e-04	
162	1.161406e-07	5.094180e+00	1.158042e-01	-1.35878e-04	
163	1.162406e-07	5.113998e+00	1.157398e-01	-1.34466e-04	
164	1.163406e-07	5.133613e+00	1.156752e-01	-1.33050e-04	
165	1.164406e-07	5.153026e+00	1.156105e-01	-1.31630e-04	
166	1.165406e-07	5.172236e+00	1.155456e-01	-1.30207e-04	
167	1.166406e-07	5.191241e+00	1.154805e-01	-1.28779e-04	
168	1.167406e-07	5.210041e+00	1.154152e-01	-1.27348e-04	
169	1.168406e-07	5.228636e+00	1.153498e-01	-1.25914e-04	
170	1.169406e-07	5.247024e+00	1.152842e-01	-1.24475e-04	

Index   time            v(1)            v(6)            i(vd)           
--------------------------------------------------------------------------------
171	1.170406e-07	5.265205e+00	1.152185e-01	-1.23033e-04	
172	1.171406e-07	5.283178e+00	1.151526e-01	-1.21588e-04	
173	1.172406e-07	5.300943e+00	1.150865e-01	-1.20139e-04	
174	1.173406e-07	5.318498e+00	1.150202e-01	-1.18686e-04	
175	1.174406e-07	5.335844e+00	1.149539e-01	-1.17230e-04	
176	1.175406e-07	5.352979e+00	1.148873e-01	-1.15770e-04	
177	1.176406e-07	5.369902e+00	1.148206e-01	-1.14308e-04	
178	1.177406e-07	5.386613e+00	1.147537e-01	-1.12841e-04	
179	1.178406e-07	5.403112e+00	1.146867e-01	-1.11372e-04	
180	1.179406e-07	5.419398e+00	1.146196e-01	-1.09899e-04	
181	1.180406e-07	5.435469e+00	1.145523e-01	-1.08423e-04	
182	1.181406e-07	5.451326e+00	1.144849e-01	-1.06944e-04	
183	1.182406e-07	5.466968e+00	1.144173e-01	-1.05462e-04	
184	1.183406e-07	5.482394e+00	1.143495e-01	-1.03976e-04	
185	1.184406e-07	5.497603e+00	1.142817e-01	-1.02488e-04	
186	1.185406e-07	5.512596e+00	1.142137e-01	-1.00997e-04	
187	1.186406e-07	5.527370e+00	1.141455e-01	-9.95022e-05	
188	1.187406e-07	5.541927e+00	1.140773e-01	-9.80050e-05	
189	1.188406e-07	5.556265e+00	1.140089e-01	-9.65048e-05	
190	1.189406e-07	5.570383e+00	1.139404e-01	-9.50018e-05	
191	1.190406e-07	5.584282e+00	1.138717e-01	-9.34960e-05	
192	1.191406e-07	5.597960e+00	1.138029e-01	-9.19875e-05	
193	1.192406e-07	5.611417e+00	1.137340e-01	-9.04763e-05	
194	1.193406e-07	5.624653e+00	1.136650e-01	-8.89624e-05	
195	1.194406e-07	5.637666e+00	1.135959e-01	-8.74459e-05	
196	1.195406e-07	5.650457e+00	1.135266e-01	-8.59268e-05	
197	1.196406e-07	5.663025e+00	1.134572e-01	-8.44052e-05	
198	1.197406e-07	5.675369e+00	1.133878e-01	-8.28811e-05	
199	1.198406e-07	5.687489e+00	1.133182e-01	-8.13545e-05	
200	1.199406e-07	5.699385e+00	1.132485e-01	-7.98256e-05	
201	1.200406e-07	5.711056e+00	1.131787e-01	-7.82943e-05	
202	1.201406e-07	5.722501e+00	1.131087e-01	-7.67607e-05	
203	1.202406e-07	5.733720e+00	1.130387e-01	-7.52249e-05	
204	1.203406e-07	5.744713e+00	1.129686e-01	-7.36868e-05	
205	1.204406e-07	5.755480e+00	1.128984e-01	-7.21466e-05	
206	1.205406e-07	5.766019e+00	1.128281e-01	-7.06042e-05	
207	1.206406e-07	5.776330e+00	1.127577e-01	-6.90597e-05	
208	1.207406e-07	5.786413e+00	1.126872e-01	-6.75132e-05	
209	1.208406e-07	5.796268e+00	1.126166e-01	-6.59648e-05	
210	1.209406e-07	5.805894e+00	1.125459e-01	-6.44143e-05	
211	1.210406e-07	5.815291e+00	1.124751e-01	-6.28620e-05	
212	1.211406e-07	5.824458e+00	1.124043e-01	-6.13078e-05	
213	1.212406e-07	5.833395e+00	1.123334e-01	-5.97518e-05	
214	1.213406e-07	5.842102e+00	1.122623e-01	-5.81940e-05	
215	1.214406e-07	5.850579e+00	1.121913e-01	-5.66345e-05	
216	1.215406e-07	5.858824e+00	1.121201e-01	-5.50733e-05	
217	1.216406e-07	5.866838e+00	1.120488e-01	-5.35105e-05	
218	1.217406e-07	5.874621e+00	1.119775e-01	-5.19462e-05	
219	1.218406e-07	5.882171e+00	1.119062e-01	-5.03802e-05	
220	1.219406e-07	5.889490e+00	1.118347e-01	-4.88128e-05	
221	1.220406e-07	5.896576e+00	1.117632e-01	-4.72440e-05	
222	1.221406e-07	5.903429e+00	1.116916e-01	-4.56737e-05	
223	1.222406e-07	5.910049e+00	1.116200e-01	-4.41021e-05	
224	1.223406e-07	5.916435e+00	1.115483e-01	-4.25292e-05	
225	1.224406e-07	5.922589e+00	1.114765e-01	-4.09551e-05	
226	1.225406e-07	5.928508e+00	1.114047e-01	-3.93797e-05	
227	1.226406e-07	5.934193e+00	1.113328e-01	-3.78032e-05	
228	1.227406e-07	5.939644e+00	1.112609e-01	-3.62255e-05	

Index   time            v(1)            v(6)            i(vd)           
--------------------------------------------------------------------------------
229	1.228406e-07	5.944861e+00	1.111890e-01	-3.46468e-05	
230	1.229406e-07	5.949842e+00	1.111170e-01	-3.30670e-05	
231	1.230406e-07	5.954589e+00	1.110449e-01	-3.14863e-05	
232	1.231406e-07	5.959101e+00	1.109728e-01	-2.99046e-05	
233	1.232406e-07	5.963378e+00	1.109007e-01	-2.83221e-05	
234	1.233406e-07	5.967419e+00	1.108285e-01	-2.67387e-05	
235	1.234406e-07	5.971225e+00	1.107563e-01	-2.51545e-05	
236	1.235406e-07	5.974794e+00	1.106840e-01	-2.35696e-05	
237	1.236406e-07	5.978128e+00	1.106118e-01	-2.19840e-05	
238	1.237406e-07	5.981226e+00	1.105395e-01	-2.03977e-05	
239	1.238406e-07	5.984088e+00	1.104671e-01	-1.88108e-05	
240	1.239406e-07	5.986714e+00	1.103948e-01	-1.72234e-05	
241	1.240406e-07	5.989103e+00	1.103224e-01	-1.56355e-05	
242	1.241406e-07	5.991256e+00	1.102500e-01	-1.40471e-05	
243	1.242406e-07	5.993172e+00	1.101776e-01	-1.24583e-05	
244	1.243406e-07	5.994852e+00	1.101051e-01	-1.08691e-05	
245	1.244406e-07	5.996295e+00	1.100327e-01	-9.27961e-06	
246	1.245406e-07	5.997501e+00	1.099602e-01	-7.68984e-06	
247	1.246406e-07	5.998471e+00	1.098878e-01	-6.09985e-06	
248	1.247406e-07	5.999203e+00	1.098153e-01	-4.50968e-06	
249	1.248406e-07	5.999699e+00	1.097428e-01	-2.91939e-06	
250	1.249406e-07	5.999958e+00	1.096703e-01	-1.32900e-06	
251	1.250406e-07	5.999980e+00	1.095978e-01	2.614153e-07	
252	1.251406e-07	5.999766e+00	1.095253e-01	1.851822e-06	
253	1.252406e-07	5.999314e+00	1.094528e-01	3.442170e-06	
254	1.253406e-07	5.998626e+00	1.093804e-01	5.032411e-06	
255	1.254406e-07	5.997700e+00	1.093079e-01	6.622499e-06	
256	1.255406e-07	5.996538e+00	1.092354e-01	8.212387e-06	
257	1.256406e-07	5.995140e+00	1.091630e-01	9.802025e-06	
258	1.257406e-07	5.993504e+00	1.090905e-01	1.139137e-05	
259	1.258406e-07	5.991632e+00	1.090181e-01	1.298037e-05	
260	1.259406e-07	5.989524e+00	1.089457e-01	1.456898e-05	
261	1.260406e-07	5.987179e+00	1.088733e-01	1.615716e-05	
262	1.261406e-07	5.984597e+00	1.088009e-01	1.774485e-05	
263	1.262406e-07	5.981780e+00	1.087286e-01	1.933201e-05	
264	1.263406e-07	5.978726e+00	1.086563e-01	2.091859e-05	
265	1.264406e-07	5.975436e+00	1.085840e-01	2.250454e-05	
266	1.265406e-07	5.971910e+00	1.085117e-01	2.408983e-05	
267	1.266406e-07	5.968149e+00	1.084395e-01	2.567439e-05	
268	1.267406e-07	5.964152e+00	1.083673e-01	2.725819e-05	
269	1.268406e-07	5.959919e+00	1.082952e-01	2.884117e-05	
270	1.269406e-07	5.955451e+00	1.082231e-01	3.042329e-05	
271	1.270406e-07	5.950748e+00	1.081510e-01	3.200451e-05	
272	1.271406e-07	5.945810e+00	1.080790e-01	3.358476e-05	
273	1.272406e-07	5.940638e+00	1.080070e-01	3.516402e-05	
274	1.273406e-07	5.935231e+00	1.079350e-01	3.674223e-05	
275	1.274406e-07	5.929589e+00	1.078632e-01	3.831935e-05	
276	1.275406e-07	5.923714e+00	1.077913e-01	3.989532e-05	
277	1.276406e-07	5.917604e+00	1.077196e-01	4.147011e-05	
278	1.277406e-07	5.911261e+00	1.076478e-01	4.304366e-05	
279	1.278406e-07	5.904685e+00	1.075762e-01	4.461593e-05	
280	1.279406e-07	5.897875e+00	1.075046e-01	4.618687e-05	
281	1.280406e-07	5.890833e+00	1.074330e-01	4.775644e-05	
282	1.281406e-07	5.883558e+00	1.073616e-01	4.932459e-05	
283	1.282406e-07	5.876051e+00	1.072902e-01	5.089127e-05	
284	1.283406e-07	5.868312e+00	1.072188e-01	5.245643e-05	
285	1.284406e-07	5.860341e+00	1.071475e-01	5.402004e-05	
286	1.285406e-07	5.852139e+00	1.070763e-01	5.558205e-05	

Index   time            v(1)            v(6)            i(vd)           
--------------------------------------------------------------------------------
287	1.286406e-07	5.843705e+00	1.070052e-01	5.714240e-05	
288	1.287406e-07	5.835042e+00	1.069342e-01	5.870105e-05	
289	1.288406e-07	5.826147e+00	1.068632e-01	6.025797e-05	
290	1.289406e-07	5.817023e+00	1.067923e-01	6.181309e-05	
291	1.290406e-07	5.807669e+00	1.067215e-01	6.336638e-05	
292	1.291406e-07	5.798086e+00	1.066508e-01	6.491779e-05	
293	1.292406e-07	5.788274e+00	1.065802e-01	6.646728e-05	
294	1.293406e-07	5.778233e+00	1.065097e-01	6.801479e-05	
295	1.294406e-07	5.767965e+00	1.064392e-01	6.956029e-05	
296	1.295406e-07	5.757468e+00	1.063689e-01	7.110373e-05	
297	1.296406e-07	5.746744e+00	1.062986e-01	7.264506e-05	
298	1.297406e-07	5.735794e+00	1.062285e-01	7.418424e-05	
299	1.298406e-07	5.724617e+00	1.061584e-01	7.572122e-05	
300	1.299406e-07	5.713214e+00	1.060885e-01	7.725597e-05	
301	1.300406e-07	5.701585e+00	1.060186e-01	7.878843e-05	
302	1.301406e-07	5.689731e+00	1.059489e-01	8.031856e-05	
303	1.302406e-07	5.677653e+00	1.058792e-01	8.184631e-05	
304	1.303406e-07	5.665351e+00	1.058097e-01	8.337164e-05	
305	1.304406e-07	5.652825e+00	1.057403e-01	8.489452e-05	
306	1.305406e-07	5.640075e+00	1.056710e-01	8.641488e-05	
307	1.306406e-07	5.627104e+00	1.056018e-01	8.793270e-05	
308	1.307406e-07	5.613909e+00	1.055327e-01	8.944792e-05	
309	1.308406e-07	5.600494e+00	1.054638e-01	9.096050e-05	
310	1.309406e-07	5.586857e+00	1.053950e-01	9.247040e-05	
311	1.310406e-07	5.573000e+00	1.053263e-01	9.397757e-05	
312	1.311406e-07	5.558922e+00	1.052577e-01	9.548197e-05	
313	1.312406e-07	5.544625e+00	1.051893e-01	9.698357e-05	
314	1.313406e-07	5.530110e+00	1.051209e-01	9.848230e-05	
315	1.314406e-07	5.515376e+00	1.050528e-01	9.997814e-05	
316	1.315406e-07	5.500424e+00	1.049847e-01	1.014710e-04	
317	1.316406e-07	5.485255e+00	1.049168e-01	1.029610e-04	
318	1.317406e-07	5.469870e+00	1.048490e-01	1.044478e-04	
319	1.318406e-07	5.454268e+00	1.047814e-01	1.059317e-04	
320	1.319406e-07	5.438451e+00	1.047139e-01	1.074124e-04	
321	1.320406e-07	5.422420e+00	1.046465e-01	1.088899e-04	
322	1.321406e-07	5.406175e+00	1.045793e-01	1.103643e-04	
323	1.322406e-07	5.389716e+00	1.045123e-01	1.118354e-04	
324	1.323406e-07	5.373044e+00	1.044453e-01	1.133033e-04	
325	1.324406e-07	5.356160e+00	1.043786e-01	1.147678e-04	
326	1.325406e-07	5.339065e+00	1.043120e-01	1.162290e-04	
327	1.326406e-07	5.321759e+00	1.042455e-01	1.176868e-04	
328	1.327406e-07	5.304243e+00	1.041792e-01	1.191411e-04	
329	1.328406e-07	5.286517e+00	1.041131e-01	1.205920e-04	
330	1.329406e-07	5.268583e+00	1.040471e-01	1.220393e-04	
331	1.330406e-07	5.250441e+00	1.039813e-01	1.234831e-04	
