            * rf switch using in914 junction diodes with vbias = 5v
            Transient Analysis  Sun Aug 28 21:23:18  2022
--------------------------------------------------------------------------------
Index   time            v(1)            v(6)            i(vd)           
--------------------------------------------------------------------------------
0	1.000712e-07	2.685341e-02	2.783233e-01	-1.74121e-03	
1	1.001712e-07	6.455136e-02	3.152005e-01	-2.55252e-03	
2	1.002712e-07	1.022468e-01	3.520653e-01	-3.36356e-03	
3	1.003712e-07	1.399381e-01	3.889161e-01	-4.17429e-03	
4	1.004712e-07	1.776240e-01	4.257512e-01	-4.98468e-03	
5	1.005712e-07	2.153028e-01	4.625690e-01	-5.79469e-03	
6	1.006712e-07	2.529732e-01	4.993678e-01	-6.60428e-03	
7	1.007712e-07	2.906335e-01	5.361459e-01	-7.41342e-03	
8	1.008712e-07	3.282824e-01	5.729017e-01	-8.22207e-03	
9	1.009712e-07	3.659183e-01	6.096335e-01	-9.03020e-03	
10	1.010712e-07	4.035398e-01	6.463395e-01	-9.83775e-03	
11	1.011712e-07	4.411453e-01	6.830181e-01	-1.06447e-02	
12	1.012712e-07	4.787334e-01	7.196675e-01	-1.14510e-02	
13	1.013712e-07	5.163026e-01	7.562861e-01	-1.22567e-02	
14	1.014712e-07	5.538515e-01	7.928721e-01	-1.30616e-02	
15	1.015712e-07	5.913785e-01	8.294237e-01	-1.38658e-02	
16	1.016712e-07	6.288821e-01	8.659393e-01	-1.46691e-02	
17	1.017712e-07	6.663609e-01	9.024170e-01	-1.54717e-02	
18	1.018712e-07	7.038134e-01	9.388551e-01	-1.62734e-02	
19	1.019712e-07	7.412381e-01	9.752519e-01	-1.70741e-02	
20	1.020712e-07	7.786335e-01	1.011605e+00	-1.78739e-02	
21	1.021712e-07	8.159982e-01	1.047914e+00	-1.86728e-02	
22	1.022712e-07	8.533307e-01	1.084176e+00	-1.94706e-02	
23	1.023712e-07	8.906295e-01	1.120389e+00	-2.02673e-02	
24	1.024712e-07	9.278932e-01	1.156551e+00	-2.10629e-02	
25	1.025712e-07	9.651202e-01	1.192661e+00	-2.18574e-02	
26	1.026712e-07	1.002309e+00	1.228717e+00	-2.26507e-02	
27	1.027712e-07	1.039458e+00	1.264717e+00	-2.34427e-02	
28	1.028712e-07	1.076567e+00	1.300658e+00	-2.42335e-02	
29	1.029712e-07	1.113633e+00	1.336540e+00	-2.50229e-02	
30	1.030712e-07	1.150654e+00	1.372359e+00	-2.58110e-02	
31	1.031712e-07	1.187631e+00	1.408114e+00	-2.65977e-02	
32	1.032712e-07	1.224560e+00	1.443804e+00	-2.73829e-02	
33	1.033712e-07	1.261442e+00	1.479425e+00	-2.81666e-02	
34	1.034712e-07	1.298273e+00	1.514975e+00	-2.89488e-02	
35	1.035712e-07	1.335053e+00	1.550454e+00	-2.97294e-02	
36	1.036712e-07	1.371780e+00	1.585858e+00	-3.05083e-02	
37	1.037712e-07	1.408454e+00	1.621185e+00	-3.12856e-02	
38	1.038712e-07	1.445071e+00	1.656433e+00	-3.20611e-02	
39	1.039712e-07	1.481632e+00	1.691600e+00	-3.28349e-02	
40	1.040712e-07	1.518134e+00	1.726684e+00	-3.36068e-02	
41	1.041712e-07	1.554576e+00	1.761681e+00	-3.43768e-02	
42	1.042712e-07	1.590957e+00	1.796590e+00	-3.51448e-02	
43	1.043712e-07	1.627275e+00	1.831407e+00	-3.59109e-02	
44	1.044712e-07	1.663529e+00	1.866132e+00	-3.66749e-02	
45	1.045712e-07	1.699717e+00	1.900759e+00	-3.74368e-02	
46	1.046712e-07	1.735838e+00	1.935288e+00	-3.81965e-02	
47	1.047712e-07	1.771890e+00	1.969715e+00	-3.89540e-02	
48	1.048712e-07	1.807873e+00	2.004037e+00	-3.97091e-02	
49	1.049712e-07	1.843784e+00	2.038251e+00	-4.04619e-02	
50	1.050712e-07	1.879623e+00	2.072354e+00	-4.12123e-02	
51	1.051712e-07	1.915387e+00	2.106342e+00	-4.19601e-02	
52	1.052712e-07	1.951075e+00	2.140212e+00	-4.27053e-02	
53	1.053712e-07	1.986687e+00	2.173960e+00	-4.34478e-02	
54	1.054712e-07	2.022220e+00	2.207583e+00	-4.41876e-02	

Index   time            v(1)            v(6)            i(vd)           
--------------------------------------------------------------------------------
55	1.055712e-07	2.057673e+00	2.241075e+00	-4.49246e-02	
56	1.056712e-07	2.093045e+00	2.274434e+00	-4.56585e-02	
57	1.057712e-07	2.128334e+00	2.307654e+00	-4.63895e-02	
58	1.058712e-07	2.163540e+00	2.340729e+00	-4.71172e-02	
59	1.059712e-07	2.198660e+00	2.373656e+00	-4.78417e-02	
60	1.060712e-07	2.233693e+00	2.406428e+00	-4.85628e-02	
61	1.061712e-07	2.268638e+00	2.439038e+00	-4.92803e-02	
62	1.062712e-07	2.303493e+00	2.471480e+00	-4.99941e-02	
63	1.063712e-07	2.338258e+00	2.503747e+00	-5.07041e-02	
64	1.064712e-07	2.372930e+00	2.535830e+00	-5.14100e-02	
65	1.065712e-07	2.407508e+00	2.567720e+00	-5.21117e-02	
66	1.066712e-07	2.441992e+00	2.599406e+00	-5.28089e-02	
67	1.067712e-07	2.476379e+00	2.630878e+00	-5.35014e-02	
68	1.068712e-07	2.510668e+00	2.662122e+00	-5.41889e-02	
69	1.069712e-07	2.544858e+00	2.693124e+00	-5.48710e-02	
70	1.070712e-07	2.578948e+00	2.723865e+00	-5.55474e-02	
71	1.071712e-07	2.612936e+00	2.754327e+00	-5.62177e-02	
72	1.072712e-07	2.646820e+00	2.784485e+00	-5.68813e-02	
73	1.073712e-07	2.680601e+00	2.814311e+00	-5.75376e-02	
74	1.074712e-07	2.714275e+00	2.843772e+00	-5.81858e-02	
75	1.075712e-07	2.747842e+00	2.872825e+00	-5.88251e-02	
76	1.076712e-07	2.781301e+00	2.901420e+00	-5.94543e-02	
77	1.077712e-07	2.814650e+00	2.929490e+00	-6.00720e-02	
78	1.078712e-07	2.847888e+00	2.956948e+00	-6.06762e-02	
79	1.079712e-07	2.881013e+00	2.983680e+00	-6.12644e-02	
80	1.080712e-07	2.914025e+00	3.009526e+00	-6.18331e-02	
81	1.081712e-07	2.946922e+00	3.034258e+00	-6.23773e-02	
82	1.082712e-07	2.979702e+00	3.057525e+00	-6.28893e-02	
83	1.083712e-07	3.012364e+00	3.078762e+00	-6.33567e-02	
84	1.084712e-07	3.044908e+00	3.096955e+00	-6.37571e-02	
85	1.085712e-07	3.077332e+00	3.110025e+00	-6.40447e-02	
86	1.086712e-07	3.109634e+00	3.111412e+00	-6.40753e-02	
87	1.087712e-07	3.141813e+00	3.055403e+00	-6.28433e-02	
88	1.088712e-07	3.173868e+00	3.614717e-01	-3.57685e-03	
89	1.089712e-07	3.205798e+00	1.766748e-01	4.886705e-04	
90	1.090254e-07	3.223046e+00	2.062386e-01	-1.61738e-04	
91	1.090939e-07	3.244784e+00	2.091638e-01	-2.26098e-04	
92	1.091939e-07	3.276431e+00	2.090164e-01	-2.22862e-04	
93	1.092939e-07	3.307948e+00	2.089806e-01	-2.22083e-04	
94	1.093939e-07	3.339334e+00	2.089282e-01	-2.20940e-04	
95	1.094939e-07	3.370589e+00	2.088792e-01	-2.19870e-04	
96	1.095939e-07	3.401711e+00	2.088291e-01	-2.18777e-04	
97	1.096939e-07	3.432698e+00	2.087790e-01	-2.17682e-04	
98	1.097939e-07	3.463550e+00	2.087286e-01	-2.16581e-04	
99	1.098939e-07	3.494265e+00	2.086779e-01	-2.15475e-04	
100	1.099939e-07	3.524842e+00	2.086270e-01	-2.14363e-04	
101	1.100939e-07	3.555280e+00	2.085758e-01	-2.13245e-04	
102	1.101939e-07	3.585578e+00	2.085243e-01	-2.12122e-04	
103	1.102939e-07	3.615734e+00	2.084727e-01	-2.10993e-04	
104	1.103939e-07	3.645747e+00	2.084207e-01	-2.09859e-04	
105	1.104939e-07	3.675616e+00	2.083685e-01	-2.08719e-04	
106	1.105939e-07	3.705341e+00	2.083161e-01	-2.07574e-04	
107	1.106939e-07	3.734919e+00	2.082634e-01	-2.06423e-04	
108	1.107939e-07	3.764349e+00	2.082105e-01	-2.05267e-04	
109	1.108939e-07	3.793631e+00	2.081573e-01	-2.04106e-04	
110	1.109939e-07	3.822763e+00	2.081039e-01	-2.02939e-04	
111	1.110939e-07	3.851745e+00	2.080502e-01	-2.01766e-04	
112	1.111939e-07	3.880574e+00	2.079963e-01	-2.00589e-04	

Index   time            v(1)            v(6)            i(vd)           
--------------------------------------------------------------------------------
113	1.112939e-07	3.909250e+00	2.079422e-01	-1.99405e-04	
114	1.113939e-07	3.937772e+00	2.078878e-01	-1.98217e-04	
115	1.114939e-07	3.966138e+00	2.078331e-01	-1.97023e-04	
116	1.115939e-07	3.994347e+00	2.077782e-01	-1.95824e-04	
117	1.116939e-07	4.022399e+00	2.077231e-01	-1.94620e-04	
118	1.117939e-07	4.050292e+00	2.076677e-01	-1.93410e-04	
119	1.118939e-07	4.078026e+00	2.076121e-01	-1.92195e-04	
120	1.119939e-07	4.105598e+00	2.075563e-01	-1.90975e-04	
121	1.120939e-07	4.133008e+00	2.075002e-01	-1.89749e-04	
122	1.121939e-07	4.160255e+00	2.074439e-01	-1.88519e-04	
123	1.122939e-07	4.187338e+00	2.073874e-01	-1.87283e-04	
124	1.123939e-07	4.214255e+00	2.073306e-01	-1.86042e-04	
125	1.124939e-07	4.241007e+00	2.072736e-01	-1.84797e-04	
126	1.125939e-07	4.267590e+00	2.072164e-01	-1.83546e-04	
127	1.126939e-07	4.294005e+00	2.071589e-01	-1.82289e-04	
128	1.127939e-07	4.320251e+00	2.071012e-01	-1.81028e-04	
129	1.128939e-07	4.346326e+00	2.070433e-01	-1.79762e-04	
130	1.129939e-07	4.372230e+00	2.069851e-01	-1.78491e-04	
131	1.130939e-07	4.397961e+00	2.069267e-01	-1.77215e-04	
132	1.131939e-07	4.423518e+00	2.068681e-01	-1.75934e-04	
133	1.132939e-07	4.448901e+00	2.068093e-01	-1.74649e-04	
134	1.133939e-07	4.474108e+00	2.067503e-01	-1.73358e-04	
135	1.134939e-07	4.499138e+00	2.066910e-01	-1.72062e-04	
136	1.135939e-07	4.523991e+00	2.066315e-01	-1.70762e-04	
137	1.136939e-07	4.548665e+00	2.065718e-01	-1.69457e-04	
138	1.137939e-07	4.573160e+00	2.065119e-01	-1.68147e-04	
139	1.138939e-07	4.597474e+00	2.064518e-01	-1.66833e-04	
140	1.139939e-07	4.621606e+00	2.063914e-01	-1.65513e-04	
141	1.140939e-07	4.645556e+00	2.063309e-01	-1.64190e-04	
142	1.141939e-07	4.669323e+00	2.062701e-01	-1.62861e-04	
143	1.142939e-07	4.692906e+00	2.062092e-01	-1.61528e-04	
144	1.143939e-07	4.716303e+00	2.061480e-01	-1.60190e-04	
145	1.144939e-07	4.739514e+00	2.060866e-01	-1.58848e-04	
146	1.145939e-07	4.762537e+00	2.060250e-01	-1.57502e-04	
147	1.146939e-07	4.785373e+00	2.059632e-01	-1.56150e-04	
148	1.147939e-07	4.808020e+00	2.059012e-01	-1.54795e-04	
149	1.148939e-07	4.830477e+00	2.058391e-01	-1.53435e-04	
150	1.149939e-07	4.852743e+00	2.057767e-01	-1.52071e-04	
151	1.150939e-07	4.874818e+00	2.057141e-01	-1.50702e-04	
152	1.151939e-07	4.896701e+00	2.056513e-01	-1.49329e-04	
153	1.152939e-07	4.918390e+00	2.055883e-01	-1.47952e-04	
154	1.153939e-07	4.939885e+00	2.055252e-01	-1.46571e-04	
155	1.154939e-07	4.961184e+00	2.054618e-01	-1.45185e-04	
156	1.155939e-07	4.982288e+00	2.053983e-01	-1.43796e-04	
157	1.156939e-07	5.003196e+00	2.053346e-01	-1.42402e-04	
158	1.157939e-07	5.023905e+00	2.052707e-01	-1.41004e-04	
159	1.158939e-07	5.044417e+00	2.052066e-01	-1.39602e-04	
160	1.159939e-07	5.064729e+00	2.051423e-01	-1.38196e-04	
161	1.160939e-07	5.084841e+00	2.050778e-01	-1.36787e-04	
162	1.161939e-07	5.104753e+00	2.050132e-01	-1.35373e-04	
163	1.162939e-07	5.124463e+00	2.049484e-01	-1.33955e-04	
164	1.163939e-07	5.143971e+00	2.048834e-01	-1.32534e-04	
165	1.164939e-07	5.163276e+00	2.048182e-01	-1.31108e-04	
166	1.165939e-07	5.182376e+00	2.047529e-01	-1.29679e-04	
167	1.166939e-07	5.201273e+00	2.046874e-01	-1.28246e-04	
168	1.167939e-07	5.219964e+00	2.046217e-01	-1.26810e-04	
169	1.168939e-07	5.238449e+00	2.045559e-01	-1.25370e-04	
170	1.169939e-07	5.256727e+00	2.044899e-01	-1.23926e-04	

Index   time            v(1)            v(6)            i(vd)           
--------------------------------------------------------------------------------
171	1.170939e-07	5.274797e+00	2.044237e-01	-1.22479e-04	
172	1.171939e-07	5.292659e+00	2.043574e-01	-1.21028e-04	
173	1.172939e-07	5.310313e+00	2.042909e-01	-1.19573e-04	
174	1.173939e-07	5.327756e+00	2.042243e-01	-1.18115e-04	
175	1.174939e-07	5.344990e+00	2.041575e-01	-1.16654e-04	
176	1.175939e-07	5.362012e+00	2.040906e-01	-1.15189e-04	
177	1.176939e-07	5.378823e+00	2.040235e-01	-1.13721e-04	
178	1.177939e-07	5.395421e+00	2.039562e-01	-1.12250e-04	
179	1.178939e-07	5.411806e+00	2.038888e-01	-1.10776e-04	
180	1.179939e-07	5.427978e+00	2.038213e-01	-1.09298e-04	
181	1.180939e-07	5.443936e+00	2.037536e-01	-1.07817e-04	
182	1.181939e-07	5.459678e+00	2.036858e-01	-1.06333e-04	
183	1.182939e-07	5.475205e+00	2.036178e-01	-1.04846e-04	
184	1.183939e-07	5.490516e+00	2.035497e-01	-1.03355e-04	
185	1.184939e-07	5.505610e+00	2.034814e-01	-1.01862e-04	
186	1.185939e-07	5.520486e+00	2.034131e-01	-1.00366e-04	
187	1.186939e-07	5.535145e+00	2.033445e-01	-9.88669e-05	
188	1.187939e-07	5.549585e+00	2.032759e-01	-9.73649e-05	
189	1.188939e-07	5.563806e+00	2.032071e-01	-9.58600e-05	
190	1.189939e-07	5.577808e+00	2.031382e-01	-9.43524e-05	
191	1.190939e-07	5.591589e+00	2.030692e-01	-9.28420e-05	
192	1.191939e-07	5.605150e+00	2.030001e-01	-9.13289e-05	
193	1.192939e-07	5.618489e+00	2.029308e-01	-8.98131e-05	
194	1.193939e-07	5.631606e+00	2.028614e-01	-8.82947e-05	
195	1.194939e-07	5.644502e+00	2.027919e-01	-8.67738e-05	
196	1.195939e-07	5.657174e+00	2.027223e-01	-8.52503e-05	
197	1.196939e-07	5.669623e+00	2.026526e-01	-8.37242e-05	
198	1.197939e-07	5.681848e+00	2.025827e-01	-8.21958e-05	
199	1.198939e-07	5.693849e+00	2.025128e-01	-8.06649e-05	
200	1.199939e-07	5.705625e+00	2.024427e-01	-7.91317e-05	
201	1.200939e-07	5.717175e+00	2.023725e-01	-7.75962e-05	
202	1.201939e-07	5.728501e+00	2.023023e-01	-7.60583e-05	
203	1.202939e-07	5.739599e+00	2.022319e-01	-7.45183e-05	
204	1.203939e-07	5.750472e+00	2.021614e-01	-7.29761e-05	
205	1.204939e-07	5.761117e+00	2.020909e-01	-7.14317e-05	
206	1.205939e-07	5.771535e+00	2.020202e-01	-6.98852e-05	
207	1.206939e-07	5.781725e+00	2.019494e-01	-6.83367e-05	
208	1.207939e-07	5.791687e+00	2.018786e-01	-6.67862e-05	
209	1.208939e-07	5.801420e+00	2.018077e-01	-6.52337e-05	
210	1.209939e-07	5.810924e+00	2.017366e-01	-6.36793e-05	
211	1.210939e-07	5.820199e+00	2.016655e-01	-6.21230e-05	
212	1.211939e-07	5.829244e+00	2.015943e-01	-6.05649e-05	
213	1.212939e-07	5.838058e+00	2.015231e-01	-5.90051e-05	
214	1.213939e-07	5.846643e+00	2.014517e-01	-5.74435e-05	
215	1.214939e-07	5.854996e+00	2.013803e-01	-5.58802e-05	
216	1.215939e-07	5.863118e+00	2.013088e-01	-5.43152e-05	
217	1.216939e-07	5.871009e+00	2.012372e-01	-5.27487e-05	
218	1.217939e-07	5.878668e+00	2.011656e-01	-5.11806e-05	
219	1.218939e-07	5.886095e+00	2.010939e-01	-4.96110e-05	
220	1.219939e-07	5.893290e+00	2.010221e-01	-4.80400e-05	
221	1.220939e-07	5.900252e+00	2.009503e-01	-4.64675e-05	
222	1.221939e-07	5.906981e+00	2.008784e-01	-4.48937e-05	
223	1.222939e-07	5.913477e+00	2.008064e-01	-4.33185e-05	
224	1.223939e-07	5.919739e+00	2.007344e-01	-4.17421e-05	
225	1.224939e-07	5.925768e+00	2.006623e-01	-4.01644e-05	
226	1.225939e-07	5.931563e+00	2.005902e-01	-3.85856e-05	
227	1.226939e-07	5.937124e+00	2.005180e-01	-3.70056e-05	
228	1.227939e-07	5.942450e+00	2.004458e-01	-3.54245e-05	

Index   time            v(1)            v(6)            i(vd)           
--------------------------------------------------------------------------------
229	1.228939e-07	5.947541e+00	2.003735e-01	-3.38424e-05	
230	1.229939e-07	5.952398e+00	2.003012e-01	-3.22593e-05	
231	1.230939e-07	5.957020e+00	2.002288e-01	-3.06753e-05	
232	1.231939e-07	5.961407e+00	2.001564e-01	-2.90903e-05	
233	1.232939e-07	5.965558e+00	2.000839e-01	-2.75045e-05	
234	1.233939e-07	5.969474e+00	2.000114e-01	-2.59179e-05	
235	1.234939e-07	5.973154e+00	1.999389e-01	-2.43305e-05	
236	1.235939e-07	5.976598e+00	1.998664e-01	-2.27424e-05	
237	1.236939e-07	5.979807e+00	1.997938e-01	-2.11536e-05	
238	1.237939e-07	5.982779e+00	1.997212e-01	-1.95642e-05	
239	1.238939e-07	5.985515e+00	1.996486e-01	-1.79743e-05	
240	1.239939e-07	5.988015e+00	1.995759e-01	-1.63838e-05	
241	1.240939e-07	5.990278e+00	1.995032e-01	-1.47928e-05	
242	1.241939e-07	5.992305e+00	1.994305e-01	-1.32014e-05	
243	1.242939e-07	5.994096e+00	1.993578e-01	-1.16096e-05	
244	1.243939e-07	5.995649e+00	1.992851e-01	-1.00175e-05	
245	1.244939e-07	5.996966e+00	1.992123e-01	-8.42502e-06	
246	1.245939e-07	5.998047e+00	1.991396e-01	-6.83234e-06	
247	1.246939e-07	5.998890e+00	1.990668e-01	-5.23947e-06	
248	1.247939e-07	5.999497e+00	1.989940e-01	-3.64644e-06	
249	1.248939e-07	5.999867e+00	1.989213e-01	-2.05330e-06	
250	1.249939e-07	6.000000e+00	1.988485e-01	-4.60112e-07	
251	1.250939e-07	5.999896e+00	1.987757e-01	1.133091e-06	
252	1.251939e-07	5.999555e+00	1.987029e-01	2.726257e-06	
253	1.252939e-07	5.998977e+00	1.986301e-01	4.319340e-06	
254	1.253939e-07	5.998163e+00	1.985574e-01	5.912292e-06	
255	1.254939e-07	5.997111e+00	1.984846e-01	7.505066e-06	
256	1.255939e-07	5.995823e+00	1.984119e-01	9.097616e-06	
257	1.256939e-07	5.994299e+00	1.983391e-01	1.068989e-05	
258	1.257939e-07	5.992537e+00	1.982664e-01	1.228185e-05	
259	1.258939e-07	5.990539e+00	1.981937e-01	1.387344e-05	
260	1.259939e-07	5.988305e+00	1.981210e-01	1.546463e-05	
261	1.260939e-07	5.985834e+00	1.980483e-01	1.705534e-05	
262	1.261939e-07	5.983127e+00	1.979757e-01	1.864556e-05	
263	1.262939e-07	5.980184e+00	1.979031e-01	2.023522e-05	
264	1.263939e-07	5.977004e+00	1.978305e-01	2.182427e-05	
265	1.264939e-07	5.973589e+00	1.977579e-01	2.341268e-05	
266	1.265939e-07	5.969938e+00	1.976854e-01	2.500040e-05	
267	1.266939e-07	5.966051e+00	1.976129e-01	2.658737e-05	
268	1.267939e-07	5.961928e+00	1.975405e-01	2.817356e-05	
269	1.268939e-07	5.957570e+00	1.974680e-01	2.975891e-05	
270	1.269939e-07	5.952977e+00	1.973957e-01	3.134338e-05	
271	1.270939e-07	5.948149e+00	1.973233e-01	3.292691e-05	
272	1.271939e-07	5.943086e+00	1.972510e-01	3.450948e-05	
273	1.272939e-07	5.937789e+00	1.971788e-01	3.609102e-05	
274	1.273939e-07	5.932257e+00	1.971066e-01	3.767150e-05	
275	1.274939e-07	5.926491e+00	1.970344e-01	3.925085e-05	
276	1.275939e-07	5.920491e+00	1.969623e-01	4.082905e-05	
277	1.276939e-07	5.914257e+00	1.968903e-01	4.240604e-05	
278	1.277939e-07	5.907790e+00	1.968183e-01	4.398178e-05	
279	1.278939e-07	5.901089e+00	1.967464e-01	4.555621e-05	
280	1.279939e-07	5.894156e+00	1.966745e-01	4.712930e-05	
281	1.280939e-07	5.886990e+00	1.966027e-01	4.870100e-05	
282	1.281939e-07	5.879591e+00	1.965310e-01	5.027126e-05	
283	1.282939e-07	5.871961e+00	1.964593e-01	5.184003e-05	
284	1.283939e-07	5.864098e+00	1.963877e-01	5.340727e-05	
285	1.284939e-07	5.856004e+00	1.963162e-01	5.497293e-05	
286	1.285939e-07	5.847679e+00	1.962448e-01	5.653698e-05	

Index   time            v(1)            v(6)            i(vd)           
--------------------------------------------------------------------------------
287	1.286939e-07	5.839123e+00	1.961734e-01	5.809935e-05	
288	1.287939e-07	5.830336e+00	1.961021e-01	5.966001e-05	
289	1.288939e-07	5.821320e+00	1.960309e-01	6.121891e-05	
290	1.289939e-07	5.812073e+00	1.959598e-01	6.277601e-05	
291	1.290939e-07	5.802597e+00	1.958887e-01	6.433126e-05	
292	1.291939e-07	5.792892e+00	1.958177e-01	6.588461e-05	
293	1.292939e-07	5.782958e+00	1.957469e-01	6.743602e-05	
294	1.293939e-07	5.772796e+00	1.956761e-01	6.898544e-05	
295	1.294939e-07	5.762406e+00	1.956054e-01	7.053284e-05	
296	1.295939e-07	5.751789e+00	1.955348e-01	7.207816e-05	
297	1.296939e-07	5.740944e+00	1.954643e-01	7.362135e-05	
298	1.297939e-07	5.729873e+00	1.953939e-01	7.516239e-05	
299	1.298939e-07	5.718576e+00	1.953236e-01	7.670121e-05	
300	1.299939e-07	5.707053e+00	1.952534e-01	7.823778e-05	
301	1.300939e-07	5.695304e+00	1.951833e-01	7.977205e-05	
302	1.301939e-07	5.683331e+00	1.951133e-01	8.130398e-05	
303	1.302939e-07	5.671133e+00	1.950434e-01	8.283352e-05	
304	1.303939e-07	5.658712e+00	1.949737e-01	8.436063e-05	
305	1.304939e-07	5.646067e+00	1.949040e-01	8.588527e-05	
306	1.305939e-07	5.633199e+00	1.948345e-01	8.740739e-05	
307	1.306939e-07	5.620109e+00	1.947650e-01	8.892694e-05	
308	1.307939e-07	5.606797e+00	1.946957e-01	9.044389e-05	
309	1.308939e-07	5.593263e+00	1.946265e-01	9.195819e-05	
310	1.309939e-07	5.579509e+00	1.945575e-01	9.346980e-05	
311	1.310939e-07	5.565535e+00	1.944885e-01	9.497868e-05	
312	1.311939e-07	5.551340e+00	1.944197e-01	9.648477e-05	
313	1.312939e-07	5.536927e+00	1.943510e-01	9.798805e-05	
314	1.313939e-07	5.522295e+00	1.942825e-01	9.948846e-05	
315	1.314939e-07	5.507445e+00	1.942141e-01	1.009860e-04	
316	1.315939e-07	5.492378e+00	1.941458e-01	1.024805e-04	
317	1.316939e-07	5.477093e+00	1.940776e-01	1.039721e-04	
318	1.317939e-07	5.461593e+00	1.940096e-01	1.054606e-04	
319	1.318939e-07	5.445877e+00	1.939417e-01	1.069461e-04	
320	1.319939e-07	5.429946e+00	1.938740e-01	1.084284e-04	
321	1.320939e-07	5.413800e+00	1.938064e-01	1.099076e-04	
322	1.321939e-07	5.397441e+00	1.937390e-01	1.113836e-04	
323	1.322939e-07	5.380869e+00	1.936717e-01	1.128564e-04	
324	1.323939e-07	5.364084e+00	1.936045e-01	1.143258e-04	
325	1.324939e-07	5.347088e+00	1.935375e-01	1.157920e-04	
326	1.325939e-07	5.329880e+00	1.934707e-01	1.172547e-04	
327	1.326939e-07	5.312462e+00	1.934040e-01	1.187141e-04	
328	1.327939e-07	5.294835e+00	1.933375e-01	1.201701e-04	
329	1.328939e-07	5.276998e+00	1.932711e-01	1.216225e-04	
330	1.329939e-07	5.258953e+00	1.932049e-01	1.230714e-04	
331	1.330939e-07	5.240700e+00	1.931388e-01	1.245168e-04	
