            * rf switch using in914 junction diodes with vbias = -5v
            Transient Analysis  Sun Aug 28 21:20:54  2022
--------------------------------------------------------------------------------
Index   time            v(1)            v(6)            i(vd)           
--------------------------------------------------------------------------------
0	1.000811e-07	3.056773e-02	1.158979e-02	-2.54175e-04	
1	1.001811e-07	6.826550e-02	1.158308e-02	-2.54028e-04	
2	1.002811e-07	1.059606e-01	1.157596e-02	-2.53871e-04	
3	1.003811e-07	1.436515e-01	1.156842e-02	-2.53706e-04	
4	1.004811e-07	1.813367e-01	1.156046e-02	-2.53531e-04	
5	1.005811e-07	2.190148e-01	1.155208e-02	-2.53347e-04	
6	1.006811e-07	2.566842e-01	1.154329e-02	-2.53154e-04	
7	1.007811e-07	2.943435e-01	1.153408e-02	-2.52952e-04	
8	1.008811e-07	3.319911e-01	1.152446e-02	-2.52741e-04	
9	1.009811e-07	3.696257e-01	1.151443e-02	-2.52521e-04	
10	1.010811e-07	4.072456e-01	1.150398e-02	-2.52291e-04	
11	1.011811e-07	4.448495e-01	1.149311e-02	-2.52053e-04	
12	1.012811e-07	4.824359e-01	1.148184e-02	-2.51805e-04	
13	1.013811e-07	5.200031e-01	1.147015e-02	-2.51549e-04	
14	1.014811e-07	5.575499e-01	1.145806e-02	-2.51283e-04	
15	1.015811e-07	5.950746e-01	1.144555e-02	-2.51008e-04	
16	1.016811e-07	6.325759e-01	1.143263e-02	-2.50725e-04	
17	1.017811e-07	6.700521e-01	1.141931e-02	-2.50432e-04	
18	1.018811e-07	7.075020e-01	1.140558e-02	-2.50130e-04	
19	1.019811e-07	7.449239e-01	1.139144e-02	-2.49820e-04	
20	1.020811e-07	7.823163e-01	1.137689e-02	-2.49500e-04	
21	1.021811e-07	8.196779e-01	1.136194e-02	-2.49172e-04	
22	1.022811e-07	8.570072e-01	1.134659e-02	-2.48834e-04	
23	1.023811e-07	8.943026e-01	1.133083e-02	-2.48488e-04	
24	1.024811e-07	9.315627e-01	1.131466e-02	-2.48133e-04	
25	1.025811e-07	9.687860e-01	1.129810e-02	-2.47769e-04	
26	1.026811e-07	1.005971e+00	1.128113e-02	-2.47396e-04	
27	1.027811e-07	1.043116e+00	1.126377e-02	-2.47014e-04	
28	1.028811e-07	1.080221e+00	1.124600e-02	-2.46624e-04	
29	1.029811e-07	1.117282e+00	1.122783e-02	-2.46225e-04	
30	1.030811e-07	1.154300e+00	1.120927e-02	-2.45817e-04	
31	1.031811e-07	1.191271e+00	1.119031e-02	-2.45400e-04	
32	1.032811e-07	1.228196e+00	1.117095e-02	-2.44975e-04	
33	1.033811e-07	1.265073e+00	1.115120e-02	-2.44541e-04	
34	1.034811e-07	1.301899e+00	1.113106e-02	-2.44098e-04	
35	1.035811e-07	1.338674e+00	1.111052e-02	-2.43647e-04	
36	1.036811e-07	1.375396e+00	1.108959e-02	-2.43187e-04	
37	1.037811e-07	1.412064e+00	1.106826e-02	-2.42718e-04	
38	1.038811e-07	1.448676e+00	1.104655e-02	-2.42241e-04	
39	1.039811e-07	1.485231e+00	1.102445e-02	-2.41755e-04	
40	1.040811e-07	1.521727e+00	1.100195e-02	-2.41260e-04	
41	1.041811e-07	1.558164e+00	1.097907e-02	-2.40757e-04	
42	1.042811e-07	1.594538e+00	1.095581e-02	-2.40246e-04	
43	1.043811e-07	1.630850e+00	1.093216e-02	-2.39726e-04	
44	1.044811e-07	1.667097e+00	1.090812e-02	-2.39198e-04	
45	1.045811e-07	1.703279e+00	1.088370e-02	-2.38661e-04	
46	1.046811e-07	1.739393e+00	1.085890e-02	-2.38116e-04	
47	1.047811e-07	1.775439e+00	1.083371e-02	-2.37562e-04	
48	1.048811e-07	1.811414e+00	1.080815e-02	-2.37000e-04	
49	1.049811e-07	1.847318e+00	1.078221e-02	-2.36430e-04	
50	1.050811e-07	1.883150e+00	1.075589e-02	-2.35851e-04	
51	1.051811e-07	1.918906e+00	1.072919e-02	-2.35264e-04	
52	1.052811e-07	1.954587e+00	1.070211e-02	-2.34669e-04	
53	1.053811e-07	1.990191e+00	1.067466e-02	-2.34066e-04	
54	1.054811e-07	2.025716e+00	1.064684e-02	-2.33454e-04	

Index   time            v(1)            v(6)            i(vd)           
--------------------------------------------------------------------------------
55	1.055811e-07	2.061162e+00	1.061864e-02	-2.32834e-04	
56	1.056811e-07	2.096526e+00	1.059008e-02	-2.32206e-04	
57	1.057811e-07	2.131807e+00	1.056114e-02	-2.31570e-04	
58	1.058811e-07	2.167004e+00	1.053183e-02	-2.30925e-04	
59	1.059811e-07	2.202115e+00	1.050216e-02	-2.30273e-04	
60	1.060811e-07	2.237140e+00	1.047212e-02	-2.29613e-04	
61	1.061811e-07	2.272076e+00	1.044171e-02	-2.28944e-04	
62	1.062811e-07	2.306923e+00	1.041094e-02	-2.28267e-04	
63	1.063811e-07	2.341678e+00	1.037980e-02	-2.27583e-04	
64	1.064811e-07	2.376341e+00	1.034831e-02	-2.26890e-04	
65	1.065811e-07	2.410910e+00	1.031645e-02	-2.26190e-04	
66	1.066811e-07	2.445384e+00	1.028423e-02	-2.25482e-04	
67	1.067811e-07	2.479762e+00	1.025166e-02	-2.24765e-04	
68	1.068811e-07	2.514041e+00	1.021873e-02	-2.24041e-04	
69	1.069811e-07	2.548221e+00	1.018544e-02	-2.23309e-04	
70	1.070811e-07	2.582301e+00	1.015180e-02	-2.22570e-04	
71	1.071811e-07	2.616279e+00	1.011781e-02	-2.21822e-04	
72	1.072811e-07	2.650153e+00	1.008346e-02	-2.21067e-04	
73	1.073811e-07	2.683923e+00	1.004877e-02	-2.20304e-04	
74	1.074811e-07	2.717587e+00	1.001372e-02	-2.19534e-04	
75	1.075811e-07	2.751144e+00	9.978330e-03	-2.18755e-04	
76	1.076811e-07	2.784592e+00	9.942591e-03	-2.17970e-04	
77	1.077811e-07	2.817930e+00	9.906507e-03	-2.17176e-04	
78	1.078811e-07	2.851157e+00	9.870080e-03	-2.16375e-04	
79	1.079811e-07	2.884271e+00	9.833311e-03	-2.15567e-04	
80	1.080811e-07	2.917271e+00	9.796201e-03	-2.14751e-04	
81	1.081811e-07	2.950156e+00	9.758751e-03	-2.13927e-04	
82	1.082811e-07	2.982925e+00	9.720964e-03	-2.13096e-04	
83	1.083811e-07	3.015576e+00	9.682840e-03	-2.12258e-04	
84	1.084811e-07	3.048108e+00	9.644381e-03	-2.11412e-04	
85	1.085811e-07	3.080520e+00	9.605588e-03	-2.10559e-04	
86	1.086811e-07	3.112810e+00	9.566463e-03	-2.09699e-04	
87	1.087811e-07	3.144977e+00	9.527008e-03	-2.08831e-04	
88	1.088811e-07	3.177020e+00	9.487223e-03	-2.07956e-04	
89	1.089811e-07	3.208937e+00	9.447110e-03	-2.07074e-04	
90	1.090811e-07	3.240728e+00	9.406671e-03	-2.06185e-04	
91	1.091811e-07	3.272391e+00	9.365907e-03	-2.05288e-04	
92	1.092811e-07	3.303925e+00	9.324820e-03	-2.04385e-04	
93	1.093811e-07	3.335328e+00	9.283411e-03	-2.03474e-04	
94	1.094811e-07	3.366600e+00	9.241682e-03	-2.02556e-04	
95	1.095811e-07	3.397738e+00	9.199634e-03	-2.01632e-04	
96	1.096811e-07	3.428743e+00	9.157268e-03	-2.00700e-04	
97	1.097811e-07	3.459612e+00	9.114588e-03	-1.99761e-04	
98	1.098811e-07	3.490345e+00	9.071593e-03	-1.98816e-04	
99	1.099811e-07	3.520940e+00	9.028285e-03	-1.97864e-04	
100	1.100811e-07	3.551396e+00	8.984667e-03	-1.96904e-04	
101	1.101811e-07	3.581711e+00	8.940739e-03	-1.95938e-04	
102	1.102811e-07	3.611885e+00	8.896504e-03	-1.94965e-04	
103	1.103811e-07	3.641917e+00	8.851963e-03	-1.93986e-04	
104	1.104811e-07	3.671805e+00	8.807117e-03	-1.93000e-04	
105	1.105811e-07	3.701548e+00	8.761968e-03	-1.92007e-04	
106	1.106811e-07	3.731145e+00	8.716518e-03	-1.91007e-04	
107	1.107811e-07	3.760594e+00	8.670768e-03	-1.90001e-04	
108	1.108811e-07	3.789895e+00	8.624721e-03	-1.88988e-04	
109	1.109811e-07	3.819047e+00	8.578377e-03	-1.87969e-04	
110	1.110811e-07	3.848047e+00	8.531738e-03	-1.86943e-04	
111	1.111811e-07	3.876896e+00	8.484807e-03	-1.85911e-04	
112	1.112811e-07	3.905592e+00	8.437584e-03	-1.84873e-04	

Index   time            v(1)            v(6)            i(vd)           
--------------------------------------------------------------------------------
113	1.113811e-07	3.934133e+00	8.390072e-03	-1.83828e-04	
114	1.114811e-07	3.962519e+00	8.342272e-03	-1.82776e-04	
115	1.115811e-07	3.990749e+00	8.294186e-03	-1.81719e-04	
116	1.116811e-07	4.018821e+00	8.245815e-03	-1.80655e-04	
117	1.117811e-07	4.046735e+00	8.197162e-03	-1.79585e-04	
118	1.118811e-07	4.074488e+00	8.148227e-03	-1.78509e-04	
119	1.119811e-07	4.102081e+00	8.099014e-03	-1.77426e-04	
120	1.120811e-07	4.129512e+00	8.049523e-03	-1.76338e-04	
121	1.121811e-07	4.156780e+00	7.999756e-03	-1.75243e-04	
122	1.122811e-07	4.183884e+00	7.949716e-03	-1.74143e-04	
123	1.123811e-07	4.210823e+00	7.899403e-03	-1.73036e-04	
124	1.124811e-07	4.237595e+00	7.848820e-03	-1.71924e-04	
125	1.125811e-07	4.264200e+00	7.797968e-03	-1.70805e-04	
126	1.126811e-07	4.290637e+00	7.746850e-03	-1.69681e-04	
127	1.127811e-07	4.316904e+00	7.695467e-03	-1.68551e-04	
128	1.128811e-07	4.343001e+00	7.643820e-03	-1.67415e-04	
129	1.129811e-07	4.368927e+00	7.591913e-03	-1.66273e-04	
130	1.130811e-07	4.394680e+00	7.539745e-03	-1.65126e-04	
131	1.131811e-07	4.420260e+00	7.487321e-03	-1.63973e-04	
132	1.132811e-07	4.445665e+00	7.434640e-03	-1.62814e-04	
133	1.133811e-07	4.470894e+00	7.381705e-03	-1.61650e-04	
134	1.134811e-07	4.495947e+00	7.328519e-03	-1.60480e-04	
135	1.135811e-07	4.520823e+00	7.275082e-03	-1.59305e-04	
136	1.136811e-07	4.545520e+00	7.221397e-03	-1.58124e-04	
137	1.137811e-07	4.570038e+00	7.167465e-03	-1.56938e-04	
138	1.138811e-07	4.594375e+00	7.113289e-03	-1.55746e-04	
139	1.139811e-07	4.618531e+00	7.058871e-03	-1.54549e-04	
140	1.140811e-07	4.642504e+00	7.004211e-03	-1.53347e-04	
141	1.141811e-07	4.666294e+00	6.949313e-03	-1.52140e-04	
142	1.142811e-07	4.689900e+00	6.894178e-03	-1.50927e-04	
143	1.143811e-07	4.713321e+00	6.838808e-03	-1.49709e-04	
144	1.144811e-07	4.736556e+00	6.783204e-03	-1.48486e-04	
145	1.145811e-07	4.759604e+00	6.727370e-03	-1.47258e-04	
146	1.146811e-07	4.782464e+00	6.671307e-03	-1.46025e-04	
147	1.147811e-07	4.805135e+00	6.615016e-03	-1.44787e-04	
148	1.148811e-07	4.827616e+00	6.558501e-03	-1.43544e-04	
149	1.149811e-07	4.849907e+00	6.501762e-03	-1.42296e-04	
150	1.150811e-07	4.872006e+00	6.444801e-03	-1.41043e-04	
151	1.151811e-07	4.893913e+00	6.387622e-03	-1.39785e-04	
152	1.152811e-07	4.915627e+00	6.330225e-03	-1.38523e-04	
153	1.153811e-07	4.937147e+00	6.272613e-03	-1.37255e-04	
154	1.154811e-07	4.958472e+00	6.214787e-03	-1.35984e-04	
155	1.155811e-07	4.979601e+00	6.156750e-03	-1.34707e-04	
156	1.156811e-07	5.000533e+00	6.098504e-03	-1.33426e-04	
157	1.157811e-07	5.021268e+00	6.040051e-03	-1.32140e-04	
158	1.158811e-07	5.041805e+00	5.981392e-03	-1.30850e-04	
159	1.159811e-07	5.062143e+00	5.922531e-03	-1.29555e-04	
160	1.160811e-07	5.082281e+00	5.863468e-03	-1.28256e-04	
161	1.161811e-07	5.102218e+00	5.804206e-03	-1.26952e-04	
162	1.162811e-07	5.121954e+00	5.744747e-03	-1.25645e-04	
163	1.163811e-07	5.141488e+00	5.685093e-03	-1.24332e-04	
164	1.164811e-07	5.160818e+00	5.625246e-03	-1.23016e-04	
165	1.165811e-07	5.179945e+00	5.565208e-03	-1.21695e-04	
166	1.166811e-07	5.198868e+00	5.504981e-03	-1.20371e-04	
167	1.167811e-07	5.217585e+00	5.444568e-03	-1.19042e-04	
168	1.168811e-07	5.236096e+00	5.383970e-03	-1.17709e-04	
169	1.169811e-07	5.254401e+00	5.323189e-03	-1.16372e-04	
170	1.170811e-07	5.272498e+00	5.262228e-03	-1.15031e-04	

Index   time            v(1)            v(6)            i(vd)           
--------------------------------------------------------------------------------
171	1.171811e-07	5.290387e+00	5.201089e-03	-1.13686e-04	
172	1.172811e-07	5.308067e+00	5.139773e-03	-1.12337e-04	
173	1.173811e-07	5.325538e+00	5.078284e-03	-1.10985e-04	
174	1.174811e-07	5.342798e+00	5.016622e-03	-1.09628e-04	
175	1.175811e-07	5.359847e+00	4.954790e-03	-1.08268e-04	
176	1.176811e-07	5.376685e+00	4.892791e-03	-1.06905e-04	
177	1.177811e-07	5.393311e+00	4.830626e-03	-1.05537e-04	
178	1.178811e-07	5.409723e+00	4.768298e-03	-1.04166e-04	
179	1.179811e-07	5.425922e+00	4.705808e-03	-1.02791e-04	
180	1.180811e-07	5.441907e+00	4.643159e-03	-1.01413e-04	
181	1.181811e-07	5.457677e+00	4.580353e-03	-1.00032e-04	
182	1.182811e-07	5.473231e+00	4.517392e-03	-9.86469e-05	
183	1.183811e-07	5.488570e+00	4.454279e-03	-9.72585e-05	
184	1.184811e-07	5.503692e+00	4.391015e-03	-9.58669e-05	
185	1.185811e-07	5.518596e+00	4.327602e-03	-9.44720e-05	
186	1.186811e-07	5.533283e+00	4.264043e-03	-9.30739e-05	
187	1.187811e-07	5.547751e+00	4.200341e-03	-9.16726e-05	
188	1.188811e-07	5.562000e+00	4.136496e-03	-9.02682e-05	
189	1.189811e-07	5.576030e+00	4.072512e-03	-8.88607e-05	
190	1.190811e-07	5.589839e+00	4.008390e-03	-8.74502e-05	
191	1.191811e-07	5.603428e+00	3.944133e-03	-8.60367e-05	
192	1.192811e-07	5.616796e+00	3.879743e-03	-8.46203e-05	
193	1.193811e-07	5.629941e+00	3.815223e-03	-8.32010e-05	
194	1.194811e-07	5.642865e+00	3.750573e-03	-8.17788e-05	
195	1.195811e-07	5.655566e+00	3.685797e-03	-8.03539e-05	
196	1.196811e-07	5.668043e+00	3.620897e-03	-7.89263e-05	
197	1.197811e-07	5.680297e+00	3.555875e-03	-7.74959e-05	
198	1.198811e-07	5.692327e+00	3.490733e-03	-7.60629e-05	
199	1.199811e-07	5.704131e+00	3.425474e-03	-7.46274e-05	
200	1.200811e-07	5.715711e+00	3.360099e-03	-7.31892e-05	
201	1.201811e-07	5.727065e+00	3.294611e-03	-7.17486e-05	
202	1.202811e-07	5.738193e+00	3.229012e-03	-7.03056e-05	
203	1.203811e-07	5.749094e+00	3.163305e-03	-6.88602e-05	
204	1.204811e-07	5.759768e+00	3.097491e-03	-6.74124e-05	
205	1.205811e-07	5.770215e+00	3.031574e-03	-6.59623e-05	
206	1.206811e-07	5.780435e+00	2.965554e-03	-6.45100e-05	
207	1.207811e-07	5.790426e+00	2.899435e-03	-6.30555e-05	
208	1.208811e-07	5.800188e+00	2.833218e-03	-6.15989e-05	
209	1.209811e-07	5.809721e+00	2.766907e-03	-6.01401e-05	
210	1.210811e-07	5.819025e+00	2.700502e-03	-5.86793e-05	
211	1.211811e-07	5.828100e+00	2.634007e-03	-5.72166e-05	
212	1.212811e-07	5.836944e+00	2.567424e-03	-5.57518e-05	
213	1.213811e-07	5.845558e+00	2.500755e-03	-5.42852e-05	
214	1.214811e-07	5.853941e+00	2.434002e-03	-5.28167e-05	
215	1.215811e-07	5.862093e+00	2.367167e-03	-5.13465e-05	
216	1.216811e-07	5.870013e+00	2.300253e-03	-4.98745e-05	
217	1.217811e-07	5.877702e+00	2.233263e-03	-4.84008e-05	
218	1.218811e-07	5.885159e+00	2.166197e-03	-4.69254e-05	
219	1.219811e-07	5.892383e+00	2.099060e-03	-4.54485e-05	
220	1.220811e-07	5.899375e+00	2.031852e-03	-4.39700e-05	
221	1.221811e-07	5.906134e+00	1.964577e-03	-4.24900e-05	
222	1.222811e-07	5.912659e+00	1.897236e-03	-4.10086e-05	
223	1.223811e-07	5.918952e+00	1.829832e-03	-3.95258e-05	
224	1.224811e-07	5.925010e+00	1.762367e-03	-3.80416e-05	
225	1.225811e-07	5.930835e+00	1.694843e-03	-3.65562e-05	
226	1.226811e-07	5.936426e+00	1.627263e-03	-3.50695e-05	
227	1.227811e-07	5.941782e+00	1.559630e-03	-3.35816e-05	
228	1.228811e-07	5.946903e+00	1.491944e-03	-3.20926e-05	

Index   time            v(1)            v(6)            i(vd)           
--------------------------------------------------------------------------------
229	1.229811e-07	5.951790e+00	1.424209e-03	-3.06025e-05	
230	1.230811e-07	5.956442e+00	1.356427e-03	-2.91113e-05	
231	1.231811e-07	5.960859e+00	1.288600e-03	-2.76192e-05	
232	1.232811e-07	5.965040e+00	1.220731e-03	-2.61261e-05	
233	1.233811e-07	5.968986e+00	1.152822e-03	-2.46321e-05	
234	1.234811e-07	5.972696e+00	1.084875e-03	-2.31373e-05	
235	1.235811e-07	5.976171e+00	1.016892e-03	-2.16418e-05	
236	1.236811e-07	5.979410e+00	9.488760e-04	-2.01455e-05	
237	1.237811e-07	5.982412e+00	8.808291e-04	-1.86485e-05	
238	1.238811e-07	5.985178e+00	8.127538e-04	-1.71508e-05	
239	1.239811e-07	5.987708e+00	7.446520e-04	-1.56526e-05	
240	1.240811e-07	5.990002e+00	6.765263e-04	-1.41539e-05	
241	1.241811e-07	5.992059e+00	6.083791e-04	-1.26547e-05	
242	1.242811e-07	5.993880e+00	5.402125e-04	-1.11550e-05	
243	1.243811e-07	5.995464e+00	4.720289e-04	-9.65502e-06	
244	1.244811e-07	5.996811e+00	4.038306e-04	-8.15468e-06	
245	1.245811e-07	5.997922e+00	3.356199e-04	-6.65405e-06	
246	1.246811e-07	5.998795e+00	2.673991e-04	-5.15321e-06	
247	1.247811e-07	5.999432e+00	1.991707e-04	-3.65220e-06	
248	1.248811e-07	5.999833e+00	1.309369e-04	-2.15106e-06	
249	1.249811e-07	5.999996e+00	6.269998e-05	-6.49850e-07	
250	1.250811e-07	5.999922e+00	-5.53768e-06	8.513781e-07	
251	1.251811e-07	5.999612e+00	-7.37738e-05	2.352574e-06	
252	1.252811e-07	5.999064e+00	-1.42006e-04	3.853688e-06	
253	1.253811e-07	5.998280e+00	-2.10232e-04	5.354668e-06	
254	1.254811e-07	5.997259e+00	-2.78450e-04	6.855463e-06	
255	1.255811e-07	5.996001e+00	-3.46656e-04	8.356023e-06	
256	1.256811e-07	5.994507e+00	-4.14850e-04	9.856295e-06	
257	1.257811e-07	5.992776e+00	-4.83028e-04	1.135623e-05	
258	1.258811e-07	5.990808e+00	-5.51188e-04	1.285578e-05	
259	1.259811e-07	5.988604e+00	-6.19328e-04	1.435488e-05	
260	1.260811e-07	5.986163e+00	-6.87446e-04	1.585350e-05	
261	1.261811e-07	5.983486e+00	-7.55539e-04	1.735157e-05	
262	1.262811e-07	5.980573e+00	-8.23605e-04	1.884905e-05	
263	1.263811e-07	5.977424e+00	-8.91641e-04	2.034589e-05	
264	1.264811e-07	5.974039e+00	-9.59646e-04	2.184203e-05	
265	1.265811e-07	5.970418e+00	-1.02762e-03	2.333743e-05	
266	1.266811e-07	5.966561e+00	-1.09555e-03	2.483203e-05	
267	1.267811e-07	5.962468e+00	-1.16345e-03	2.632579e-05	
268	1.268811e-07	5.958141e+00	-1.23130e-03	2.781864e-05	
269	1.269811e-07	5.953578e+00	-1.29911e-03	2.931055e-05	
270	1.270811e-07	5.948780e+00	-1.36688e-03	3.080146e-05	
271	1.271811e-07	5.943747e+00	-1.43460e-03	3.229132e-05	
272	1.272811e-07	5.938479e+00	-1.50227e-03	3.378007e-05	
273	1.273811e-07	5.932978e+00	-1.56988e-03	3.526768e-05	
274	1.274811e-07	5.927241e+00	-1.63744e-03	3.675408e-05	
275	1.275811e-07	5.921271e+00	-1.70495e-03	3.823923e-05	
276	1.276811e-07	5.915067e+00	-1.77239e-03	3.972308e-05	
277	1.277811e-07	5.908630e+00	-1.83977e-03	4.120557e-05	
278	1.278811e-07	5.901959e+00	-1.90709e-03	4.268665e-05	
279	1.279811e-07	5.895056e+00	-1.97434e-03	4.416629e-05	
280	1.280811e-07	5.887919e+00	-2.04153e-03	4.564441e-05	
281	1.281811e-07	5.880550e+00	-2.10864e-03	4.712099e-05	
282	1.282811e-07	5.872949e+00	-2.17568e-03	4.859595e-05	
283	1.283811e-07	5.865116e+00	-2.24265e-03	5.006926e-05	
284	1.284811e-07	5.857052e+00	-2.30953e-03	5.154086e-05	
285	1.285811e-07	5.848756e+00	-2.37634e-03	5.301071e-05	
286	1.286811e-07	5.840230e+00	-2.44307e-03	5.447875e-05	

Index   time            v(1)            v(6)            i(vd)           
--------------------------------------------------------------------------------
287	1.287811e-07	5.831473e+00	-2.50971e-03	5.594493e-05	
288	1.288811e-07	5.822486e+00	-2.57626e-03	5.740921e-05	
289	1.289811e-07	5.813268e+00	-2.64272e-03	5.887153e-05	
290	1.290811e-07	5.803822e+00	-2.70910e-03	6.033184e-05	
291	1.291811e-07	5.794146e+00	-2.77538e-03	6.179010e-05	
292	1.292811e-07	5.784241e+00	-2.84156e-03	6.324625e-05	
293	1.293811e-07	5.774108e+00	-2.90764e-03	6.470024e-05	
294	1.294811e-07	5.763748e+00	-2.97363e-03	6.615203e-05	
295	1.295811e-07	5.753159e+00	-3.03951e-03	6.760157e-05	
296	1.296811e-07	5.742344e+00	-3.10529e-03	6.904880e-05	
297	1.297811e-07	5.731301e+00	-3.17096e-03	7.049367e-05	
298	1.298811e-07	5.720033e+00	-3.23652e-03	7.193615e-05	
299	1.299811e-07	5.708539e+00	-3.30197e-03	7.337617e-05	
300	1.300811e-07	5.696819e+00	-3.36731e-03	7.481369e-05	
301	1.301811e-07	5.684875e+00	-3.43253e-03	7.624866e-05	
302	1.302811e-07	5.672706e+00	-3.49763e-03	7.768102e-05	
303	1.303811e-07	5.660313e+00	-3.56261e-03	7.911074e-05	
304	1.304811e-07	5.647696e+00	-3.62747e-03	8.053777e-05	
305	1.305811e-07	5.634857e+00	-3.69220e-03	8.196204e-05	
306	1.306811e-07	5.621795e+00	-3.75681e-03	8.338352e-05	
307	1.307811e-07	5.608511e+00	-3.82128e-03	8.480216e-05	
308	1.308811e-07	5.595006e+00	-3.88563e-03	8.621790e-05	
309	1.309811e-07	5.581280e+00	-3.94984e-03	8.763070e-05	
310	1.310811e-07	5.567334e+00	-4.01391e-03	8.904052e-05	
311	1.311811e-07	5.553168e+00	-4.07785e-03	9.044729e-05	
312	1.312811e-07	5.538782e+00	-4.14165e-03	9.185098e-05	
313	1.313811e-07	5.524178e+00	-4.20530e-03	9.325154e-05	
314	1.314811e-07	5.509356e+00	-4.26881e-03	9.464891e-05	
315	1.315811e-07	5.494316e+00	-4.33217e-03	9.604306e-05	
316	1.316811e-07	5.479060e+00	-4.39539e-03	9.743392e-05	
317	1.317811e-07	5.463587e+00	-4.45845e-03	9.882147e-05	
318	1.318811e-07	5.447898e+00	-4.52136e-03	1.002056e-04	
319	1.319811e-07	5.431995e+00	-4.58411e-03	1.015864e-04	
320	1.320811e-07	5.415877e+00	-4.64670e-03	1.029637e-04	
321	1.321811e-07	5.399545e+00	-4.70914e-03	1.043374e-04	
322	1.322811e-07	5.383000e+00	-4.77141e-03	1.057076e-04	
323	1.323811e-07	5.366242e+00	-4.83352e-03	1.070742e-04	
324	1.324811e-07	5.349273e+00	-4.89547e-03	1.084372e-04	
325	1.325811e-07	5.332092e+00	-4.95724e-03	1.097964e-04	
326	1.326811e-07	5.314701e+00	-5.01884e-03	1.111519e-04	
327	1.327811e-07	5.297100e+00	-5.08027e-03	1.125036e-04	
328	1.328811e-07	5.279290e+00	-5.14153e-03	1.138514e-04	
329	1.329811e-07	5.261272e+00	-5.20261e-03	1.151954e-04	
330	1.330811e-07	5.243046e+00	-5.26351e-03	1.165354e-04	
331	1.331811e-07	5.224613e+00	-5.32423e-03	1.178714e-04	
