            * rf switch using in914 junction diodes with vbias = 1v
            Transient Analysis  Sun Aug 28 21:21:57  2022
--------------------------------------------------------------------------------
Index   time            v(1)            v(6)            i(vd)           
--------------------------------------------------------------------------------
0	1.000280e-07	1.055575e-02	3.787771e-01	-7.82438e-03	
1	1.001280e-07	4.825434e-02	4.155648e-01	-8.63373e-03	
2	1.002280e-07	8.595104e-02	4.523386e-01	-9.44277e-03	
3	1.003280e-07	1.236443e-01	4.890967e-01	-1.02515e-02	
4	1.004280e-07	1.613328e-01	5.258375e-01	-1.10598e-02	
5	1.005280e-07	1.990148e-01	5.625591e-01	-1.18677e-02	
6	1.006280e-07	2.366890e-01	5.992598e-01	-1.26751e-02	
7	1.007280e-07	2.743538e-01	6.359378e-01	-1.34821e-02	
8	1.008280e-07	3.120079e-01	6.725913e-01	-1.42885e-02	
9	1.009280e-07	3.496496e-01	7.092185e-01	-1.50943e-02	
10	1.010280e-07	3.872775e-01	7.458177e-01	-1.58995e-02	
11	1.011280e-07	4.248901e-01	7.823869e-01	-1.67041e-02	
12	1.012280e-07	4.624859e-01	8.189244e-01	-1.75079e-02	
13	1.013280e-07	5.000635e-01	8.554282e-01	-1.83110e-02	
14	1.014280e-07	5.376213e-01	8.918966e-01	-1.91134e-02	
15	1.015280e-07	5.751579e-01	9.283275e-01	-1.99149e-02	
16	1.016280e-07	6.126718e-01	9.647191e-01	-2.07155e-02	
17	1.017280e-07	6.501615e-01	1.001069e+00	-2.15153e-02	
18	1.018280e-07	6.876256e-01	1.037377e+00	-2.23141e-02	
19	1.019280e-07	7.250625e-01	1.073639e+00	-2.31119e-02	
20	1.020280e-07	7.624707e-01	1.109853e+00	-2.39087e-02	
21	1.021280e-07	7.998489e-01	1.146019e+00	-2.47043e-02	
22	1.022280e-07	8.371955e-01	1.182133e+00	-2.54989e-02	
23	1.023280e-07	8.745091e-01	1.218194e+00	-2.62923e-02	
24	1.024280e-07	9.117881e-01	1.254199e+00	-2.70844e-02	
25	1.025280e-07	9.490311e-01	1.290146e+00	-2.78753e-02	
26	1.026280e-07	9.862367e-01	1.326034e+00	-2.86649e-02	
27	1.027280e-07	1.023403e+00	1.361859e+00	-2.94531e-02	
28	1.028280e-07	1.060530e+00	1.397620e+00	-3.02399e-02	
29	1.029280e-07	1.097614e+00	1.433314e+00	-3.10253e-02	
30	1.030280e-07	1.134655e+00	1.468939e+00	-3.18091e-02	
31	1.031280e-07	1.171651e+00	1.504492e+00	-3.25913e-02	
32	1.032280e-07	1.208601e+00	1.539971e+00	-3.33719e-02	
33	1.033280e-07	1.245503e+00	1.575373e+00	-3.41508e-02	
34	1.034280e-07	1.282356e+00	1.610695e+00	-3.49279e-02	
35	1.035280e-07	1.319159e+00	1.645936e+00	-3.57033e-02	
36	1.036280e-07	1.355909e+00	1.681091e+00	-3.64768e-02	
37	1.037280e-07	1.392606e+00	1.716158e+00	-3.72483e-02	
38	1.038280e-07	1.429248e+00	1.751134e+00	-3.80179e-02	
39	1.039280e-07	1.465834e+00	1.786015e+00	-3.87853e-02	
40	1.040280e-07	1.502361e+00	1.820799e+00	-3.95506e-02	
41	1.041280e-07	1.538829e+00	1.855481e+00	-4.03137e-02	
42	1.042280e-07	1.575237e+00	1.890059e+00	-4.10745e-02	
43	1.043280e-07	1.611582e+00	1.924528e+00	-4.18329e-02	
44	1.044280e-07	1.647864e+00	1.958884e+00	-4.25888e-02	
45	1.045280e-07	1.684081e+00	1.993123e+00	-4.33421e-02	
46	1.046280e-07	1.720231e+00	2.027240e+00	-4.40928e-02	
47	1.047280e-07	1.756313e+00	2.061231e+00	-4.48407e-02	
48	1.048280e-07	1.792326e+00	2.095090e+00	-4.55857e-02	
49	1.049280e-07	1.828268e+00	2.128811e+00	-4.63276e-02	
50	1.050280e-07	1.864138e+00	2.162389e+00	-4.70664e-02	
51	1.051280e-07	1.899935e+00	2.195816e+00	-4.78019e-02	
52	1.052280e-07	1.935656e+00	2.229085e+00	-4.85339e-02	
53	1.053280e-07	1.971301e+00	2.262189e+00	-4.92623e-02	
54	1.054280e-07	2.006868e+00	2.295118e+00	-4.99868e-02	

Index   time            v(1)            v(6)            i(vd)           
--------------------------------------------------------------------------------
55	1.055280e-07	2.042356e+00	2.327863e+00	-5.07073e-02	
56	1.056280e-07	2.077763e+00	2.360412e+00	-5.14235e-02	
57	1.057280e-07	2.113089e+00	2.392753e+00	-5.21351e-02	
58	1.058280e-07	2.148331e+00	2.424872e+00	-5.28418e-02	
59	1.059280e-07	2.183488e+00	2.456752e+00	-5.35432e-02	
60	1.060280e-07	2.218558e+00	2.488374e+00	-5.42390e-02	
61	1.061280e-07	2.253542e+00	2.519716e+00	-5.49286e-02	
62	1.062280e-07	2.288436e+00	2.550751e+00	-5.56115e-02	
63	1.063280e-07	2.323240e+00	2.581448e+00	-5.62869e-02	
64	1.064280e-07	2.357952e+00	2.611767e+00	-5.69541e-02	
65	1.065280e-07	2.392571e+00	2.641661e+00	-5.76118e-02	
66	1.066280e-07	2.427096e+00	2.671069e+00	-5.82589e-02	
67	1.067280e-07	2.461525e+00	2.699911e+00	-5.88936e-02	
68	1.068280e-07	2.495856e+00	2.728085e+00	-5.95135e-02	
69	1.069280e-07	2.530090e+00	2.755448e+00	-6.01156e-02	
70	1.070280e-07	2.564223e+00	2.781797e+00	-6.06954e-02	
71	1.071280e-07	2.598255e+00	2.806832e+00	-6.12463e-02	
72	1.072280e-07	2.632184e+00	2.830076e+00	-6.17577e-02	
73	1.073280e-07	2.666010e+00	2.850705e+00	-6.22117e-02	
74	1.074280e-07	2.699730e+00	2.867119e+00	-6.25729e-02	
75	1.075280e-07	2.733344e+00	2.875559e+00	-6.27587e-02	
76	1.076280e-07	2.766850e+00	2.858540e+00	-6.23844e-02	
77	1.077280e-07	2.800246e+00	1.410396e+00	-3.05253e-02	
78	1.078280e-07	2.833532e+00	-2.50045e-01	6.004363e-03	
79	1.079006e-07	2.857628e+00	5.002617e-02	-5.97201e-04	
80	1.079653e-07	2.879036e+00	3.354474e-02	-2.34611e-04	
81	1.080349e-07	2.902037e+00	3.349447e-02	-2.33506e-04	
82	1.081349e-07	2.934975e+00	3.345034e-02	-2.32536e-04	
83	1.082349e-07	2.967798e+00	3.340289e-02	-2.31494e-04	
84	1.083349e-07	3.000504e+00	3.335787e-02	-2.30505e-04	
85	1.084349e-07	3.033091e+00	3.331201e-02	-2.29497e-04	
86	1.085349e-07	3.065558e+00	3.326600e-02	-2.28486e-04	
87	1.086349e-07	3.097904e+00	3.321970e-02	-2.27469e-04	
88	1.087349e-07	3.130128e+00	3.317313e-02	-2.26446e-04	
89	1.088349e-07	3.162229e+00	3.312630e-02	-2.25417e-04	
90	1.089349e-07	3.194205e+00	3.307920e-02	-2.24382e-04	
91	1.090349e-07	3.226054e+00	3.303183e-02	-2.23341e-04	
92	1.091349e-07	3.257776e+00	3.298420e-02	-2.22295e-04	
93	1.092349e-07	3.289370e+00	3.293630e-02	-2.21242e-04	
94	1.093349e-07	3.320834e+00	3.288814e-02	-2.20184e-04	
95	1.094349e-07	3.352166e+00	3.283971e-02	-2.19120e-04	
96	1.095349e-07	3.383367e+00	3.279101e-02	-2.18050e-04	
97	1.096349e-07	3.414433e+00	3.274205e-02	-2.16974e-04	
98	1.097349e-07	3.445365e+00	3.269283e-02	-2.15892e-04	
99	1.098349e-07	3.476161e+00	3.264335e-02	-2.14805e-04	
100	1.099349e-07	3.506820e+00	3.259360e-02	-2.13712e-04	
101	1.100349e-07	3.537340e+00	3.254359e-02	-2.12613e-04	
102	1.101349e-07	3.567720e+00	3.249332e-02	-2.11508e-04	
103	1.102349e-07	3.597960e+00	3.244279e-02	-2.10398e-04	
104	1.103349e-07	3.628058e+00	3.239200e-02	-2.09282e-04	
105	1.104349e-07	3.658012e+00	3.234095e-02	-2.08160e-04	
106	1.105349e-07	3.687822e+00	3.228965e-02	-2.07033e-04	
107	1.106349e-07	3.717487e+00	3.223808e-02	-2.05900e-04	
108	1.107349e-07	3.747004e+00	3.218626e-02	-2.04761e-04	
109	1.108349e-07	3.776374e+00	3.213419e-02	-2.03617e-04	
110	1.109349e-07	3.805595e+00	3.208186e-02	-2.02467e-04	
111	1.110349e-07	3.834665e+00	3.202928e-02	-2.01311e-04	
112	1.111349e-07	3.863584e+00	3.197645e-02	-2.00150e-04	

Index   time            v(1)            v(6)            i(vd)           
--------------------------------------------------------------------------------
113	1.112349e-07	3.892351e+00	3.192336e-02	-1.98983e-04	
114	1.113349e-07	3.920964e+00	3.187003e-02	-1.97811e-04	
115	1.114349e-07	3.949422e+00	3.181644e-02	-1.96634e-04	
116	1.115349e-07	3.977724e+00	3.176261e-02	-1.95451e-04	
117	1.116349e-07	4.005869e+00	3.170853e-02	-1.94262e-04	
118	1.117349e-07	4.033856e+00	3.165420e-02	-1.93068e-04	
119	1.118349e-07	4.061684e+00	3.159963e-02	-1.91869e-04	
120	1.119349e-07	4.089351e+00	3.154481e-02	-1.90664e-04	
121	1.120349e-07	4.116857e+00	3.148975e-02	-1.89454e-04	
122	1.121349e-07	4.144201e+00	3.143445e-02	-1.88239e-04	
123	1.122349e-07	4.171380e+00	3.137891e-02	-1.87018e-04	
124	1.123349e-07	4.198395e+00	3.132313e-02	-1.85792e-04	
125	1.124349e-07	4.225245e+00	3.126711e-02	-1.84561e-04	
126	1.125349e-07	4.251927e+00	3.121086e-02	-1.83325e-04	
127	1.126349e-07	4.278442e+00	3.115437e-02	-1.82083e-04	
128	1.127349e-07	4.304788e+00	3.109764e-02	-1.80837e-04	
129	1.128349e-07	4.330964e+00	3.104069e-02	-1.79585e-04	
130	1.129349e-07	4.356969e+00	3.098350e-02	-1.78328e-04	
131	1.130349e-07	4.382802e+00	3.092608e-02	-1.77066e-04	
132	1.131349e-07	4.408461e+00	3.086843e-02	-1.75799e-04	
133	1.132349e-07	4.433947e+00	3.081056e-02	-1.74527e-04	
134	1.133349e-07	4.459258e+00	3.075246e-02	-1.73250e-04	
135	1.134349e-07	4.484393e+00	3.069413e-02	-1.71968e-04	
136	1.135349e-07	4.509350e+00	3.063558e-02	-1.70681e-04	
137	1.136349e-07	4.534130e+00	3.057681e-02	-1.69389e-04	
138	1.137349e-07	4.558731e+00	3.051782e-02	-1.68093e-04	
139	1.138349e-07	4.583151e+00	3.045861e-02	-1.66791e-04	
140	1.139349e-07	4.607391e+00	3.039918e-02	-1.65485e-04	
141	1.140349e-07	4.631449e+00	3.033954e-02	-1.64174e-04	
142	1.141349e-07	4.655324e+00	3.027968e-02	-1.62859e-04	
143	1.142349e-07	4.679015e+00	3.021961e-02	-1.61538e-04	
144	1.143349e-07	4.702522e+00	3.015933e-02	-1.60213e-04	
145	1.144349e-07	4.725843e+00	3.009883e-02	-1.58884e-04	
146	1.145349e-07	4.748977e+00	3.003813e-02	-1.57549e-04	
147	1.146349e-07	4.771924e+00	2.997722e-02	-1.56211e-04	
148	1.147349e-07	4.794682e+00	2.991611e-02	-1.54867e-04	
149	1.148349e-07	4.817252e+00	2.985479e-02	-1.53520e-04	
150	1.149349e-07	4.839631e+00	2.979328e-02	-1.52167e-04	
151	1.150349e-07	4.861818e+00	2.973156e-02	-1.50811e-04	
152	1.151349e-07	4.883814e+00	2.966964e-02	-1.49450e-04	
153	1.152349e-07	4.905618e+00	2.960752e-02	-1.48084e-04	
154	1.153349e-07	4.927227e+00	2.954521e-02	-1.46715e-04	
155	1.154349e-07	4.948642e+00	2.948271e-02	-1.45341e-04	
156	1.155349e-07	4.969862e+00	2.942001e-02	-1.43963e-04	
157	1.156349e-07	4.990885e+00	2.935713e-02	-1.42580e-04	
158	1.157349e-07	5.011712e+00	2.929405e-02	-1.41194e-04	
159	1.158349e-07	5.032340e+00	2.923079e-02	-1.39803e-04	
160	1.159349e-07	5.052770e+00	2.916734e-02	-1.38409e-04	
161	1.160349e-07	5.073000e+00	2.910371e-02	-1.37010e-04	
162	1.161349e-07	5.093030e+00	2.903990e-02	-1.35607e-04	
163	1.162349e-07	5.112860e+00	2.897590e-02	-1.34200e-04	
164	1.163349e-07	5.132487e+00	2.891173e-02	-1.32790e-04	
165	1.164349e-07	5.151911e+00	2.884738e-02	-1.31375e-04	
166	1.165349e-07	5.171133e+00	2.878286e-02	-1.29957e-04	
167	1.166349e-07	5.190150e+00	2.871816e-02	-1.28535e-04	
168	1.167349e-07	5.208962e+00	2.865330e-02	-1.27109e-04	
169	1.168349e-07	5.227568e+00	2.858826e-02	-1.25679e-04	
170	1.169349e-07	5.245968e+00	2.852306e-02	-1.24246e-04	

Index   time            v(1)            v(6)            i(vd)           
--------------------------------------------------------------------------------
171	1.170349e-07	5.264161e+00	2.845769e-02	-1.22809e-04	
172	1.171349e-07	5.282147e+00	2.839215e-02	-1.21368e-04	
173	1.172349e-07	5.299923e+00	2.832646e-02	-1.19924e-04	
174	1.173349e-07	5.317491e+00	2.826060e-02	-1.18476e-04	
175	1.174349e-07	5.334848e+00	2.819459e-02	-1.17025e-04	
176	1.175349e-07	5.351995e+00	2.812841e-02	-1.15570e-04	
177	1.176349e-07	5.368931e+00	2.806209e-02	-1.14112e-04	
178	1.177349e-07	5.385655e+00	2.799561e-02	-1.12651e-04	
179	1.178349e-07	5.402166e+00	2.792898e-02	-1.11186e-04	
180	1.179349e-07	5.418463e+00	2.786220e-02	-1.09718e-04	
181	1.180349e-07	5.434547e+00	2.779528e-02	-1.08247e-04	
182	1.181349e-07	5.450417e+00	2.772821e-02	-1.06773e-04	
183	1.182349e-07	5.466071e+00	2.766099e-02	-1.05295e-04	
184	1.183349e-07	5.481509e+00	2.759364e-02	-1.03814e-04	
185	1.184349e-07	5.496731e+00	2.752614e-02	-1.02331e-04	
186	1.185349e-07	5.511736e+00	2.745851e-02	-1.00844e-04	
187	1.186349e-07	5.526524e+00	2.739074e-02	-9.93539e-05	
188	1.187349e-07	5.541093e+00	2.732284e-02	-9.78612e-05	
189	1.188349e-07	5.555443e+00	2.725481e-02	-9.63656e-05	
190	1.189349e-07	5.569574e+00	2.718665e-02	-9.48671e-05	
191	1.190349e-07	5.583486e+00	2.711836e-02	-9.33658e-05	
192	1.191349e-07	5.597176e+00	2.704994e-02	-9.18618e-05	
193	1.192349e-07	5.610646e+00	2.698140e-02	-9.03550e-05	
194	1.193349e-07	5.623895e+00	2.691274e-02	-8.88455e-05	
195	1.194349e-07	5.636921e+00	2.684396e-02	-8.73335e-05	
196	1.195349e-07	5.649725e+00	2.677506e-02	-8.58188e-05	
197	1.196349e-07	5.662305e+00	2.670605e-02	-8.43015e-05	
198	1.197349e-07	5.674663e+00	2.663692e-02	-8.27818e-05	
199	1.198349e-07	5.686796e+00	2.656768e-02	-8.12596e-05	
200	1.199349e-07	5.698705e+00	2.649834e-02	-7.97350e-05	
201	1.200349e-07	5.710388e+00	2.642888e-02	-7.82080e-05	
202	1.201349e-07	5.721847e+00	2.635932e-02	-7.66787e-05	
203	1.202349e-07	5.733079e+00	2.628965e-02	-7.51472e-05	
204	1.203349e-07	5.744085e+00	2.621989e-02	-7.36134e-05	
205	1.204349e-07	5.754864e+00	2.615002e-02	-7.20774e-05	
206	1.205349e-07	5.765416e+00	2.608006e-02	-7.05392e-05	
207	1.206349e-07	5.775741e+00	2.601000e-02	-6.89990e-05	
208	1.207349e-07	5.785837e+00	2.593985e-02	-6.74567e-05	
209	1.208349e-07	5.795705e+00	2.586961e-02	-6.59124e-05	
210	1.209349e-07	5.805345e+00	2.579927e-02	-6.43661e-05	
211	1.210349e-07	5.814755e+00	2.572886e-02	-6.28179e-05	
212	1.211349e-07	5.823935e+00	2.565835e-02	-6.12679e-05	
213	1.212349e-07	5.832886e+00	2.558777e-02	-5.97160e-05	
214	1.213349e-07	5.841606e+00	2.551710e-02	-5.81624e-05	
215	1.214349e-07	5.850096e+00	2.544635e-02	-5.66070e-05	
216	1.215349e-07	5.858355e+00	2.537553e-02	-5.50499e-05	
217	1.216349e-07	5.866382e+00	2.530463e-02	-5.34912e-05	
218	1.217349e-07	5.874178e+00	2.523367e-02	-5.19309e-05	
219	1.218349e-07	5.881742e+00	2.516263e-02	-5.03690e-05	
220	1.219349e-07	5.889074e+00	2.509152e-02	-4.88057e-05	
221	1.220349e-07	5.896173e+00	2.502035e-02	-4.72409e-05	
222	1.221349e-07	5.903040e+00	2.494911e-02	-4.56746e-05	
223	1.222349e-07	5.909673e+00	2.487781e-02	-4.41071e-05	
224	1.223349e-07	5.916073e+00	2.480645e-02	-4.25382e-05	
225	1.224349e-07	5.922240e+00	2.473503e-02	-4.09680e-05	
226	1.225349e-07	5.928173e+00	2.466356e-02	-3.93966e-05	
227	1.226349e-07	5.933871e+00	2.459204e-02	-3.78241e-05	
228	1.227349e-07	5.939336e+00	2.452046e-02	-3.62504e-05	

Index   time            v(1)            v(6)            i(vd)           
--------------------------------------------------------------------------------
229	1.228349e-07	5.944566e+00	2.444884e-02	-3.46756e-05	
230	1.229349e-07	5.949561e+00	2.437717e-02	-3.30998e-05	
231	1.230349e-07	5.954322e+00	2.430545e-02	-3.15230e-05	
232	1.231349e-07	5.958847e+00	2.423369e-02	-2.99453e-05	
233	1.232349e-07	5.963137e+00	2.416189e-02	-2.83667e-05	
234	1.233349e-07	5.967192e+00	2.409005e-02	-2.67872e-05	
235	1.234349e-07	5.971011e+00	2.401818e-02	-2.52070e-05	
236	1.235349e-07	5.974595e+00	2.394627e-02	-2.36259e-05	
237	1.236349e-07	5.977942e+00	2.387433e-02	-2.20442e-05	
238	1.237349e-07	5.981054e+00	2.380236e-02	-2.04619e-05	
239	1.238349e-07	5.983929e+00	2.373037e-02	-1.88789e-05	
240	1.239349e-07	5.986569e+00	2.365835e-02	-1.72953e-05	
241	1.240349e-07	5.988972e+00	2.358630e-02	-1.57113e-05	
242	1.241349e-07	5.991138e+00	2.351423e-02	-1.41268e-05	
243	1.242349e-07	5.993068e+00	2.344215e-02	-1.25418e-05	
244	1.243349e-07	5.994761e+00	2.337005e-02	-1.09565e-05	
245	1.244349e-07	5.996218e+00	2.329793e-02	-9.37090e-06	
246	1.245349e-07	5.997438e+00	2.322580e-02	-7.78499e-06	
247	1.246349e-07	5.998421e+00	2.315366e-02	-6.19886e-06	
248	1.247349e-07	5.999168e+00	2.308151e-02	-4.61254e-06	
249	1.248349e-07	5.999677e+00	2.300936e-02	-3.02609e-06	
250	1.249349e-07	5.999950e+00	2.293720e-02	-1.43955e-06	
251	1.250349e-07	5.999986e+00	2.286504e-02	1.470260e-07	
252	1.251349e-07	5.999785e+00	2.279289e-02	1.733593e-06	
253	1.252349e-07	5.999347e+00	2.272073e-02	3.320104e-06	
254	1.253349e-07	5.998672e+00	2.264858e-02	4.906511e-06	
255	1.254349e-07	5.997760e+00	2.257644e-02	6.492766e-06	
256	1.255349e-07	5.996612e+00	2.250430e-02	8.078822e-06	
257	1.256349e-07	5.995227e+00	2.243218e-02	9.664632e-06	
258	1.257349e-07	5.993605e+00	2.236007e-02	1.125015e-05	
259	1.258349e-07	5.991747e+00	2.228798e-02	1.283532e-05	
260	1.259349e-07	5.989652e+00	2.221590e-02	1.442010e-05	
261	1.260349e-07	5.987320e+00	2.214384e-02	1.600445e-05	
262	1.261349e-07	5.984753e+00	2.207181e-02	1.758832e-05	
263	1.262349e-07	5.981949e+00	2.199980e-02	1.917165e-05	
264	1.263349e-07	5.978908e+00	2.192782e-02	2.075440e-05	
265	1.264349e-07	5.975632e+00	2.185586e-02	2.233653e-05	
266	1.265349e-07	5.972120e+00	2.178394e-02	2.391798e-05	
267	1.266349e-07	5.968372e+00	2.171205e-02	2.549871e-05	
268	1.267349e-07	5.964389e+00	2.164019e-02	2.707867e-05	
269	1.268349e-07	5.960170e+00	2.156837e-02	2.865782e-05	
270	1.269349e-07	5.955715e+00	2.149659e-02	3.023611e-05	
271	1.270349e-07	5.951026e+00	2.142486e-02	3.181348e-05	
272	1.271349e-07	5.946102e+00	2.135316e-02	3.338990e-05	
273	1.272349e-07	5.940943e+00	2.128151e-02	3.496531e-05	
274	1.273349e-07	5.935549e+00	2.120991e-02	3.653968e-05	
275	1.274349e-07	5.929921e+00	2.113836e-02	3.811294e-05	
276	1.275349e-07	5.924059e+00	2.106686e-02	3.968506e-05	
277	1.276349e-07	5.917963e+00	2.099542e-02	4.125599e-05	
278	1.277349e-07	5.911634e+00	2.092403e-02	4.282567e-05	
279	1.278349e-07	5.905071e+00	2.085270e-02	4.439408e-05	
280	1.279349e-07	5.898275e+00	2.078143e-02	4.596115e-05	
281	1.280349e-07	5.891246e+00	2.071023e-02	4.752684e-05	
282	1.281349e-07	5.883984e+00	2.063909e-02	4.909110e-05	
283	1.282349e-07	5.876490e+00	2.056801e-02	5.065389e-05	
284	1.283349e-07	5.868765e+00	2.049701e-02	5.221516e-05	
285	1.284349e-07	5.860807e+00	2.042608e-02	5.377487e-05	
286	1.285349e-07	5.852618e+00	2.035522e-02	5.533297e-05	

Index   time            v(1)            v(6)            i(vd)           
--------------------------------------------------------------------------------
287	1.286349e-07	5.844199e+00	2.028443e-02	5.688941e-05	
288	1.287349e-07	5.835548e+00	2.021373e-02	5.844414e-05	
289	1.288349e-07	5.826667e+00	2.014310e-02	5.999712e-05	
290	1.289349e-07	5.817556e+00	2.007256e-02	6.154831e-05	
291	1.290349e-07	5.808215e+00	2.000209e-02	6.309766e-05	
292	1.291349e-07	5.798645e+00	1.993172e-02	6.464511e-05	
293	1.292349e-07	5.788846e+00	1.986143e-02	6.619064e-05	
294	1.293349e-07	5.778819e+00	1.979123e-02	6.773418e-05	
295	1.294349e-07	5.768563e+00	1.972113e-02	6.927570e-05	
296	1.295349e-07	5.758080e+00	1.965112e-02	7.081515e-05	
297	1.296349e-07	5.747370e+00	1.958120e-02	7.235248e-05	
298	1.297349e-07	5.736432e+00	1.951139e-02	7.388765e-05	
299	1.298349e-07	5.725268e+00	1.944167e-02	7.542061e-05	
300	1.299349e-07	5.713878e+00	1.937206e-02	7.695132e-05	
301	1.300349e-07	5.702262e+00	1.930255e-02	7.847974e-05	
302	1.301349e-07	5.690422e+00	1.923315e-02	8.000581e-05	
303	1.302349e-07	5.678356e+00	1.916386e-02	8.152950e-05	
304	1.303349e-07	5.666067e+00	1.909467e-02	8.305075e-05	
305	1.304349e-07	5.653554e+00	1.902560e-02	8.456953e-05	
306	1.305349e-07	5.640817e+00	1.895665e-02	8.608579e-05	
307	1.306349e-07	5.627858e+00	1.888781e-02	8.759949e-05	
308	1.307349e-07	5.614677e+00	1.881909e-02	8.911057e-05	
309	1.308349e-07	5.601274e+00	1.875049e-02	9.061901e-05	
310	1.309349e-07	5.587650e+00	1.868201e-02	9.212474e-05	
311	1.310349e-07	5.573805e+00	1.861366e-02	9.362774e-05	
312	1.311349e-07	5.559741e+00	1.854544e-02	9.512795e-05	
313	1.312349e-07	5.545457e+00	1.847734e-02	9.662534e-05	
314	1.313349e-07	5.530954e+00	1.840937e-02	9.811985e-05	
315	1.314349e-07	5.516232e+00	1.834154e-02	9.961145e-05	
316	1.315349e-07	5.501293e+00	1.827384e-02	1.011001e-04	
317	1.316349e-07	5.486136e+00	1.820628e-02	1.025857e-04	
318	1.317349e-07	5.470764e+00	1.813886e-02	1.040683e-04	
319	1.318349e-07	5.455175e+00	1.807157e-02	1.055478e-04	
320	1.319349e-07	5.439370e+00	1.800443e-02	1.070242e-04	
321	1.320349e-07	5.423351e+00	1.793743e-02	1.084974e-04	
322	1.321349e-07	5.407118e+00	1.787058e-02	1.099674e-04	
323	1.322349e-07	5.390671e+00	1.780388e-02	1.114342e-04	
324	1.323349e-07	5.374012e+00	1.773733e-02	1.128976e-04	
325	1.324349e-07	5.357140e+00	1.767093e-02	1.143577e-04	
326	1.325349e-07	5.340057e+00	1.760468e-02	1.158144e-04	
327	1.326349e-07	5.322763e+00	1.753859e-02	1.172677e-04	
328	1.327349e-07	5.305259e+00	1.747266e-02	1.187176e-04	
329	1.328349e-07	5.287546e+00	1.740688e-02	1.201639e-04	
330	1.329349e-07	5.269624e+00	1.734127e-02	1.216067e-04	
331	1.330349e-07	5.251493e+00	1.727582e-02	1.230459e-04	
