            * rf switch using in914 junction diodes with vbias = 0v
            Transient Analysis  Sun Aug 28 21:21:19  2022
--------------------------------------------------------------------------------
Index   time            v(1)            v(6)            i(vd)           
--------------------------------------------------------------------------------
0	1.000748e-07	2.819726e-02	9.222081e-01	-2.02296e-02	
1	1.001748e-07	6.589515e-02	9.586985e-01	-2.10325e-02	
2	1.002748e-07	1.035904e-01	9.951654e-01	-2.18348e-02	
3	1.003748e-07	1.412816e-01	1.031607e+00	-2.26365e-02	
4	1.004748e-07	1.789673e-01	1.068020e+00	-2.34377e-02	
5	1.005748e-07	2.166458e-01	1.104404e+00	-2.42381e-02	
6	1.006748e-07	2.543158e-01	1.140755e+00	-2.50379e-02	
7	1.007748e-07	2.919758e-01	1.177072e+00	-2.58369e-02	
8	1.008748e-07	3.296242e-01	1.213351e+00	-2.66351e-02	
9	1.009748e-07	3.672597e-01	1.249591e+00	-2.74325e-02	
10	1.010748e-07	4.048806e-01	1.285789e+00	-2.82289e-02	
11	1.011748e-07	4.424855e-01	1.321943e+00	-2.90243e-02	
12	1.012748e-07	4.800730e-01	1.358049e+00	-2.98187e-02	
13	1.013748e-07	5.176415e-01	1.394106e+00	-3.06120e-02	
14	1.014748e-07	5.551896e-01	1.430109e+00	-3.14041e-02	
15	1.015748e-07	5.927158e-01	1.466057e+00	-3.21950e-02	
16	1.016748e-07	6.302185e-01	1.501947e+00	-3.29847e-02	
17	1.017748e-07	6.676964e-01	1.537774e+00	-3.37729e-02	
18	1.018748e-07	7.051480e-01	1.573536e+00	-3.45598e-02	
19	1.019748e-07	7.425716e-01	1.609230e+00	-3.53451e-02	
20	1.020748e-07	7.799660e-01	1.644852e+00	-3.61288e-02	
21	1.021748e-07	8.173296e-01	1.680398e+00	-3.69109e-02	
22	1.022748e-07	8.546609e-01	1.715864e+00	-3.76912e-02	
23	1.023748e-07	8.919585e-01	1.751246e+00	-3.84697e-02	
24	1.024748e-07	9.292209e-01	1.786539e+00	-3.92462e-02	
25	1.025748e-07	9.664465e-01	1.821740e+00	-4.00207e-02	
26	1.026748e-07	1.003634e+00	1.856842e+00	-4.07930e-02	
27	1.027748e-07	1.040782e+00	1.891840e+00	-4.15631e-02	
28	1.028748e-07	1.077889e+00	1.926729e+00	-4.23307e-02	
29	1.029748e-07	1.114953e+00	1.961503e+00	-4.30958e-02	
30	1.030748e-07	1.151973e+00	1.996153e+00	-4.38582e-02	
31	1.031748e-07	1.188948e+00	2.030673e+00	-4.46177e-02	
32	1.032748e-07	1.225876e+00	2.065055e+00	-4.53742e-02	
33	1.033748e-07	1.262755e+00	2.099289e+00	-4.61274e-02	
34	1.034748e-07	1.299585e+00	2.133364e+00	-4.68772e-02	
35	1.035748e-07	1.336363e+00	2.167271e+00	-4.76232e-02	
36	1.036748e-07	1.373089e+00	2.200994e+00	-4.83652e-02	
37	1.037748e-07	1.409760e+00	2.234520e+00	-4.91029e-02	
38	1.038748e-07	1.446376e+00	2.267831e+00	-4.98358e-02	
39	1.039748e-07	1.482934e+00	2.300908e+00	-5.05636e-02	
40	1.040748e-07	1.519434e+00	2.333726e+00	-5.12857e-02	
41	1.041748e-07	1.555874e+00	2.366258e+00	-5.20015e-02	
42	1.042748e-07	1.592253e+00	2.398470e+00	-5.27102e-02	
43	1.043748e-07	1.628569e+00	2.430320e+00	-5.34110e-02	
44	1.044748e-07	1.664820e+00	2.461758e+00	-5.41028e-02	
45	1.045748e-07	1.701006e+00	2.492718e+00	-5.47840e-02	
46	1.046748e-07	1.737124e+00	2.523114e+00	-5.54528e-02	
47	1.047748e-07	1.773174e+00	2.552834e+00	-5.61067e-02	
48	1.048748e-07	1.809154e+00	2.581719e+00	-5.67423e-02	
49	1.049748e-07	1.845063e+00	2.609545e+00	-5.73546e-02	
50	1.050748e-07	1.880899e+00	2.635970e+00	-5.79360e-02	
51	1.051748e-07	1.916660e+00	2.660441e+00	-5.84745e-02	
52	1.052748e-07	1.952346e+00	2.681974e+00	-5.89483e-02	
53	1.053748e-07	1.987955e+00	2.698568e+00	-5.93135e-02	
54	1.054748e-07	2.023485e+00	2.705166e+00	-5.94588e-02	

Index   time            v(1)            v(6)            i(vd)           
--------------------------------------------------------------------------------
55	1.055748e-07	2.058935e+00	2.670599e+00	-5.86984e-02	
56	1.056748e-07	2.094304e+00	5.402000e-01	-1.18297e-02	
57	1.057748e-07	2.129591e+00	-9.61142e-02	2.169222e-03	
58	1.058334e-07	2.150245e+00	8.242866e-03	-1.26634e-04	
59	1.059074e-07	2.176244e+00	1.418609e-02	-2.57385e-04	
60	1.060040e-07	2.210154e+00	1.371848e-02	-2.47098e-04	
61	1.061040e-07	2.245158e+00	1.376676e-02	-2.48161e-04	
62	1.062040e-07	2.280074e+00	1.371033e-02	-2.46920e-04	
63	1.063040e-07	2.314900e+00	1.367618e-02	-2.46169e-04	
64	1.064040e-07	2.349634e+00	1.363691e-02	-2.45306e-04	
65	1.065040e-07	2.384276e+00	1.359839e-02	-2.44459e-04	
66	1.066040e-07	2.418823e+00	1.355935e-02	-2.43601e-04	
67	1.067040e-07	2.453275e+00	1.352006e-02	-2.42737e-04	
68	1.068040e-07	2.487630e+00	1.348048e-02	-2.41867e-04	
69	1.069040e-07	2.521887e+00	1.344060e-02	-2.40990e-04	
70	1.070040e-07	2.556045e+00	1.340043e-02	-2.40107e-04	
71	1.071040e-07	2.590101e+00	1.335997e-02	-2.39217e-04	
72	1.072040e-07	2.624055e+00	1.331921e-02	-2.38321e-04	
73	1.073040e-07	2.657906e+00	1.327817e-02	-2.37418e-04	
74	1.074040e-07	2.691652e+00	1.323683e-02	-2.36509e-04	
75	1.075040e-07	2.725291e+00	1.319520e-02	-2.35594e-04	
76	1.076040e-07	2.758823e+00	1.315328e-02	-2.34672e-04	
77	1.077040e-07	2.792246e+00	1.311107e-02	-2.33744e-04	
78	1.078040e-07	2.825558e+00	1.306857e-02	-2.32810e-04	
79	1.079040e-07	2.858760e+00	1.302577e-02	-2.31869e-04	
80	1.080040e-07	2.891848e+00	1.298269e-02	-2.30922e-04	
81	1.081040e-07	2.924822e+00	1.293932e-02	-2.29968e-04	
82	1.082040e-07	2.957681e+00	1.289566e-02	-2.29008e-04	
83	1.083040e-07	2.990422e+00	1.285171e-02	-2.28041e-04	
84	1.084040e-07	3.023046e+00	1.280747e-02	-2.27069e-04	
85	1.085040e-07	3.055551e+00	1.276295e-02	-2.26090e-04	
86	1.086040e-07	3.087935e+00	1.271814e-02	-2.25104e-04	
87	1.087040e-07	3.120196e+00	1.267304e-02	-2.24113e-04	
88	1.088040e-07	3.152335e+00	1.262766e-02	-2.23115e-04	
89	1.089040e-07	3.184350e+00	1.258200e-02	-2.22111e-04	
90	1.090040e-07	3.216238e+00	1.253605e-02	-2.21101e-04	
91	1.091040e-07	3.248000e+00	1.248982e-02	-2.20084e-04	
92	1.092040e-07	3.279633e+00	1.244330e-02	-2.19061e-04	
93	1.093040e-07	3.311137e+00	1.239651e-02	-2.18032e-04	
94	1.094040e-07	3.342510e+00	1.234943e-02	-2.16997e-04	
95	1.095040e-07	3.373752e+00	1.230207e-02	-2.15956e-04	
96	1.096040e-07	3.404860e+00	1.225444e-02	-2.14908e-04	
97	1.097040e-07	3.435833e+00	1.220652e-02	-2.13854e-04	
98	1.098040e-07	3.466671e+00	1.215833e-02	-2.12795e-04	
99	1.099040e-07	3.497372e+00	1.210987e-02	-2.11729e-04	
100	1.100040e-07	3.527935e+00	1.206113e-02	-2.10657e-04	
101	1.101040e-07	3.558359e+00	1.201211e-02	-2.09579e-04	
102	1.102040e-07	3.588643e+00	1.196282e-02	-2.08495e-04	
103	1.103040e-07	3.618784e+00	1.191326e-02	-2.07405e-04	
104	1.104040e-07	3.648783e+00	1.186343e-02	-2.06310e-04	
105	1.105040e-07	3.678638e+00	1.181332e-02	-2.05208e-04	
106	1.106040e-07	3.708347e+00	1.176295e-02	-2.04100e-04	
107	1.107040e-07	3.737910e+00	1.171231e-02	-2.02987e-04	
108	1.108040e-07	3.767326e+00	1.166141e-02	-2.01867e-04	
109	1.109040e-07	3.796593e+00	1.161023e-02	-2.00742e-04	
110	1.110040e-07	3.825710e+00	1.155880e-02	-1.99611e-04	
111	1.111040e-07	3.854675e+00	1.150710e-02	-1.98474e-04	
112	1.112040e-07	3.883489e+00	1.145514e-02	-1.97331e-04	

Index   time            v(1)            v(6)            i(vd)           
--------------------------------------------------------------------------------
113	1.113040e-07	3.912150e+00	1.140291e-02	-1.96183e-04	
114	1.114040e-07	3.940656e+00	1.135043e-02	-1.95028e-04	
115	1.115040e-07	3.969006e+00	1.129769e-02	-1.93869e-04	
116	1.116040e-07	3.997200e+00	1.124469e-02	-1.92703e-04	
117	1.117040e-07	4.025236e+00	1.119144e-02	-1.91532e-04	
118	1.118040e-07	4.053113e+00	1.113793e-02	-1.90355e-04	
119	1.119040e-07	4.080830e+00	1.108417e-02	-1.89173e-04	
120	1.120040e-07	4.108385e+00	1.103015e-02	-1.87985e-04	
121	1.121040e-07	4.135779e+00	1.097589e-02	-1.86792e-04	
122	1.122040e-07	4.163010e+00	1.092138e-02	-1.85593e-04	
123	1.123040e-07	4.190076e+00	1.086661e-02	-1.84388e-04	
124	1.124040e-07	4.216976e+00	1.081161e-02	-1.83179e-04	
125	1.125040e-07	4.243710e+00	1.075635e-02	-1.81964e-04	
126	1.126040e-07	4.270277e+00	1.070086e-02	-1.80743e-04	
127	1.127040e-07	4.296675e+00	1.064512e-02	-1.79517e-04	
128	1.128040e-07	4.322904e+00	1.058914e-02	-1.78286e-04	
129	1.129040e-07	4.348961e+00	1.053292e-02	-1.77050e-04	
130	1.130040e-07	4.374847e+00	1.047646e-02	-1.75808e-04	
131	1.131040e-07	4.400561e+00	1.041977e-02	-1.74561e-04	
132	1.132040e-07	4.426100e+00	1.036284e-02	-1.73309e-04	
133	1.133040e-07	4.451465e+00	1.030568e-02	-1.72052e-04	
134	1.134040e-07	4.476654e+00	1.024828e-02	-1.70790e-04	
135	1.135040e-07	4.501667e+00	1.019066e-02	-1.69522e-04	
136	1.136040e-07	4.526502e+00	1.013281e-02	-1.68250e-04	
137	1.137040e-07	4.551158e+00	1.007473e-02	-1.66973e-04	
138	1.138040e-07	4.575634e+00	1.001642e-02	-1.65690e-04	
139	1.139040e-07	4.599930e+00	9.957890e-03	-1.64403e-04	
140	1.140040e-07	4.624044e+00	9.899137e-03	-1.63111e-04	
141	1.141040e-07	4.647975e+00	9.840164e-03	-1.61814e-04	
142	1.142040e-07	4.671723e+00	9.780972e-03	-1.60512e-04	
143	1.143040e-07	4.695287e+00	9.721562e-03	-1.59206e-04	
144	1.144040e-07	4.718665e+00	9.661936e-03	-1.57894e-04	
145	1.145040e-07	4.741857e+00	9.602095e-03	-1.56578e-04	
146	1.146040e-07	4.764862e+00	9.542042e-03	-1.55257e-04	
147	1.147040e-07	4.787679e+00	9.481778e-03	-1.53932e-04	
148	1.148040e-07	4.810306e+00	9.421305e-03	-1.52602e-04	
149	1.149040e-07	4.832744e+00	9.360624e-03	-1.51267e-04	
150	1.150040e-07	4.854991e+00	9.299737e-03	-1.49928e-04	
151	1.151040e-07	4.877046e+00	9.238646e-03	-1.48584e-04	
152	1.152040e-07	4.898909e+00	9.177353e-03	-1.47236e-04	
153	1.153040e-07	4.920579e+00	9.115859e-03	-1.45884e-04	
154	1.154040e-07	4.942054e+00	9.054166e-03	-1.44527e-04	
155	1.155040e-07	4.963334e+00	8.992276e-03	-1.43166e-04	
156	1.156040e-07	4.984418e+00	8.930190e-03	-1.41800e-04	
157	1.157040e-07	5.005305e+00	8.867911e-03	-1.40430e-04	
158	1.158040e-07	5.025995e+00	8.805440e-03	-1.39056e-04	
159	1.159040e-07	5.046486e+00	8.742779e-03	-1.37678e-04	
160	1.160040e-07	5.066778e+00	8.679929e-03	-1.36296e-04	
161	1.161040e-07	5.086870e+00	8.616893e-03	-1.34909e-04	
162	1.162040e-07	5.106761e+00	8.553673e-03	-1.33519e-04	
163	1.163040e-07	5.126451e+00	8.490269e-03	-1.32124e-04	
164	1.164040e-07	5.145938e+00	8.426685e-03	-1.30726e-04	
165	1.165040e-07	5.165222e+00	8.362921e-03	-1.29323e-04	
166	1.166040e-07	5.184302e+00	8.298981e-03	-1.27917e-04	
167	1.167040e-07	5.203178e+00	8.234864e-03	-1.26507e-04	
168	1.168040e-07	5.221848e+00	8.170575e-03	-1.25093e-04	
169	1.169040e-07	5.240312e+00	8.106113e-03	-1.23675e-04	
170	1.170040e-07	5.258569e+00	8.041482e-03	-1.22253e-04	

Index   time            v(1)            v(6)            i(vd)           
--------------------------------------------------------------------------------
171	1.171040e-07	5.276618e+00	7.976683e-03	-1.20828e-04	
172	1.172040e-07	5.294459e+00	7.911718e-03	-1.19399e-04	
173	1.173040e-07	5.312091e+00	7.846589e-03	-1.17967e-04	
174	1.174040e-07	5.329514e+00	7.781298e-03	-1.16531e-04	
175	1.175040e-07	5.346726e+00	7.715847e-03	-1.15091e-04	
176	1.176040e-07	5.363727e+00	7.650237e-03	-1.13648e-04	
177	1.177040e-07	5.380516e+00	7.584471e-03	-1.12201e-04	
178	1.178040e-07	5.397093e+00	7.518550e-03	-1.10751e-04	
179	1.179040e-07	5.413456e+00	7.452478e-03	-1.09298e-04	
180	1.180040e-07	5.429606e+00	7.386254e-03	-1.07841e-04	
181	1.181040e-07	5.445542e+00	7.319882e-03	-1.06382e-04	
182	1.182040e-07	5.461263e+00	7.253364e-03	-1.04918e-04	
183	1.183040e-07	5.476768e+00	7.186701e-03	-1.03452e-04	
184	1.184040e-07	5.492056e+00	7.119895e-03	-1.01983e-04	
185	1.185040e-07	5.507128e+00	7.052949e-03	-1.00510e-04	
186	1.186040e-07	5.521983e+00	6.985864e-03	-9.90346e-05	
187	1.187040e-07	5.536620e+00	6.918643e-03	-9.75560e-05	
188	1.188040e-07	5.551038e+00	6.851287e-03	-9.60745e-05	
189	1.189040e-07	5.565237e+00	6.783798e-03	-9.45900e-05	
190	1.190040e-07	5.579216e+00	6.716179e-03	-9.31026e-05	
191	1.191040e-07	5.592975e+00	6.648432e-03	-9.16124e-05	
192	1.192040e-07	5.606513e+00	6.580558e-03	-9.01195e-05	
193	1.193040e-07	5.619829e+00	6.512559e-03	-8.86238e-05	
194	1.194040e-07	5.632924e+00	6.444438e-03	-8.71254e-05	
195	1.195040e-07	5.645797e+00	6.376197e-03	-8.56243e-05	
196	1.196040e-07	5.658447e+00	6.307837e-03	-8.41207e-05	
197	1.197040e-07	5.670873e+00	6.239362e-03	-8.26145e-05	
198	1.198040e-07	5.683075e+00	6.170772e-03	-8.11057e-05	
199	1.199040e-07	5.695053e+00	6.102070e-03	-7.95945e-05	
200	1.200040e-07	5.706806e+00	6.033258e-03	-7.80809e-05	
201	1.201040e-07	5.718334e+00	5.964338e-03	-7.65649e-05	
202	1.202040e-07	5.729637e+00	5.895312e-03	-7.50466e-05	
203	1.203040e-07	5.740712e+00	5.826182e-03	-7.35259e-05	
204	1.204040e-07	5.751562e+00	5.756950e-03	-7.20031e-05	
205	1.205040e-07	5.762184e+00	5.687619e-03	-7.04780e-05	
206	1.206040e-07	5.772579e+00	5.618191e-03	-6.89508e-05	
207	1.207040e-07	5.782746e+00	5.548667e-03	-6.74215e-05	
208	1.208040e-07	5.792684e+00	5.479050e-03	-6.58902e-05	
209	1.209040e-07	5.802394e+00	5.409342e-03	-6.43568e-05	
210	1.210040e-07	5.811875e+00	5.339544e-03	-6.28215e-05	
211	1.211040e-07	5.821126e+00	5.269660e-03	-6.12842e-05	
212	1.212040e-07	5.830148e+00	5.199691e-03	-5.97451e-05	
213	1.213040e-07	5.838939e+00	5.129639e-03	-5.82042e-05	
214	1.214040e-07	5.847500e+00	5.059507e-03	-5.66615e-05	
215	1.215040e-07	5.855830e+00	4.989296e-03	-5.51170e-05	
216	1.216040e-07	5.863929e+00	4.919009e-03	-5.35709e-05	
217	1.217040e-07	5.871797e+00	4.848647e-03	-5.20232e-05	
218	1.218040e-07	5.879432e+00	4.778214e-03	-5.04738e-05	
219	1.219040e-07	5.886836e+00	4.707711e-03	-4.89230e-05	
220	1.220040e-07	5.894007e+00	4.637140e-03	-4.73706e-05	
221	1.221040e-07	5.900945e+00	4.566504e-03	-4.58168e-05	
222	1.222040e-07	5.907651e+00	4.495804e-03	-4.42616e-05	
223	1.223040e-07	5.914123e+00	4.425043e-03	-4.27050e-05	
224	1.224040e-07	5.920362e+00	4.354223e-03	-4.11471e-05	
225	1.225040e-07	5.926367e+00	4.283346e-03	-3.95880e-05	
226	1.226040e-07	5.932138e+00	4.212414e-03	-3.80277e-05	
227	1.227040e-07	5.937674e+00	4.141430e-03	-3.64662e-05	
228	1.228040e-07	5.942977e+00	4.070395e-03	-3.49036e-05	

Index   time            v(1)            v(6)            i(vd)           
--------------------------------------------------------------------------------
229	1.229040e-07	5.948045e+00	3.999312e-03	-3.33399e-05	
230	1.230040e-07	5.952878e+00	3.928183e-03	-3.17752e-05	
231	1.231040e-07	5.957476e+00	3.857010e-03	-3.02096e-05	
232	1.232040e-07	5.961838e+00	3.785796e-03	-2.86430e-05	
233	1.233040e-07	5.965966e+00	3.714541e-03	-2.70756e-05	
234	1.234040e-07	5.969858e+00	3.643250e-03	-2.55073e-05	
235	1.235040e-07	5.973514e+00	3.571923e-03	-2.39383e-05	
236	1.236040e-07	5.976934e+00	3.500563e-03	-2.23685e-05	
237	1.237040e-07	5.980119e+00	3.429172e-03	-2.07980e-05	
238	1.238040e-07	5.983067e+00	3.357753e-03	-1.92270e-05	
239	1.239040e-07	5.985779e+00	3.286307e-03	-1.76553e-05	
240	1.240040e-07	5.988255e+00	3.214838e-03	-1.60831e-05	
241	1.241040e-07	5.990495e+00	3.143345e-03	-1.45104e-05	
242	1.242040e-07	5.992498e+00	3.071834e-03	-1.29372e-05	
243	1.243040e-07	5.994264e+00	3.000304e-03	-1.13637e-05	
244	1.244040e-07	5.995794e+00	2.928759e-03	-9.78983e-06	
245	1.245040e-07	5.997087e+00	2.857200e-03	-8.21566e-06	
246	1.246040e-07	5.998143e+00	2.785631e-03	-6.64124e-06	
247	1.247040e-07	5.998962e+00	2.714053e-03	-5.06663e-06	
248	1.248040e-07	5.999545e+00	2.642467e-03	-3.49186e-06	
249	1.249040e-07	5.999891e+00	2.570878e-03	-1.91699e-06	
250	1.250040e-07	6.000000e+00	2.499286e-03	-3.42070e-07	
251	1.251040e-07	5.999872e+00	2.427693e-03	1.232860e-06	
252	1.252040e-07	5.999507e+00	2.356103e-03	2.807747e-06	
253	1.253040e-07	5.998905e+00	2.284517e-03	4.382544e-06	
254	1.254040e-07	5.998067e+00	2.212938e-03	5.957202e-06	
255	1.255040e-07	5.996992e+00	2.141367e-03	7.531673e-06	
256	1.256040e-07	5.995680e+00	2.069807e-03	9.105909e-06	
257	1.257040e-07	5.994131e+00	1.998260e-03	1.067986e-05	
258	1.258040e-07	5.992346e+00	1.926728e-03	1.225348e-05	
259	1.259040e-07	5.990324e+00	1.855214e-03	1.382672e-05	
260	1.260040e-07	5.988065e+00	1.783719e-03	1.539954e-05	
261	1.261040e-07	5.985570e+00	1.712246e-03	1.697187e-05	
262	1.262040e-07	5.982839e+00	1.640797e-03	1.854369e-05	
263	1.263040e-07	5.979872e+00	1.569374e-03	2.011493e-05	
264	1.264040e-07	5.976669e+00	1.497979e-03	2.168555e-05	
265	1.265040e-07	5.973229e+00	1.426615e-03	2.325550e-05	
266	1.266040e-07	5.969554e+00	1.355284e-03	2.482473e-05	
267	1.267040e-07	5.965643e+00	1.283988e-03	2.639320e-05	
268	1.268040e-07	5.961497e+00	1.212728e-03	2.796085e-05	
269	1.269040e-07	5.957115e+00	1.141508e-03	2.952765e-05	
270	1.270040e-07	5.952498e+00	1.070330e-03	3.109353e-05	
271	1.271040e-07	5.947647e+00	9.991946e-04	3.265846e-05	
272	1.272040e-07	5.942560e+00	9.281053e-04	3.422239e-05	
273	1.273040e-07	5.937239e+00	8.570640e-04	3.578526e-05	
274	1.274040e-07	5.931683e+00	7.860729e-04	3.734703e-05	
275	1.275040e-07	5.925893e+00	7.151340e-04	3.890766e-05	
276	1.276040e-07	5.919869e+00	6.442497e-04	4.046709e-05	
277	1.277040e-07	5.913612e+00	5.734219e-04	4.202527e-05	
278	1.278040e-07	5.907121e+00	5.026530e-04	4.358217e-05	
279	1.279040e-07	5.900397e+00	4.319450e-04	4.513773e-05	
280	1.280040e-07	5.893440e+00	3.613001e-04	4.669190e-05	
281	1.281040e-07	5.886250e+00	2.907205e-04	4.824463e-05	
282	1.282040e-07	5.878828e+00	2.202084e-04	4.979589e-05	
283	1.283040e-07	5.871174e+00	1.497658e-04	5.134562e-05	
284	1.284040e-07	5.863288e+00	7.939495e-05	5.289378e-05	
285	1.285040e-07	5.855170e+00	9.097953e-06	5.444031e-05	
286	1.286040e-07	5.846822e+00	-6.11230e-05	5.598517e-05	

Index   time            v(1)            v(6)            i(vd)           
--------------------------------------------------------------------------------
287	1.287040e-07	5.838242e+00	-1.31266e-04	5.752832e-05	
288	1.288040e-07	5.829432e+00	-2.01328e-04	5.906970e-05	
289	1.289040e-07	5.820392e+00	-2.71309e-04	6.060927e-05	
290	1.290040e-07	5.811123e+00	-3.41204e-04	6.214699e-05	
291	1.291040e-07	5.801623e+00	-4.11013e-04	6.368280e-05	
292	1.292040e-07	5.791895e+00	-4.80733e-04	6.521666e-05	
293	1.293040e-07	5.781938e+00	-5.50362e-04	6.674852e-05	
294	1.294040e-07	5.771753e+00	-6.19899e-04	6.827834e-05	
295	1.295040e-07	5.761340e+00	-6.89340e-04	6.980608e-05	
296	1.296040e-07	5.750699e+00	-7.58684e-04	7.133167e-05	
297	1.297040e-07	5.739832e+00	-8.27928e-04	7.285508e-05	
298	1.298040e-07	5.728738e+00	-8.97071e-04	7.437626e-05	
299	1.299040e-07	5.717417e+00	-9.66111e-04	7.589517e-05	
300	1.300040e-07	5.705871e+00	-1.03504e-03	7.741176e-05	
301	1.301040e-07	5.694100e+00	-1.10387e-03	7.892598e-05	
302	1.302040e-07	5.682104e+00	-1.17259e-03	8.043779e-05	
303	1.303040e-07	5.669884e+00	-1.24119e-03	8.194714e-05	
304	1.304040e-07	5.657439e+00	-1.30968e-03	8.345398e-05	
305	1.305040e-07	5.644772e+00	-1.37806e-03	8.495828e-05	
306	1.306040e-07	5.631882e+00	-1.44631e-03	8.645999e-05	
307	1.307040e-07	5.618769e+00	-1.51445e-03	8.795905e-05	
308	1.308040e-07	5.605434e+00	-1.58247e-03	8.945543e-05	
309	1.309040e-07	5.591878e+00	-1.65036e-03	9.094908e-05	
310	1.310040e-07	5.578102e+00	-1.71812e-03	9.243995e-05	
311	1.311040e-07	5.564105e+00	-1.78576e-03	9.392801e-05	
312	1.312040e-07	5.549888e+00	-1.85326e-03	9.541320e-05	
313	1.313040e-07	5.535453e+00	-1.92063e-03	9.689548e-05	
314	1.314040e-07	5.520799e+00	-1.98787e-03	9.837481e-05	
315	1.315040e-07	5.505927e+00	-2.05497e-03	9.985114e-05	
316	1.316040e-07	5.490837e+00	-2.12194e-03	1.013244e-04	
317	1.317040e-07	5.475531e+00	-2.18876e-03	1.027946e-04	
318	1.318040e-07	5.460009e+00	-2.25544e-03	1.042617e-04	
319	1.319040e-07	5.444271e+00	-2.32198e-03	1.057256e-04	
320	1.320040e-07	5.428318e+00	-2.38837e-03	1.071863e-04	
321	1.321040e-07	5.412151e+00	-2.45461e-03	1.086437e-04	
322	1.322040e-07	5.395770e+00	-2.52071e-03	1.100979e-04	
323	1.323040e-07	5.379176e+00	-2.58664e-03	1.115486e-04	
324	1.324040e-07	5.362370e+00	-2.65243e-03	1.129960e-04	
325	1.325040e-07	5.345352e+00	-2.71806e-03	1.144400e-04	
326	1.326040e-07	5.328123e+00	-2.78353e-03	1.158805e-04	
327	1.327040e-07	5.310684e+00	-2.84884e-03	1.173174e-04	
328	1.328040e-07	5.293035e+00	-2.91399e-03	1.187508e-04	
329	1.329040e-07	5.275177e+00	-2.97898e-03	1.201806e-04	
330	1.330040e-07	5.257111e+00	-3.04380e-03	1.216068e-04	
331	1.331040e-07	5.238837e+00	-3.10845e-03	1.230292e-04	
