            * rf switch using rn142 junction diodes with vbias = 0v
            Transient Analysis  Sun Aug 28 21:25:11  2022
--------------------------------------------------------------------------------
Index   time            v(1)            v(6)            i(vd)           
--------------------------------------------------------------------------------
0	1.000767e-07	2.890758e-02	9.100284e-01	-1.99601e-02	
1	1.001767e-07	6.660543e-02	9.475145e-01	-2.07848e-02	
2	1.002767e-07	1.043007e-01	9.849951e-01	-2.16094e-02	
3	1.003767e-07	1.419918e-01	1.022469e+00	-2.24339e-02	
4	1.004767e-07	1.796773e-01	1.059934e+00	-2.32582e-02	
5	1.005767e-07	2.173557e-01	1.097389e+00	-2.40822e-02	
6	1.006767e-07	2.550255e-01	1.134833e+00	-2.49060e-02	
7	1.007767e-07	2.926853e-01	1.172264e+00	-2.57296e-02	
8	1.008767e-07	3.303335e-01	1.209680e+00	-2.65528e-02	
9	1.009767e-07	3.679686e-01	1.247081e+00	-2.73756e-02	
10	1.010767e-07	4.055893e-01	1.284464e+00	-2.81981e-02	
11	1.011767e-07	4.431939e-01	1.321828e+00	-2.90202e-02	
12	1.012767e-07	4.807810e-01	1.359172e+00	-2.98418e-02	
13	1.013767e-07	5.183492e-01	1.396494e+00	-3.06629e-02	
14	1.014767e-07	5.558969e-01	1.433793e+00	-3.14836e-02	
15	1.015767e-07	5.934226e-01	1.471067e+00	-3.23037e-02	
16	1.016767e-07	6.309249e-01	1.508315e+00	-3.31232e-02	
17	1.017767e-07	6.684023e-01	1.545536e+00	-3.39421e-02	
18	1.018767e-07	7.058533e-01	1.582726e+00	-3.47603e-02	
19	1.019767e-07	7.432765e-01	1.619887e+00	-3.55779e-02	
20	1.020767e-07	7.806703e-01	1.657015e+00	-3.63948e-02	
21	1.021767e-07	8.180333e-01	1.694109e+00	-3.72110e-02	
22	1.022767e-07	8.553640e-01	1.731169e+00	-3.80263e-02	
23	1.023767e-07	8.926609e-01	1.768192e+00	-3.88409e-02	
24	1.024767e-07	9.299226e-01	1.805176e+00	-3.96546e-02	
25	1.025767e-07	9.671476e-01	1.842121e+00	-4.04675e-02	
26	1.026767e-07	1.004334e+00	1.879026e+00	-4.12795e-02	
27	1.027767e-07	1.041482e+00	1.915888e+00	-4.20905e-02	
28	1.028767e-07	1.078588e+00	1.952705e+00	-4.29006e-02	
29	1.029767e-07	1.115651e+00	1.989478e+00	-4.37097e-02	
30	1.030767e-07	1.152670e+00	2.026204e+00	-4.45177e-02	
31	1.031767e-07	1.189644e+00	2.062881e+00	-4.53247e-02	
32	1.032767e-07	1.226571e+00	2.099509e+00	-4.61306e-02	
33	1.033767e-07	1.263450e+00	2.136085e+00	-4.69353e-02	
34	1.034767e-07	1.300278e+00	2.172609e+00	-4.77390e-02	
35	1.035767e-07	1.337056e+00	2.209078e+00	-4.85414e-02	
36	1.036767e-07	1.373780e+00	2.245493e+00	-4.93426e-02	
37	1.037767e-07	1.410450e+00	2.281850e+00	-5.01425e-02	
38	1.038767e-07	1.447065e+00	2.318148e+00	-5.09412e-02	
39	1.039767e-07	1.483623e+00	2.354387e+00	-5.17385e-02	
40	1.040767e-07	1.520121e+00	2.390564e+00	-5.25345e-02	
41	1.041767e-07	1.556560e+00	2.426679e+00	-5.33291e-02	
42	1.042767e-07	1.592938e+00	2.462729e+00	-5.41223e-02	
43	1.043767e-07	1.629252e+00	2.498714e+00	-5.49141e-02	
44	1.044767e-07	1.665502e+00	2.534632e+00	-5.57044e-02	
45	1.045767e-07	1.701687e+00	2.570481e+00	-5.64932e-02	
46	1.046767e-07	1.737804e+00	2.606260e+00	-5.72804e-02	
47	1.047767e-07	1.773853e+00	2.641968e+00	-5.80661e-02	
48	1.048767e-07	1.809832e+00	2.677603e+00	-5.88502e-02	
49	1.049767e-07	1.845739e+00	2.713163e+00	-5.96326e-02	
50	1.050767e-07	1.881573e+00	2.748649e+00	-6.04134e-02	
51	1.051767e-07	1.917333e+00	2.784057e+00	-6.11925e-02	
52	1.052767e-07	1.953018e+00	2.819387e+00	-6.19699e-02	
53	1.053767e-07	1.988625e+00	2.854636e+00	-6.27455e-02	
54	1.054767e-07	2.024154e+00	2.889805e+00	-6.35193e-02	

Index   time            v(1)            v(6)            i(vd)           
--------------------------------------------------------------------------------
55	1.055767e-07	2.059603e+00	2.924891e+00	-6.42913e-02	
56	1.056767e-07	2.094970e+00	2.959893e+00	-6.50615e-02	
57	1.057767e-07	2.130255e+00	2.994809e+00	-6.58297e-02	
58	1.058767e-07	2.165456e+00	3.029639e+00	-6.65961e-02	
59	1.059767e-07	2.200571e+00	3.064380e+00	-6.73605e-02	
60	1.060767e-07	2.235599e+00	3.099032e+00	-6.81230e-02	
61	1.061767e-07	2.270539e+00	3.133593e+00	-6.88835e-02	
62	1.062767e-07	2.305390e+00	3.168061e+00	-6.96419e-02	
63	1.063767e-07	2.340149e+00	3.202436e+00	-7.03983e-02	
64	1.064767e-07	2.374816e+00	3.236715e+00	-7.11525e-02	
65	1.065767e-07	2.409390e+00	3.270898e+00	-7.19047e-02	
66	1.066767e-07	2.443868e+00	3.304983e+00	-7.26547e-02	
67	1.067767e-07	2.478250e+00	3.338969e+00	-7.34025e-02	
68	1.068767e-07	2.512534e+00	3.372854e+00	-7.41481e-02	
69	1.069767e-07	2.546718e+00	3.406638e+00	-7.48915e-02	
70	1.070767e-07	2.580802e+00	3.440318e+00	-7.56326e-02	
71	1.071767e-07	2.614785e+00	3.473893e+00	-7.63714e-02	
72	1.072767e-07	2.648664e+00	3.507363e+00	-7.71079e-02	
73	1.073767e-07	2.682438e+00	3.540725e+00	-7.78420e-02	
74	1.074767e-07	2.716107e+00	3.573979e+00	-7.85737e-02	
75	1.075767e-07	2.749668e+00	3.607122e+00	-7.93030e-02	
76	1.076767e-07	2.783121e+00	3.640155e+00	-8.00299e-02	
77	1.077767e-07	2.816464e+00	3.673074e+00	-8.07542e-02	
78	1.078767e-07	2.849696e+00	3.705880e+00	-8.14761e-02	
79	1.079767e-07	2.882815e+00	3.738570e+00	-8.21955e-02	
80	1.080767e-07	2.915820e+00	3.771144e+00	-8.29122e-02	
81	1.081767e-07	2.948711e+00	3.803600e+00	-8.36264e-02	
82	1.082767e-07	2.981485e+00	3.835937e+00	-8.43380e-02	
83	1.083767e-07	3.014141e+00	3.868154e+00	-8.50469e-02	
84	1.084767e-07	3.046678e+00	3.900248e+00	-8.57531e-02	
85	1.085767e-07	3.079095e+00	3.932220e+00	-8.64567e-02	
86	1.086767e-07	3.111390e+00	3.964067e+00	-8.71575e-02	
87	1.087767e-07	3.143563e+00	3.995789e+00	-8.78555e-02	
88	1.088767e-07	3.175611e+00	4.027384e+00	-8.85508e-02	
89	1.089767e-07	3.207534e+00	4.058851e+00	-8.92432e-02	
90	1.090767e-07	3.239331e+00	4.090188e+00	-8.99328e-02	
91	1.091767e-07	3.271000e+00	4.121395e+00	-9.06195e-02	
92	1.092767e-07	3.302539e+00	4.152470e+00	-9.13033e-02	
93	1.093767e-07	3.333948e+00	4.183411e+00	-9.19842e-02	
94	1.094767e-07	3.365225e+00	4.214218e+00	-9.26621e-02	
95	1.095767e-07	3.396370e+00	4.244890e+00	-9.33370e-02	
96	1.096767e-07	3.427381e+00	4.275425e+00	-9.40090e-02	
97	1.097767e-07	3.458256e+00	4.305821e+00	-9.46779e-02	
98	1.098767e-07	3.488994e+00	4.336078e+00	-9.53437e-02	
99	1.099767e-07	3.519595e+00	4.366195e+00	-9.60064e-02	
100	1.100767e-07	3.550057e+00	4.396170e+00	-9.66661e-02	
101	1.101767e-07	3.580379e+00	4.426002e+00	-9.73225e-02	
102	1.102767e-07	3.610560e+00	4.455690e+00	-9.79759e-02	
103	1.103767e-07	3.640598e+00	4.485232e+00	-9.86260e-02	
104	1.104767e-07	3.670492e+00	4.514628e+00	-9.92729e-02	
105	1.105767e-07	3.700241e+00	4.543876e+00	-9.99165e-02	
106	1.106767e-07	3.729844e+00	4.572975e+00	-1.00557e-01	
107	1.107767e-07	3.759300e+00	4.601924e+00	-1.01194e-01	
108	1.108767e-07	3.788608e+00	4.630722e+00	-1.01828e-01	
109	1.109767e-07	3.817766e+00	4.659368e+00	-1.02458e-01	
110	1.110767e-07	3.846773e+00	4.687859e+00	-1.03085e-01	
111	1.111767e-07	3.875629e+00	4.716196e+00	-1.03709e-01	
112	1.112767e-07	3.904331e+00	4.744378e+00	-1.04329e-01	

Index   time            v(1)            v(6)            i(vd)           
--------------------------------------------------------------------------------
113	1.113767e-07	3.932879e+00	4.772402e+00	-1.04946e-01	
114	1.114767e-07	3.961272e+00	4.800267e+00	-1.05559e-01	
115	1.115767e-07	3.989509e+00	4.827974e+00	-1.06169e-01	
116	1.116767e-07	4.017588e+00	4.855520e+00	-1.06775e-01	
117	1.117767e-07	4.045509e+00	4.882905e+00	-1.07377e-01	
118	1.118767e-07	4.073270e+00	4.910127e+00	-1.07976e-01	
119	1.119767e-07	4.100870e+00	4.937185e+00	-1.08572e-01	
120	1.120767e-07	4.128308e+00	4.964078e+00	-1.09164e-01	
121	1.121767e-07	4.155583e+00	4.990805e+00	-1.09752e-01	
122	1.122767e-07	4.182694e+00	5.017366e+00	-1.10337e-01	
123	1.123767e-07	4.209640e+00	5.043758e+00	-1.10917e-01	
124	1.124767e-07	4.236420e+00	5.069981e+00	-1.11494e-01	
125	1.125767e-07	4.263032e+00	5.096033e+00	-1.12068e-01	
126	1.126767e-07	4.289476e+00	5.121914e+00	-1.12637e-01	
127	1.127767e-07	4.315751e+00	5.147623e+00	-1.13203e-01	
128	1.128767e-07	4.341856e+00	5.173159e+00	-1.13765e-01	
129	1.129767e-07	4.367789e+00	5.198519e+00	-1.14323e-01	
130	1.130767e-07	4.393550e+00	5.223705e+00	-1.14878e-01	
131	1.131767e-07	4.419137e+00	5.248713e+00	-1.15428e-01	
132	1.132767e-07	4.444550e+00	5.273545e+00	-1.15975e-01	
133	1.133767e-07	4.469787e+00	5.298197e+00	-1.16517e-01	
134	1.134767e-07	4.494848e+00	5.322670e+00	-1.17056e-01	
135	1.135767e-07	4.519731e+00	5.346962e+00	-1.17590e-01	
136	1.136767e-07	4.544436e+00	5.371072e+00	-1.18121e-01	
137	1.137767e-07	4.568962e+00	5.395000e+00	-1.18648e-01	
138	1.138767e-07	4.593307e+00	5.418744e+00	-1.19170e-01	
139	1.139767e-07	4.617471e+00	5.442304e+00	-1.19689e-01	
140	1.140767e-07	4.641452e+00	5.465678e+00	-1.20203e-01	
141	1.141767e-07	4.665250e+00	5.488865e+00	-1.20714e-01	
142	1.142767e-07	4.688865e+00	5.511865e+00	-1.21220e-01	
143	1.143767e-07	4.712294e+00	5.534676e+00	-1.21722e-01	
144	1.144767e-07	4.735537e+00	5.557298e+00	-1.22220e-01	
145	1.145767e-07	4.758593e+00	5.579730e+00	-1.22713e-01	
146	1.146767e-07	4.781461e+00	5.601970e+00	-1.23203e-01	
147	1.147767e-07	4.804140e+00	5.624018e+00	-1.23688e-01	
148	1.148767e-07	4.826630e+00	5.645872e+00	-1.24169e-01	
149	1.149767e-07	4.848929e+00	5.667533e+00	-1.24646e-01	
150	1.150767e-07	4.871037e+00	5.688998e+00	-1.25118e-01	
151	1.151767e-07	4.892953e+00	5.710268e+00	-1.25587e-01	
152	1.152767e-07	4.914675e+00	5.731341e+00	-1.26050e-01	
153	1.153767e-07	4.936203e+00	5.752216e+00	-1.26510e-01	
154	1.154767e-07	4.957537e+00	5.772892e+00	-1.26965e-01	
155	1.155767e-07	4.978674e+00	5.793369e+00	-1.27416e-01	
156	1.156767e-07	4.999615e+00	5.813646e+00	-1.27862e-01	
157	1.157767e-07	5.020359e+00	5.833721e+00	-1.28304e-01	
158	1.158767e-07	5.040905e+00	5.853594e+00	-1.28741e-01	
159	1.159767e-07	5.061251e+00	5.873265e+00	-1.29174e-01	
160	1.160767e-07	5.081398e+00	5.892731e+00	-1.29603e-01	
161	1.161767e-07	5.101344e+00	5.911993e+00	-1.30027e-01	
162	1.162767e-07	5.121089e+00	5.931050e+00	-1.30446e-01	
163	1.163767e-07	5.140632e+00	5.949900e+00	-1.30861e-01	
164	1.164767e-07	5.159971e+00	5.968543e+00	-1.31272e-01	
165	1.165767e-07	5.179107e+00	5.986979e+00	-1.31678e-01	
166	1.166767e-07	5.198039e+00	6.005205e+00	-1.32079e-01	
167	1.167767e-07	5.216765e+00	6.023222e+00	-1.32475e-01	
168	1.168767e-07	5.235285e+00	6.041029e+00	-1.32867e-01	
169	1.169767e-07	5.253599e+00	6.058624e+00	-1.33255e-01	
170	1.170767e-07	5.271705e+00	6.076008e+00	-1.33637e-01	

Index   time            v(1)            v(6)            i(vd)           
--------------------------------------------------------------------------------
171	1.171767e-07	5.289604e+00	6.093179e+00	-1.34015e-01	
172	1.172767e-07	5.307293e+00	6.110136e+00	-1.34389e-01	
173	1.173767e-07	5.324773e+00	6.126880e+00	-1.34757e-01	
174	1.174767e-07	5.342042e+00	6.143408e+00	-1.35121e-01	
175	1.175767e-07	5.359101e+00	6.159721e+00	-1.35480e-01	
176	1.176767e-07	5.375948e+00	6.175817e+00	-1.35835e-01	
177	1.177767e-07	5.392583e+00	6.191696e+00	-1.36184e-01	
178	1.178767e-07	5.409005e+00	6.207357e+00	-1.36529e-01	
179	1.179767e-07	5.425213e+00	6.222799e+00	-1.36869e-01	
180	1.180767e-07	5.441208e+00	6.238022e+00	-1.37204e-01	
181	1.181767e-07	5.456987e+00	6.253025e+00	-1.37534e-01	
182	1.182767e-07	5.472551e+00	6.267806e+00	-1.37860e-01	
183	1.183767e-07	5.487899e+00	6.282367e+00	-1.38180e-01	
184	1.184767e-07	5.503030e+00	6.296705e+00	-1.38496e-01	
185	1.185767e-07	5.517944e+00	6.310820e+00	-1.38807e-01	
186	1.186767e-07	5.532641e+00	6.324712e+00	-1.39113e-01	
187	1.187767e-07	5.547118e+00	6.338379e+00	-1.39414e-01	
188	1.188767e-07	5.561377e+00	6.351821e+00	-1.39710e-01	
189	1.189767e-07	5.575417e+00	6.365038e+00	-1.40001e-01	
190	1.190767e-07	5.589236e+00	6.378028e+00	-1.40287e-01	
191	1.191767e-07	5.602834e+00	6.390791e+00	-1.40568e-01	
192	1.192767e-07	5.616212e+00	6.403326e+00	-1.40844e-01	
193	1.193767e-07	5.629367e+00	6.415633e+00	-1.41115e-01	
194	1.194767e-07	5.642301e+00	6.427711e+00	-1.41381e-01	
195	1.195767e-07	5.655011e+00	6.439559e+00	-1.41642e-01	
196	1.196767e-07	5.667499e+00	6.451177e+00	-1.41898e-01	
197	1.197767e-07	5.679762e+00	6.462564e+00	-1.42148e-01	
198	1.198767e-07	5.691802e+00	6.473719e+00	-1.42394e-01	
199	1.199767e-07	5.703616e+00	6.484642e+00	-1.42635e-01	
200	1.200767e-07	5.715206e+00	6.495332e+00	-1.42870e-01	
201	1.201767e-07	5.726570e+00	6.505789e+00	-1.43100e-01	
202	1.202767e-07	5.737708e+00	6.516011e+00	-1.43326e-01	
203	1.203767e-07	5.748619e+00	6.525998e+00	-1.43545e-01	
204	1.204767e-07	5.759303e+00	6.535750e+00	-1.43760e-01	
205	1.205767e-07	5.769760e+00	6.545265e+00	-1.43970e-01	
206	1.206767e-07	5.779989e+00	6.554544e+00	-1.44174e-01	
207	1.207767e-07	5.789990e+00	6.563585e+00	-1.44373e-01	
208	1.208767e-07	5.799763e+00	6.572388e+00	-1.44567e-01	
209	1.209767e-07	5.809306e+00	6.580952e+00	-1.44756e-01	
210	1.210767e-07	5.818621e+00	6.589277e+00	-1.44939e-01	
211	1.211767e-07	5.827705e+00	6.597362e+00	-1.45118e-01	
212	1.212767e-07	5.836559e+00	6.605206e+00	-1.45290e-01	
213	1.213767e-07	5.845183e+00	6.612809e+00	-1.45458e-01	
214	1.214767e-07	5.853576e+00	6.620169e+00	-1.45620e-01	
215	1.215767e-07	5.861739e+00	6.627287e+00	-1.45777e-01	
216	1.216767e-07	5.869669e+00	6.634161e+00	-1.45929e-01	
217	1.217767e-07	5.877368e+00	6.640791e+00	-1.46075e-01	
218	1.218767e-07	5.884835e+00	6.647176e+00	-1.46215e-01	
219	1.219767e-07	5.892070e+00	6.653315e+00	-1.46351e-01	
220	1.220767e-07	5.899072e+00	6.659208e+00	-1.46481e-01	
221	1.221767e-07	5.905841e+00	6.664854e+00	-1.46605e-01	
222	1.222767e-07	5.912377e+00	6.670252e+00	-1.46724e-01	
223	1.223767e-07	5.918679e+00	6.675401e+00	-1.46838e-01	
224	1.224767e-07	5.924748e+00	6.680301e+00	-1.46946e-01	
225	1.225767e-07	5.930583e+00	6.684950e+00	-1.47048e-01	
226	1.226767e-07	5.936184e+00	6.689348e+00	-1.47145e-01	
227	1.227767e-07	5.941551e+00	6.693494e+00	-1.47237e-01	
228	1.228767e-07	5.946683e+00	6.697386e+00	-1.47323e-01	

Index   time            v(1)            v(6)            i(vd)           
--------------------------------------------------------------------------------
229	1.229767e-07	5.951580e+00	6.701025e+00	-1.47403e-01	
230	1.230767e-07	5.956242e+00	6.704409e+00	-1.47478e-01	
231	1.231767e-07	5.960669e+00	6.707536e+00	-1.47547e-01	
232	1.232767e-07	5.964861e+00	6.710406e+00	-1.47610e-01	
233	1.233767e-07	5.968817e+00	6.713017e+00	-1.47668e-01	
234	1.234767e-07	5.972538e+00	6.715369e+00	-1.47720e-01	
235	1.235767e-07	5.976023e+00	6.717460e+00	-1.47766e-01	
236	1.236767e-07	5.979272e+00	6.719289e+00	-1.47807e-01	
237	1.237767e-07	5.982285e+00	6.720854e+00	-1.47841e-01	
238	1.238767e-07	5.985061e+00	6.722153e+00	-1.47870e-01	
239	1.239767e-07	5.987602e+00	6.723186e+00	-1.47893e-01	
240	1.240767e-07	5.989906e+00	6.723949e+00	-1.47910e-01	
241	1.241767e-07	5.991974e+00	6.724442e+00	-1.47921e-01	
242	1.242767e-07	5.993805e+00	6.724662e+00	-1.47926e-01	
243	1.243767e-07	5.995399e+00	6.724607e+00	-1.47926e-01	
244	1.244767e-07	5.996757e+00	6.724275e+00	-1.47919e-01	
245	1.245767e-07	5.997878e+00	6.723663e+00	-1.47905e-01	
246	1.246767e-07	5.998762e+00	6.722768e+00	-1.47886e-01	
247	1.247767e-07	5.999409e+00	6.721586e+00	-1.47860e-01	
248	1.248767e-07	5.999820e+00	6.720115e+00	-1.47828e-01	
249	1.249767e-07	5.999994e+00	6.718351e+00	-1.47790e-01	
250	1.250767e-07	5.999930e+00	6.716289e+00	-1.47744e-01	
251	1.251767e-07	5.999630e+00	6.713924e+00	-1.47693e-01	
252	1.252767e-07	5.999093e+00	6.711252e+00	-1.47634e-01	
253	1.253767e-07	5.998320e+00	6.708266e+00	-1.47569e-01	
254	1.254767e-07	5.997309e+00	6.704959e+00	-1.47496e-01	
255	1.255767e-07	5.996062e+00	6.701325e+00	-1.47417e-01	
256	1.256767e-07	5.994578e+00	6.697353e+00	-1.47329e-01	
257	1.257767e-07	5.992857e+00	6.693033e+00	-1.47235e-01	
258	1.258767e-07	5.990900e+00	6.688355e+00	-1.47132e-01	
259	1.259767e-07	5.988706e+00	6.683304e+00	-1.47021e-01	
260	1.260767e-07	5.986276e+00	6.677863e+00	-1.46902e-01	
261	1.261767e-07	5.983609e+00	6.672013e+00	-1.46773e-01	
262	1.262767e-07	5.980706e+00	6.665732e+00	-1.46635e-01	
263	1.263767e-07	5.977568e+00	6.658989e+00	-1.46487e-01	
264	1.264767e-07	5.974193e+00	6.651750e+00	-1.46328e-01	
265	1.265767e-07	5.970582e+00	6.643970e+00	-1.46157e-01	
266	1.266767e-07	5.966736e+00	6.635592e+00	-1.45973e-01	
267	1.267767e-07	5.962654e+00	6.626540e+00	-1.45775e-01	
268	1.268767e-07	5.958336e+00	6.616716e+00	-1.45559e-01	
269	1.269767e-07	5.953784e+00	6.605977e+00	-1.45323e-01	
270	1.270767e-07	5.948996e+00	6.594123e+00	-1.45062e-01	
271	1.271767e-07	5.943974e+00	6.580845e+00	-1.44770e-01	
272	1.272767e-07	5.938716e+00	6.565640e+00	-1.44436e-01	
273	1.273767e-07	5.933225e+00	6.547609e+00	-1.44040e-01	
274	1.274767e-07	5.927499e+00	6.524907e+00	-1.43540e-01	
275	1.275767e-07	5.921539e+00	6.492801e+00	-1.42834e-01	
276	1.276767e-07	5.915346e+00	6.419980e+00	-1.41233e-01	
277	1.277767e-07	5.908918e+00	-5.18104e-01	1.140519e-02	
278	1.278752e-07	5.902360e+00	2.925518e-01	-6.42924e-03	
279	1.279129e-07	5.899788e+00	-4.72302e-02	1.045967e-03	
280	1.279657e-07	5.896135e+00	1.418535e-02	-3.05174e-04	
281	1.280558e-07	5.889743e+00	-8.59070e-03	1.958987e-04	
282	1.281497e-07	5.882886e+00	3.661234e-03	-7.36438e-05	
283	1.282497e-07	5.875358e+00	-3.20867e-03	7.749401e-05	
284	1.283497e-07	5.867598e+00	6.628635e-04	-7.67964e-06	
285	1.284497e-07	5.859606e+00	-1.59718e-03	4.204124e-05	
286	1.285497e-07	5.851383e+00	-3.57356e-04	1.476524e-05	

Index   time            v(1)            v(6)            i(vd)           
--------------------------------------------------------------------------------
287	1.286497e-07	5.842929e+00	-1.11457e-03	3.142409e-05	
288	1.287497e-07	5.834244e+00	-7.32175e-04	2.301133e-05	
289	1.288497e-07	5.825329e+00	-9.99928e-04	2.890194e-05	
290	1.289497e-07	5.816184e+00	-8.96709e-04	2.663116e-05	
291	1.290497e-07	5.806809e+00	-1.00506e-03	2.901487e-05	
292	1.291497e-07	5.797205e+00	-9.92674e-04	2.874247e-05	
293	1.292497e-07	5.787372e+00	-1.04909e-03	2.998373e-05	
294	1.293497e-07	5.777311e+00	-1.06622e-03	3.036053e-05	
295	1.294497e-07	5.767022e+00	-1.10569e-03	3.122899e-05	
296	1.295497e-07	5.756505e+00	-1.13236e-03	3.181582e-05	
297	1.296497e-07	5.745760e+00	-1.16627e-03	3.256187e-05	
298	1.297497e-07	5.734789e+00	-1.19600e-03	3.321580e-05	
299	1.298497e-07	5.723592e+00	-1.22804e-03	3.392085e-05	
300	1.299497e-07	5.712168e+00	-1.25870e-03	3.459534e-05	
301	1.300497e-07	5.700519e+00	-1.29008e-03	3.528580e-05	
302	1.301497e-07	5.688645e+00	-1.32098e-03	3.596569e-05	
303	1.302497e-07	5.676546e+00	-1.35209e-03	3.665010e-05	
304	1.303497e-07	5.664224e+00	-1.38301e-03	3.733041e-05	
305	1.304497e-07	5.651677e+00	-1.41396e-03	3.801149e-05	
306	1.305497e-07	5.638908e+00	-1.44483e-03	3.869055e-05	
307	1.306497e-07	5.625916e+00	-1.47567e-03	3.936915e-05	
308	1.307497e-07	5.612701e+00	-1.50645e-03	4.004637e-05	
309	1.308497e-07	5.599266e+00	-1.53719e-03	4.072271e-05	
310	1.309497e-07	5.585609e+00	-1.56788e-03	4.139786e-05	
311	1.310497e-07	5.571732e+00	-1.59852e-03	4.207197e-05	
312	1.311497e-07	5.557634e+00	-1.62910e-03	4.274492e-05	
313	1.312497e-07	5.543318e+00	-1.65964e-03	4.341676e-05	
314	1.313497e-07	5.528782e+00	-1.69012e-03	4.408743e-05	
315	1.314497e-07	5.514028e+00	-1.72055e-03	4.475693e-05	
316	1.315497e-07	5.499057e+00	-1.75092e-03	4.542525e-05	
317	1.316497e-07	5.483868e+00	-1.78124e-03	4.609236e-05	
318	1.317497e-07	5.468463e+00	-1.81151e-03	4.675825e-05	
319	1.318497e-07	5.452842e+00	-1.84171e-03	4.742290e-05	
320	1.319497e-07	5.437006e+00	-1.87187e-03	4.808630e-05	
321	1.320497e-07	5.420955e+00	-1.90196e-03	4.874842e-05	
322	1.321497e-07	5.404690e+00	-1.93199e-03	4.940926e-05	
323	1.322497e-07	5.388212e+00	-1.96197e-03	5.006880e-05	
324	1.323497e-07	5.371521e+00	-1.99188e-03	5.072702e-05	
325	1.324497e-07	5.354618e+00	-2.02174e-03	5.138390e-05	
326	1.325497e-07	5.337503e+00	-2.05153e-03	5.203943e-05	
327	1.326497e-07	5.320178e+00	-2.08126e-03	5.269359e-05	
328	1.327497e-07	5.302643e+00	-2.11093e-03	5.334637e-05	
329	1.328497e-07	5.284899e+00	-2.14054e-03	5.399776e-05	
330	1.329497e-07	5.266946e+00	-2.17008e-03	5.464772e-05	
331	1.330497e-07	5.248784e+00	-2.19955e-03	5.529626e-05	
