            * rf switch using rn142 junction diodes with vbias = 1v
            Transient Analysis  Sun Aug 28 21:26:02  2022
--------------------------------------------------------------------------------
Index   time            v(1)            v(6)            i(vd)           
--------------------------------------------------------------------------------
0	1.000197e-07	7.409378e-03	2.457922e-01	-5.00139e-03	
1	1.001197e-07	4.510807e-02	2.833303e-01	-5.82724e-03	
2	1.002197e-07	8.280497e-02	3.208639e-01	-6.65299e-03	
3	1.003197e-07	1.204986e-01	3.583917e-01	-7.47862e-03	
4	1.004197e-07	1.581875e-01	3.959121e-01	-8.30408e-03	
5	1.005197e-07	1.958701e-01	4.334236e-01	-9.12935e-03	
6	1.006197e-07	2.335450e-01	4.709248e-01	-9.95440e-03	
7	1.007197e-07	2.712107e-01	5.084142e-01	-1.07792e-02	
8	1.008197e-07	3.088657e-01	5.458903e-01	-1.16037e-02	
9	1.009197e-07	3.465085e-01	5.833516e-01	-1.24278e-02	
10	1.010197e-07	3.841376e-01	6.207966e-01	-1.32517e-02	
11	1.011197e-07	4.217515e-01	6.582239e-01	-1.40751e-02	
12	1.012197e-07	4.593488e-01	6.956319e-01	-1.48981e-02	
13	1.013197e-07	4.969280e-01	7.330193e-01	-1.57206e-02	
14	1.014197e-07	5.344875e-01	7.703844e-01	-1.65427e-02	
15	1.015197e-07	5.720259e-01	8.077259e-01	-1.73642e-02	
16	1.016197e-07	6.095418e-01	8.450423e-01	-1.81852e-02	
17	1.017197e-07	6.470336e-01	8.823320e-01	-1.90057e-02	
18	1.018197e-07	6.844998e-01	9.195936e-01	-1.98254e-02	
19	1.019197e-07	7.219391e-01	9.568257e-01	-2.06446e-02	
20	1.020197e-07	7.593498e-01	9.940268e-01	-2.14630e-02	
21	1.021197e-07	7.967305e-01	1.031195e+00	-2.22808e-02	
22	1.022197e-07	8.340798e-01	1.068330e+00	-2.30978e-02	
23	1.023197e-07	8.713962e-01	1.105429e+00	-2.39140e-02	
24	1.024197e-07	9.086781e-01	1.142491e+00	-2.47294e-02	
25	1.025197e-07	9.459242e-01	1.179515e+00	-2.55440e-02	
26	1.026197e-07	9.831330e-01	1.216499e+00	-2.63577e-02	
27	1.027197e-07	1.020303e+00	1.253441e+00	-2.71705e-02	
28	1.028197e-07	1.057433e+00	1.290341e+00	-2.79823e-02	
29	1.029197e-07	1.094520e+00	1.327197e+00	-2.87932e-02	
30	1.030197e-07	1.131565e+00	1.364007e+00	-2.96031e-02	
31	1.031197e-07	1.168565e+00	1.400769e+00	-3.04119e-02	
32	1.032197e-07	1.205519e+00	1.437484e+00	-3.12197e-02	
33	1.033197e-07	1.242425e+00	1.474148e+00	-3.20264e-02	
34	1.034197e-07	1.279283e+00	1.510760e+00	-3.28319e-02	
35	1.035197e-07	1.316089e+00	1.547320e+00	-3.36363e-02	
36	1.036197e-07	1.352844e+00	1.583825e+00	-3.44394e-02	
37	1.037197e-07	1.389546e+00	1.620274e+00	-3.52414e-02	
38	1.038197e-07	1.426192e+00	1.656666e+00	-3.60421e-02	
39	1.039197e-07	1.462782e+00	1.693000e+00	-3.68415e-02	
40	1.040197e-07	1.499315e+00	1.729273e+00	-3.76396e-02	
41	1.041197e-07	1.535788e+00	1.765484e+00	-3.84363e-02	
42	1.042197e-07	1.572201e+00	1.801633e+00	-3.92316e-02	
43	1.043197e-07	1.608551e+00	1.837717e+00	-4.00255e-02	
44	1.044197e-07	1.644838e+00	1.873735e+00	-4.08180e-02	
45	1.045197e-07	1.681061e+00	1.909685e+00	-4.16090e-02	
46	1.046197e-07	1.717216e+00	1.945567e+00	-4.23985e-02	
47	1.047197e-07	1.753304e+00	1.981379e+00	-4.31864e-02	
48	1.048197e-07	1.789323e+00	2.017119e+00	-4.39728e-02	
49	1.049197e-07	1.825271e+00	2.052786e+00	-4.47575e-02	
50	1.050197e-07	1.861147e+00	2.088379e+00	-4.55407e-02	
51	1.051197e-07	1.896950e+00	2.123896e+00	-4.63221e-02	
52	1.052197e-07	1.932678e+00	2.159336e+00	-4.71019e-02	
53	1.053197e-07	1.968329e+00	2.194697e+00	-4.78799e-02	
54	1.054197e-07	2.003903e+00	2.229977e+00	-4.86562e-02	

Index   time            v(1)            v(6)            i(vd)           
--------------------------------------------------------------------------------
55	1.055197e-07	2.039397e+00	2.265177e+00	-4.94306e-02	
56	1.056197e-07	2.074811e+00	2.300293e+00	-5.02033e-02	
57	1.057197e-07	2.110144e+00	2.335326e+00	-5.09741e-02	
58	1.058197e-07	2.145392e+00	2.370272e+00	-5.17430e-02	
59	1.059197e-07	2.180557e+00	2.405132e+00	-5.25100e-02	
60	1.060197e-07	2.215635e+00	2.439903e+00	-5.32751e-02	
61	1.061197e-07	2.250625e+00	2.474585e+00	-5.40382e-02	
62	1.062197e-07	2.285527e+00	2.509175e+00	-5.47993e-02	
63	1.063197e-07	2.320339e+00	2.543673e+00	-5.55583e-02	
64	1.064197e-07	2.355059e+00	2.578077e+00	-5.63153e-02	
65	1.065197e-07	2.389686e+00	2.612386e+00	-5.70702e-02	
66	1.066197e-07	2.424218e+00	2.646598e+00	-5.78230e-02	
67	1.067197e-07	2.458655e+00	2.680712e+00	-5.85736e-02	
68	1.068197e-07	2.492995e+00	2.714726e+00	-5.93220e-02	
69	1.069197e-07	2.527236e+00	2.748640e+00	-6.00682e-02	
70	1.070197e-07	2.561378e+00	2.782452e+00	-6.08122e-02	
71	1.071197e-07	2.595419e+00	2.816161e+00	-6.15539e-02	
72	1.072197e-07	2.629357e+00	2.849765e+00	-6.22933e-02	
73	1.073197e-07	2.663191e+00	2.883263e+00	-6.30304e-02	
74	1.074197e-07	2.696920e+00	2.916653e+00	-6.37651e-02	
75	1.075197e-07	2.730543e+00	2.949935e+00	-6.44974e-02	
76	1.076197e-07	2.764058e+00	2.983107e+00	-6.52273e-02	
77	1.077197e-07	2.797463e+00	3.016167e+00	-6.59548e-02	
78	1.078197e-07	2.830759e+00	3.049115e+00	-6.66797e-02	
79	1.079197e-07	2.863942e+00	3.081949e+00	-6.74022e-02	
80	1.080197e-07	2.897013e+00	3.114668e+00	-6.81221e-02	
81	1.081197e-07	2.929969e+00	3.147270e+00	-6.88395e-02	
82	1.082197e-07	2.962809e+00	3.179754e+00	-6.95543e-02	
83	1.083197e-07	2.995533e+00	3.212119e+00	-7.02664e-02	
84	1.084197e-07	3.028138e+00	3.244363e+00	-7.09759e-02	
85	1.085197e-07	3.060624e+00	3.276486e+00	-7.16828e-02	
86	1.086197e-07	3.092989e+00	3.308486e+00	-7.23869e-02	
87	1.087197e-07	3.125231e+00	3.340362e+00	-7.30883e-02	
88	1.088197e-07	3.157351e+00	3.372112e+00	-7.37869e-02	
89	1.089197e-07	3.189345e+00	3.403735e+00	-7.44828e-02	
90	1.090197e-07	3.221214e+00	3.435230e+00	-7.51758e-02	
91	1.091197e-07	3.252956e+00	3.466596e+00	-7.58660e-02	
92	1.092197e-07	3.284569e+00	3.497832e+00	-7.65533e-02	
93	1.093197e-07	3.316053e+00	3.528935e+00	-7.72377e-02	
94	1.094197e-07	3.347405e+00	3.559906e+00	-7.79192e-02	
95	1.095197e-07	3.378626e+00	3.590742e+00	-7.85978e-02	
96	1.096197e-07	3.409713e+00	3.621443e+00	-7.92733e-02	
97	1.097197e-07	3.440665e+00	3.652007e+00	-7.99459e-02	
98	1.098197e-07	3.471482e+00	3.682433e+00	-8.06154e-02	
99	1.099197e-07	3.502162e+00	3.712720e+00	-8.12819e-02	
100	1.100197e-07	3.532703e+00	3.742867e+00	-8.19453e-02	
101	1.101197e-07	3.563105e+00	3.772872e+00	-8.26055e-02	
102	1.102197e-07	3.593366e+00	3.802734e+00	-8.32626e-02	
103	1.103197e-07	3.623486e+00	3.832452e+00	-8.39166e-02	
104	1.104197e-07	3.653462e+00	3.862026e+00	-8.45674e-02	
105	1.105197e-07	3.683294e+00	3.891453e+00	-8.52149e-02	
106	1.106197e-07	3.712981e+00	3.920732e+00	-8.58592e-02	
107	1.107197e-07	3.742521e+00	3.949863e+00	-8.65003e-02	
108	1.108197e-07	3.771913e+00	3.978844e+00	-8.71380e-02	
109	1.109197e-07	3.801157e+00	4.007675e+00	-8.77724e-02	
110	1.110197e-07	3.830250e+00	4.036353e+00	-8.84035e-02	
111	1.111197e-07	3.859192e+00	4.064878e+00	-8.90312e-02	
112	1.112197e-07	3.887982e+00	4.093248e+00	-8.96555e-02	

Index   time            v(1)            v(6)            i(vd)           
--------------------------------------------------------------------------------
113	1.113197e-07	3.916618e+00	4.121463e+00	-9.02764e-02	
114	1.114197e-07	3.945100e+00	4.149521e+00	-9.08939e-02	
115	1.115197e-07	3.973426e+00	4.177422e+00	-9.15079e-02	
116	1.116197e-07	4.001595e+00	4.205164e+00	-9.21183e-02	
117	1.117197e-07	4.029606e+00	4.232745e+00	-9.27253e-02	
118	1.118197e-07	4.057458e+00	4.260166e+00	-9.33287e-02	
119	1.119197e-07	4.085150e+00	4.287424e+00	-9.39286e-02	
120	1.120197e-07	4.112681e+00	4.314520e+00	-9.45249e-02	
121	1.121197e-07	4.140049e+00	4.341451e+00	-9.51175e-02	
122	1.122197e-07	4.167254e+00	4.368216e+00	-9.57065e-02	
123	1.123197e-07	4.194294e+00	4.394815e+00	-9.62919e-02	
124	1.124197e-07	4.221169e+00	4.421246e+00	-9.68735e-02	
125	1.125197e-07	4.247877e+00	4.447509e+00	-9.74515e-02	
126	1.126197e-07	4.274417e+00	4.473602e+00	-9.80257e-02	
127	1.127197e-07	4.300789e+00	4.499525e+00	-9.85962e-02	
128	1.128197e-07	4.326990e+00	4.525275e+00	-9.91629e-02	
129	1.129197e-07	4.353021e+00	4.550853e+00	-9.97258e-02	
130	1.130197e-07	4.378880e+00	4.576258e+00	-1.00285e-01	
131	1.131197e-07	4.404567e+00	4.601487e+00	-1.00840e-01	
132	1.132197e-07	4.430079e+00	4.626540e+00	-1.01391e-01	
133	1.133197e-07	4.455417e+00	4.651417e+00	-1.01939e-01	
134	1.134197e-07	4.480578e+00	4.676116e+00	-1.02482e-01	
135	1.135197e-07	4.505563e+00	4.700636e+00	-1.03022e-01	
136	1.136197e-07	4.530370e+00	4.724976e+00	-1.03558e-01	
137	1.137197e-07	4.554998e+00	4.749136e+00	-1.04089e-01	
138	1.138197e-07	4.579446e+00	4.773113e+00	-1.04617e-01	
139	1.139197e-07	4.603713e+00	4.796908e+00	-1.05141e-01	
140	1.140197e-07	4.627799e+00	4.820520e+00	-1.05661e-01	
141	1.141197e-07	4.651702e+00	4.843946e+00	-1.06176e-01	
142	1.142197e-07	4.675421e+00	4.867188e+00	-1.06688e-01	
143	1.143197e-07	4.698956e+00	4.890242e+00	-1.07195e-01	
144	1.144197e-07	4.722305e+00	4.913110e+00	-1.07698e-01	
145	1.145197e-07	4.745468e+00	4.935789e+00	-1.08197e-01	
146	1.146197e-07	4.768443e+00	4.958278e+00	-1.08692e-01	
147	1.147197e-07	4.791230e+00	4.980578e+00	-1.09183e-01	
148	1.148197e-07	4.813828e+00	5.002687e+00	-1.09670e-01	
149	1.149197e-07	4.836236e+00	5.024603e+00	-1.10152e-01	
150	1.150197e-07	4.858453e+00	5.046327e+00	-1.10630e-01	
151	1.151197e-07	4.880479e+00	5.067857e+00	-1.11104e-01	
152	1.152197e-07	4.902311e+00	5.089193e+00	-1.11574e-01	
153	1.153197e-07	4.923950e+00	5.110333e+00	-1.12039e-01	
154	1.154197e-07	4.945395e+00	5.131277e+00	-1.12500e-01	
155	1.155197e-07	4.966644e+00	5.152023e+00	-1.12957e-01	
156	1.156197e-07	4.987698e+00	5.172572e+00	-1.13409e-01	
157	1.157197e-07	5.008554e+00	5.192922e+00	-1.13857e-01	
158	1.158197e-07	5.029213e+00	5.213073e+00	-1.14300e-01	
159	1.159197e-07	5.049673e+00	5.233023e+00	-1.14739e-01	
160	1.160197e-07	5.069934e+00	5.252771e+00	-1.15174e-01	
161	1.161197e-07	5.089994e+00	5.272318e+00	-1.15604e-01	
162	1.162197e-07	5.109854e+00	5.291662e+00	-1.16030e-01	
163	1.163197e-07	5.129512e+00	5.310802e+00	-1.16451e-01	
164	1.164197e-07	5.148968e+00	5.329738e+00	-1.16868e-01	
165	1.165197e-07	5.168220e+00	5.348469e+00	-1.17280e-01	
166	1.166197e-07	5.187268e+00	5.366993e+00	-1.17688e-01	
167	1.167197e-07	5.206111e+00	5.385312e+00	-1.18091e-01	
168	1.168197e-07	5.224749e+00	5.403422e+00	-1.18490e-01	
169	1.169197e-07	5.243181e+00	5.421325e+00	-1.18884e-01	
170	1.170197e-07	5.261406e+00	5.439019e+00	-1.19274e-01	

Index   time            v(1)            v(6)            i(vd)           
--------------------------------------------------------------------------------
171	1.171197e-07	5.279422e+00	5.456503e+00	-1.19659e-01	
172	1.172197e-07	5.297231e+00	5.473776e+00	-1.20039e-01	
173	1.173197e-07	5.314830e+00	5.490839e+00	-1.20414e-01	
174	1.174197e-07	5.332220e+00	5.507690e+00	-1.20785e-01	
175	1.175197e-07	5.349399e+00	5.524329e+00	-1.21152e-01	
176	1.176197e-07	5.366367e+00	5.540754e+00	-1.21513e-01	
177	1.177197e-07	5.383123e+00	5.556966e+00	-1.21870e-01	
178	1.178197e-07	5.399666e+00	5.572963e+00	-1.22222e-01	
179	1.179197e-07	5.415996e+00	5.588746e+00	-1.22570e-01	
180	1.180197e-07	5.432113e+00	5.604312e+00	-1.22912e-01	
181	1.181197e-07	5.448015e+00	5.619662e+00	-1.23250e-01	
182	1.182197e-07	5.463702e+00	5.634795e+00	-1.23583e-01	
183	1.183197e-07	5.479173e+00	5.649711e+00	-1.23912e-01	
184	1.184197e-07	5.494428e+00	5.664408e+00	-1.24235e-01	
185	1.185197e-07	5.509466e+00	5.678886e+00	-1.24554e-01	
186	1.186197e-07	5.524287e+00	5.693145e+00	-1.24868e-01	
187	1.187197e-07	5.538889e+00	5.707184e+00	-1.25177e-01	
188	1.188197e-07	5.553273e+00	5.721002e+00	-1.25481e-01	
189	1.189197e-07	5.567437e+00	5.734600e+00	-1.25781e-01	
190	1.190197e-07	5.581382e+00	5.747975e+00	-1.26075e-01	
191	1.191197e-07	5.595107e+00	5.761128e+00	-1.26365e-01	
192	1.192197e-07	5.608610e+00	5.774058e+00	-1.26649e-01	
193	1.193197e-07	5.621892e+00	5.786765e+00	-1.26929e-01	
194	1.194197e-07	5.634952e+00	5.799247e+00	-1.27204e-01	
195	1.195197e-07	5.647790e+00	5.811505e+00	-1.27474e-01	
196	1.196197e-07	5.660405e+00	5.823539e+00	-1.27739e-01	
197	1.197197e-07	5.672796e+00	5.835346e+00	-1.27999e-01	
198	1.198197e-07	5.684963e+00	5.846928e+00	-1.28254e-01	
199	1.199197e-07	5.696906e+00	5.858284e+00	-1.28504e-01	
200	1.200197e-07	5.708624e+00	5.869412e+00	-1.28749e-01	
201	1.201197e-07	5.720117e+00	5.880313e+00	-1.28989e-01	
202	1.202197e-07	5.731384e+00	5.890986e+00	-1.29224e-01	
203	1.203197e-07	5.742424e+00	5.901430e+00	-1.29454e-01	
204	1.204197e-07	5.753238e+00	5.911646e+00	-1.29679e-01	
205	1.205197e-07	5.763825e+00	5.921632e+00	-1.29899e-01	
206	1.206197e-07	5.774184e+00	5.931389e+00	-1.30114e-01	
207	1.207197e-07	5.784315e+00	5.940916e+00	-1.30324e-01	
208	1.208197e-07	5.794218e+00	5.950212e+00	-1.30529e-01	
209	1.209197e-07	5.803892e+00	5.959277e+00	-1.30728e-01	
210	1.210197e-07	5.813337e+00	5.968111e+00	-1.30923e-01	
211	1.211197e-07	5.822553e+00	5.976714e+00	-1.31112e-01	
212	1.212197e-07	5.831538e+00	5.985084e+00	-1.31297e-01	
213	1.213197e-07	5.840294e+00	5.993221e+00	-1.31476e-01	
214	1.214197e-07	5.848818e+00	6.001126e+00	-1.31650e-01	
215	1.215197e-07	5.857112e+00	6.008798e+00	-1.31819e-01	
216	1.216197e-07	5.865175e+00	6.016236e+00	-1.31983e-01	
217	1.217197e-07	5.873006e+00	6.023440e+00	-1.32142e-01	
218	1.218197e-07	5.880606e+00	6.030410e+00	-1.32295e-01	
219	1.219197e-07	5.887973e+00	6.037145e+00	-1.32444e-01	
220	1.220197e-07	5.895107e+00	6.043646e+00	-1.32587e-01	
221	1.221197e-07	5.902009e+00	6.049912e+00	-1.32725e-01	
222	1.222197e-07	5.908678e+00	6.055942e+00	-1.32858e-01	
223	1.223197e-07	5.915114e+00	6.061736e+00	-1.32986e-01	
224	1.224197e-07	5.921316e+00	6.067294e+00	-1.33108e-01	
225	1.225197e-07	5.927285e+00	6.072616e+00	-1.33226e-01	
226	1.226197e-07	5.933019e+00	6.077702e+00	-1.33338e-01	
227	1.227197e-07	5.938519e+00	6.082551e+00	-1.33445e-01	
228	1.228197e-07	5.943785e+00	6.087162e+00	-1.33546e-01	

Index   time            v(1)            v(6)            i(vd)           
--------------------------------------------------------------------------------
229	1.229197e-07	5.948816e+00	6.091537e+00	-1.33643e-01	
230	1.230197e-07	5.953612e+00	6.095674e+00	-1.33734e-01	
231	1.231197e-07	5.958174e+00	6.099573e+00	-1.33820e-01	
232	1.232197e-07	5.962500e+00	6.103234e+00	-1.33901e-01	
233	1.233197e-07	5.966590e+00	6.106657e+00	-1.33976e-01	
234	1.234197e-07	5.970445e+00	6.109842e+00	-1.34047e-01	
235	1.235197e-07	5.974065e+00	6.112788e+00	-1.34112e-01	
236	1.236197e-07	5.977448e+00	6.115496e+00	-1.34172e-01	
237	1.237197e-07	5.980596e+00	6.117964e+00	-1.34226e-01	
238	1.238197e-07	5.983507e+00	6.120194e+00	-1.34275e-01	
239	1.239197e-07	5.986182e+00	6.122184e+00	-1.34320e-01	
240	1.240197e-07	5.988621e+00	6.123936e+00	-1.34358e-01	
241	1.241197e-07	5.990824e+00	6.125447e+00	-1.34392e-01	
242	1.242197e-07	5.992789e+00	6.126719e+00	-1.34420e-01	
243	1.243197e-07	5.994519e+00	6.127751e+00	-1.34443e-01	
244	1.244197e-07	5.996012e+00	6.128544e+00	-1.34461e-01	
245	1.245197e-07	5.997268e+00	6.129096e+00	-1.34473e-01	
246	1.246197e-07	5.998287e+00	6.129409e+00	-1.34480e-01	
247	1.247197e-07	5.999069e+00	6.129481e+00	-1.34482e-01	
248	1.248197e-07	5.999615e+00	6.129313e+00	-1.34479e-01	
249	1.249197e-07	5.999924e+00	6.128905e+00	-1.34470e-01	
250	1.250197e-07	5.999995e+00	6.128256e+00	-1.34456e-01	
251	1.251197e-07	5.999830e+00	6.127367e+00	-1.34436e-01	
252	1.252197e-07	5.999429e+00	6.126237e+00	-1.34412e-01	
253	1.253197e-07	5.998790e+00	6.124867e+00	-1.34382e-01	
254	1.254197e-07	5.997914e+00	6.123256e+00	-1.34347e-01	
255	1.255197e-07	5.996802e+00	6.121405e+00	-1.34306e-01	
256	1.256197e-07	5.995453e+00	6.119313e+00	-1.34261e-01	
257	1.257197e-07	5.993867e+00	6.116980e+00	-1.34209e-01	
258	1.258197e-07	5.992045e+00	6.114407e+00	-1.34153e-01	
259	1.259197e-07	5.989986e+00	6.111593e+00	-1.34091e-01	
260	1.260197e-07	5.987691e+00	6.108538e+00	-1.34024e-01	
261	1.261197e-07	5.985159e+00	6.105243e+00	-1.33952e-01	
262	1.262197e-07	5.982391e+00	6.101707e+00	-1.33875e-01	
263	1.263197e-07	5.979386e+00	6.097930e+00	-1.33792e-01	
264	1.264197e-07	5.976146e+00	6.093913e+00	-1.33704e-01	
265	1.265197e-07	5.972670e+00	6.089655e+00	-1.33610e-01	
266	1.266197e-07	5.968958e+00	6.085157e+00	-1.33512e-01	
267	1.267197e-07	5.965010e+00	6.080418e+00	-1.33407e-01	
268	1.268197e-07	5.960827e+00	6.075438e+00	-1.33298e-01	
269	1.269197e-07	5.956409e+00	6.070219e+00	-1.33184e-01	
270	1.270197e-07	5.951755e+00	6.064759e+00	-1.33064e-01	
271	1.271197e-07	5.946866e+00	6.059058e+00	-1.32939e-01	
272	1.272197e-07	5.941743e+00	6.053118e+00	-1.32808e-01	
273	1.273197e-07	5.936385e+00	6.046937e+00	-1.32672e-01	
274	1.274197e-07	5.930793e+00	6.040517e+00	-1.32531e-01	
275	1.275197e-07	5.924966e+00	6.033856e+00	-1.32385e-01	
276	1.276197e-07	5.918906e+00	6.026956e+00	-1.32234e-01	
277	1.277197e-07	5.912612e+00	6.019816e+00	-1.32077e-01	
278	1.278197e-07	5.906085e+00	6.012436e+00	-1.31915e-01	
279	1.279197e-07	5.899324e+00	6.004817e+00	-1.31747e-01	
280	1.280197e-07	5.892331e+00	5.996958e+00	-1.31575e-01	
281	1.281197e-07	5.885105e+00	5.988860e+00	-1.31397e-01	
282	1.282197e-07	5.877646e+00	5.980523e+00	-1.31213e-01	
283	1.283197e-07	5.869956e+00	5.971946e+00	-1.31025e-01	
284	1.284197e-07	5.862033e+00	5.963131e+00	-1.30831e-01	
285	1.285197e-07	5.853880e+00	5.954076e+00	-1.30632e-01	
286	1.286197e-07	5.845495e+00	5.944783e+00	-1.30428e-01	

Index   time            v(1)            v(6)            i(vd)           
--------------------------------------------------------------------------------
287	1.287197e-07	5.836880e+00	5.935251e+00	-1.30219e-01	
288	1.288197e-07	5.828034e+00	5.925481e+00	-1.30004e-01	
289	1.289197e-07	5.818958e+00	5.915472e+00	-1.29784e-01	
290	1.290197e-07	5.809652e+00	5.905224e+00	-1.29559e-01	
291	1.291197e-07	5.800117e+00	5.894739e+00	-1.29328e-01	
292	1.292197e-07	5.790353e+00	5.884015e+00	-1.29093e-01	
293	1.293197e-07	5.780360e+00	5.873054e+00	-1.28852e-01	
294	1.294197e-07	5.770139e+00	5.861854e+00	-1.28606e-01	
295	1.295197e-07	5.759691e+00	5.850417e+00	-1.28354e-01	
296	1.296197e-07	5.749015e+00	5.838741e+00	-1.28098e-01	
297	1.297197e-07	5.738112e+00	5.826828e+00	-1.27836e-01	
298	1.298197e-07	5.726982e+00	5.814678e+00	-1.27569e-01	
299	1.299197e-07	5.715626e+00	5.802290e+00	-1.27296e-01	
300	1.300197e-07	5.704045e+00	5.789664e+00	-1.27019e-01	
301	1.301197e-07	5.692239e+00	5.776801e+00	-1.26736e-01	
302	1.302197e-07	5.680208e+00	5.763701e+00	-1.26448e-01	
303	1.303197e-07	5.667952e+00	5.750363e+00	-1.26155e-01	
304	1.304197e-07	5.655473e+00	5.736788e+00	-1.25856e-01	
305	1.305197e-07	5.642770e+00	5.722975e+00	-1.25553e-01	
306	1.306197e-07	5.629845e+00	5.708925e+00	-1.25244e-01	
307	1.307197e-07	5.616698e+00	5.694637e+00	-1.24930e-01	
308	1.308197e-07	5.603329e+00	5.680112e+00	-1.24610e-01	
309	1.309197e-07	5.589738e+00	5.665349e+00	-1.24286e-01	
310	1.310197e-07	5.575927e+00	5.650348e+00	-1.23956e-01	
311	1.311197e-07	5.561896e+00	5.635108e+00	-1.23621e-01	
312	1.312197e-07	5.547645e+00	5.619631e+00	-1.23281e-01	
313	1.313197e-07	5.533175e+00	5.603915e+00	-1.22935e-01	
314	1.314197e-07	5.518487e+00	5.587960e+00	-1.22584e-01	
315	1.315197e-07	5.503581e+00	5.571766e+00	-1.22228e-01	
316	1.316197e-07	5.488458e+00	5.555332e+00	-1.21867e-01	
317	1.317197e-07	5.473118e+00	5.538658e+00	-1.21500e-01	
318	1.318197e-07	5.457561e+00	5.521743e+00	-1.21129e-01	
319	1.319197e-07	5.441790e+00	5.504587e+00	-1.20751e-01	
320	1.320197e-07	5.425803e+00	5.487189e+00	-1.20369e-01	
321	1.321197e-07	5.409603e+00	5.469548e+00	-1.19981e-01	
322	1.322197e-07	5.393189e+00	5.451664e+00	-1.19588e-01	
323	1.323197e-07	5.376562e+00	5.433535e+00	-1.19189e-01	
324	1.324197e-07	5.359722e+00	5.415159e+00	-1.18785e-01	
325	1.325197e-07	5.342671e+00	5.396537e+00	-1.18376e-01	
326	1.326197e-07	5.325409e+00	5.377666e+00	-1.17961e-01	
327	1.327197e-07	5.307937e+00	5.358544e+00	-1.17540e-01	
328	1.328197e-07	5.290256e+00	5.339170e+00	-1.17114e-01	
329	1.329197e-07	5.272365e+00	5.319542e+00	-1.16683e-01	
330	1.330197e-07	5.254267e+00	5.299657e+00	-1.16245e-01	
331	1.331197e-07	5.235961e+00	5.279513e+00	-1.15802e-01	
