            * rf switch using rn142 junction diodes with vbias = 3v
            Transient Analysis  Mon Aug 29 13:13:11  2022
--------------------------------------------------------------------------------
Index   time            v(1)            v(6)            i(vd)           
--------------------------------------------------------------------------------
0	1.000788e-07	2.969999e-02	1.707277e-01	-1.44958e-03	
1	1.001788e-07	6.739780e-02	2.082724e-01	-2.27557e-03	
2	1.002788e-07	1.050930e-01	2.458118e-01	-3.10145e-03	
3	1.003788e-07	1.427840e-01	2.833446e-01	-3.92718e-03	
4	1.004788e-07	1.804693e-01	3.208691e-01	-4.75273e-03	
5	1.005788e-07	2.181476e-01	3.583840e-01	-5.57807e-03	
6	1.006788e-07	2.558172e-01	3.958877e-01	-6.40317e-03	
7	1.007788e-07	2.934767e-01	4.333787e-01	-7.22799e-03	
8	1.008788e-07	3.311247e-01	4.708556e-01	-8.05250e-03	
9	1.009788e-07	3.687596e-01	5.083169e-01	-8.87667e-03	
10	1.010788e-07	4.063799e-01	5.457612e-01	-9.70046e-03	
11	1.011788e-07	4.439842e-01	5.831868e-01	-1.05239e-02	
12	1.012788e-07	4.815709e-01	6.205924e-01	-1.13468e-02	
13	1.013788e-07	5.191386e-01	6.579765e-01	-1.21693e-02	
14	1.014788e-07	5.566859e-01	6.953375e-01	-1.29912e-02	
15	1.015788e-07	5.942111e-01	7.326741e-01	-1.38127e-02	
16	1.016788e-07	6.317129e-01	7.699847e-01	-1.46335e-02	
17	1.017788e-07	6.691898e-01	8.072679e-01	-1.54538e-02	
18	1.018788e-07	7.066403e-01	8.445222e-01	-1.62734e-02	
19	1.019788e-07	7.440628e-01	8.817461e-01	-1.70924e-02	
20	1.020788e-07	7.814560e-01	9.189382e-01	-1.79107e-02	
21	1.021788e-07	8.188183e-01	9.560969e-01	-1.87282e-02	
22	1.022788e-07	8.561483e-01	9.932208e-01	-1.95449e-02	
23	1.023788e-07	8.934445e-01	1.030308e+00	-2.03609e-02	
24	1.024788e-07	9.307054e-01	1.067358e+00	-2.11761e-02	
25	1.025788e-07	9.679296e-01	1.104369e+00	-2.19903e-02	
26	1.026788e-07	1.005116e+00	1.141339e+00	-2.28037e-02	
27	1.027788e-07	1.042262e+00	1.178267e+00	-2.36162e-02	
28	1.028788e-07	1.079367e+00	1.215152e+00	-2.44277e-02	
29	1.029788e-07	1.116430e+00	1.251991e+00	-2.52382e-02	
30	1.030788e-07	1.153448e+00	1.288784e+00	-2.60477e-02	
31	1.031788e-07	1.190421e+00	1.325529e+00	-2.68561e-02	
32	1.032788e-07	1.227347e+00	1.362224e+00	-2.76635e-02	
33	1.033788e-07	1.264224e+00	1.398869e+00	-2.84697e-02	
34	1.034788e-07	1.301052e+00	1.435461e+00	-2.92748e-02	
35	1.035788e-07	1.337828e+00	1.472000e+00	-3.00787e-02	
36	1.036788e-07	1.374552e+00	1.508483e+00	-3.08814e-02	
37	1.037788e-07	1.411221e+00	1.544910e+00	-3.16829e-02	
38	1.038788e-07	1.447834e+00	1.581278e+00	-3.24830e-02	
39	1.039788e-07	1.484390e+00	1.617588e+00	-3.32819e-02	
40	1.040788e-07	1.520888e+00	1.653836e+00	-3.40794e-02	
41	1.041788e-07	1.557326e+00	1.690021e+00	-3.48756e-02	
42	1.042788e-07	1.593702e+00	1.726143e+00	-3.56703e-02	
43	1.043788e-07	1.630015e+00	1.762200e+00	-3.64636e-02	
44	1.044788e-07	1.666264e+00	1.798190e+00	-3.72555e-02	
45	1.045788e-07	1.702447e+00	1.834112e+00	-3.80459e-02	
46	1.046788e-07	1.738563e+00	1.869964e+00	-3.88347e-02	
47	1.047788e-07	1.774610e+00	1.905746e+00	-3.96219e-02	
48	1.048788e-07	1.810587e+00	1.941455e+00	-4.04076e-02	
49	1.049788e-07	1.846493e+00	1.977090e+00	-4.11917e-02	
50	1.050788e-07	1.882326e+00	2.012650e+00	-4.19741e-02	
51	1.051788e-07	1.918084e+00	2.048133e+00	-4.27548e-02	
52	1.052788e-07	1.953767e+00	2.083539e+00	-4.35338e-02	
53	1.053788e-07	1.989373e+00	2.118865e+00	-4.43110e-02	
54	1.054788e-07	2.024900e+00	2.154110e+00	-4.50865e-02	

Index   time            v(1)            v(6)            i(vd)           
--------------------------------------------------------------------------------
55	1.055788e-07	2.060347e+00	2.189273e+00	-4.58602e-02	
56	1.056788e-07	2.095713e+00	2.224352e+00	-4.66320e-02	
57	1.057788e-07	2.130996e+00	2.259347e+00	-4.74020e-02	
58	1.058788e-07	2.166195e+00	2.294255e+00	-4.81701e-02	
59	1.059788e-07	2.201308e+00	2.329075e+00	-4.89362e-02	
60	1.060788e-07	2.236335e+00	2.363806e+00	-4.97004e-02	
61	1.061788e-07	2.271273e+00	2.398447e+00	-5.04626e-02	
62	1.062788e-07	2.306121e+00	2.432995e+00	-5.12227e-02	
63	1.063788e-07	2.340879e+00	2.467451e+00	-5.19809e-02	
64	1.064788e-07	2.375544e+00	2.501812e+00	-5.27369e-02	
65	1.065788e-07	2.410115e+00	2.536077e+00	-5.34908e-02	
66	1.066788e-07	2.444592e+00	2.570244e+00	-5.42426e-02	
67	1.067788e-07	2.478971e+00	2.604313e+00	-5.49922e-02	
68	1.068788e-07	2.513253e+00	2.638282e+00	-5.57397e-02	
69	1.069788e-07	2.547436e+00	2.672149e+00	-5.64848e-02	
70	1.070788e-07	2.581518e+00	2.705914e+00	-5.72278e-02	
71	1.071788e-07	2.615498e+00	2.739575e+00	-5.79684e-02	
72	1.072788e-07	2.649375e+00	2.773130e+00	-5.87067e-02	
73	1.073788e-07	2.683147e+00	2.806578e+00	-5.94427e-02	
74	1.074788e-07	2.716813e+00	2.839919e+00	-6.01763e-02	
75	1.075788e-07	2.750373e+00	2.873150e+00	-6.09075e-02	
76	1.076788e-07	2.783823e+00	2.906270e+00	-6.16363e-02	
77	1.077788e-07	2.817164e+00	2.939278e+00	-6.23626e-02	
78	1.078788e-07	2.850393e+00	2.972173e+00	-6.30864e-02	
79	1.079788e-07	2.883510e+00	3.004954e+00	-6.38077e-02	
80	1.080788e-07	2.916513e+00	3.037618e+00	-6.45264e-02	
81	1.081788e-07	2.949401e+00	3.070165e+00	-6.52426e-02	
82	1.082788e-07	2.982172e+00	3.102594e+00	-6.59561e-02	
83	1.083788e-07	3.014826e+00	3.134903e+00	-6.66670e-02	
84	1.084788e-07	3.047361e+00	3.167090e+00	-6.73753e-02	
85	1.085788e-07	3.079775e+00	3.199156e+00	-6.80809e-02	
86	1.086788e-07	3.112068e+00	3.231097e+00	-6.87837e-02	
87	1.087788e-07	3.144238e+00	3.262914e+00	-6.94838e-02	
88	1.088788e-07	3.176284e+00	3.294605e+00	-7.01811e-02	
89	1.089788e-07	3.208204e+00	3.326168e+00	-7.08757e-02	
90	1.090788e-07	3.239998e+00	3.357603e+00	-7.15674e-02	
91	1.091788e-07	3.271664e+00	3.388907e+00	-7.22562e-02	
92	1.092788e-07	3.303200e+00	3.420081e+00	-7.29421e-02	
93	1.093788e-07	3.334607e+00	3.451122e+00	-7.36252e-02	
94	1.094788e-07	3.365881e+00	3.482029e+00	-7.43053e-02	
95	1.095788e-07	3.397023e+00	3.512802e+00	-7.49824e-02	
96	1.096788e-07	3.428031e+00	3.543438e+00	-7.56566e-02	
97	1.097788e-07	3.458903e+00	3.573937e+00	-7.63277e-02	
98	1.098788e-07	3.489639e+00	3.604298e+00	-7.69958e-02	
99	1.099788e-07	3.520237e+00	3.634519e+00	-7.76608e-02	
100	1.100788e-07	3.550696e+00	3.664599e+00	-7.83227e-02	
101	1.101788e-07	3.581015e+00	3.694536e+00	-7.89814e-02	
102	1.102788e-07	3.611192e+00	3.724331e+00	-7.96371e-02	
103	1.103788e-07	3.641227e+00	3.753981e+00	-8.02895e-02	
104	1.104788e-07	3.671119e+00	3.783485e+00	-8.09388e-02	
105	1.105788e-07	3.700865e+00	3.812843e+00	-8.15848e-02	
106	1.106788e-07	3.730465e+00	3.842052e+00	-8.22275e-02	
107	1.107788e-07	3.759918e+00	3.871112e+00	-8.28670e-02	
108	1.108788e-07	3.789222e+00	3.900022e+00	-8.35032e-02	
109	1.109788e-07	3.818377e+00	3.928780e+00	-8.41360e-02	
110	1.110788e-07	3.847381e+00	3.957386e+00	-8.47655e-02	
111	1.111788e-07	3.876234e+00	3.985838e+00	-8.53916e-02	
112	1.112788e-07	3.904933e+00	4.014135e+00	-8.60143e-02	

Index   time            v(1)            v(6)            i(vd)           
--------------------------------------------------------------------------------
113	1.113788e-07	3.933478e+00	4.042276e+00	-8.66336e-02	
114	1.114788e-07	3.961868e+00	4.070260e+00	-8.72494e-02	
115	1.115788e-07	3.990101e+00	4.098086e+00	-8.78617e-02	
116	1.116788e-07	4.018177e+00	4.125752e+00	-8.84705e-02	
117	1.117788e-07	4.046094e+00	4.153258e+00	-8.90758e-02	
118	1.118788e-07	4.073851e+00	4.180602e+00	-8.96776e-02	
119	1.119788e-07	4.101448e+00	4.207784e+00	-9.02757e-02	
120	1.120788e-07	4.128883e+00	4.234801e+00	-9.08703e-02	
121	1.121788e-07	4.156154e+00	4.261654e+00	-9.14612e-02	
122	1.122788e-07	4.183262e+00	4.288341e+00	-9.20485e-02	
123	1.123788e-07	4.210204e+00	4.314862e+00	-9.26321e-02	
124	1.124788e-07	4.236981e+00	4.341214e+00	-9.32120e-02	
125	1.125788e-07	4.263590e+00	4.367397e+00	-9.37883e-02	
126	1.126788e-07	4.290030e+00	4.393410e+00	-9.43607e-02	
127	1.127788e-07	4.316302e+00	4.419251e+00	-9.49294e-02	
128	1.128788e-07	4.342403e+00	4.444921e+00	-9.54943e-02	
129	1.129788e-07	4.368332e+00	4.470418e+00	-9.60554e-02	
130	1.130788e-07	4.394089e+00	4.495740e+00	-9.66127e-02	
131	1.131788e-07	4.419673e+00	4.520887e+00	-9.71661e-02	
132	1.132788e-07	4.445082e+00	4.545857e+00	-9.77156e-02	
133	1.133788e-07	4.470315e+00	4.570651e+00	-9.82613e-02	
134	1.134788e-07	4.495373e+00	4.595266e+00	-9.88030e-02	
135	1.135788e-07	4.520252e+00	4.619702e+00	-9.93408e-02	
136	1.136788e-07	4.544953e+00	4.643958e+00	-9.98746e-02	
137	1.137788e-07	4.569475e+00	4.668033e+00	-1.00404e-01	
138	1.138788e-07	4.593817e+00	4.691926e+00	-1.00930e-01	
139	1.139788e-07	4.617977e+00	4.715635e+00	-1.01452e-01	
140	1.140788e-07	4.641954e+00	4.739161e+00	-1.01970e-01	
141	1.141788e-07	4.665749e+00	4.762501e+00	-1.02483e-01	
142	1.142788e-07	4.689359e+00	4.785656e+00	-1.02993e-01	
143	1.143788e-07	4.712784e+00	4.808624e+00	-1.03499e-01	
144	1.144788e-07	4.736023e+00	4.831404e+00	-1.04000e-01	
145	1.145788e-07	4.759075e+00	4.853995e+00	-1.04497e-01	
146	1.146788e-07	4.781940e+00	4.876397e+00	-1.04990e-01	
147	1.147788e-07	4.804615e+00	4.898609e+00	-1.05479e-01	
148	1.148788e-07	4.827101e+00	4.920629e+00	-1.05964e-01	
149	1.149788e-07	4.849396e+00	4.942457e+00	-1.06444e-01	
150	1.150788e-07	4.871500e+00	4.964092e+00	-1.06920e-01	
151	1.151788e-07	4.893411e+00	4.985533e+00	-1.07392e-01	
152	1.152788e-07	4.915129e+00	5.006779e+00	-1.07860e-01	
153	1.153788e-07	4.936654e+00	5.027829e+00	-1.08323e-01	
154	1.154788e-07	4.957983e+00	5.048683e+00	-1.08782e-01	
155	1.155788e-07	4.979117e+00	5.069339e+00	-1.09237e-01	
156	1.156788e-07	5.000054e+00	5.089798e+00	-1.09687e-01	
157	1.157788e-07	5.020793e+00	5.110057e+00	-1.10133e-01	
158	1.158788e-07	5.041335e+00	5.130116e+00	-1.10574e-01	
159	1.159788e-07	5.061677e+00	5.149975e+00	-1.11011e-01	
160	1.160788e-07	5.081820e+00	5.169632e+00	-1.11444e-01	
161	1.161788e-07	5.101761e+00	5.189087e+00	-1.11872e-01	
162	1.162788e-07	5.121502e+00	5.208339e+00	-1.12296e-01	
163	1.163788e-07	5.141040e+00	5.227388e+00	-1.12715e-01	
164	1.164788e-07	5.160376e+00	5.246231e+00	-1.13130e-01	
165	1.165788e-07	5.179507e+00	5.264870e+00	-1.13540e-01	
166	1.166788e-07	5.198435e+00	5.283302e+00	-1.13946e-01	
167	1.167788e-07	5.217157e+00	5.301528e+00	-1.14347e-01	
168	1.168788e-07	5.235673e+00	5.319546e+00	-1.14744e-01	
169	1.169788e-07	5.253982e+00	5.337356e+00	-1.15136e-01	
170	1.170788e-07	5.272084e+00	5.354956e+00	-1.15523e-01	

Index   time            v(1)            v(6)            i(vd)           
--------------------------------------------------------------------------------
171	1.171788e-07	5.289977e+00	5.372347e+00	-1.15906e-01	
172	1.172788e-07	5.307662e+00	5.389528e+00	-1.16284e-01	
173	1.173788e-07	5.325138e+00	5.406498e+00	-1.16658e-01	
174	1.174788e-07	5.342403e+00	5.423255e+00	-1.17027e-01	
175	1.175788e-07	5.359457e+00	5.439800e+00	-1.17391e-01	
176	1.176788e-07	5.376300e+00	5.456133e+00	-1.17751e-01	
177	1.177788e-07	5.392930e+00	5.472251e+00	-1.18105e-01	
178	1.178788e-07	5.409348e+00	5.488155e+00	-1.18455e-01	
179	1.179788e-07	5.425552e+00	5.503844e+00	-1.18801e-01	
180	1.180788e-07	5.441541e+00	5.519317e+00	-1.19141e-01	
181	1.181788e-07	5.457316e+00	5.534573e+00	-1.19477e-01	
182	1.182788e-07	5.472876e+00	5.549613e+00	-1.19808e-01	
183	1.183788e-07	5.488219e+00	5.564435e+00	-1.20135e-01	
184	1.184788e-07	5.503346e+00	5.579039e+00	-1.20456e-01	
185	1.185788e-07	5.518256e+00	5.593424e+00	-1.20773e-01	
186	1.186788e-07	5.532947e+00	5.607589e+00	-1.21085e-01	
187	1.187788e-07	5.547420e+00	5.621535e+00	-1.21392e-01	
188	1.188788e-07	5.561675e+00	5.635260e+00	-1.21694e-01	
189	1.189788e-07	5.575709e+00	5.648764e+00	-1.21991e-01	
190	1.190788e-07	5.589524e+00	5.662046e+00	-1.22284e-01	
191	1.191788e-07	5.603118e+00	5.675106e+00	-1.22571e-01	
192	1.192788e-07	5.616490e+00	5.687944e+00	-1.22854e-01	
193	1.193788e-07	5.629641e+00	5.700558e+00	-1.23132e-01	
194	1.194788e-07	5.642570e+00	5.712948e+00	-1.23405e-01	
195	1.195788e-07	5.655276e+00	5.725114e+00	-1.23672e-01	
196	1.196788e-07	5.667759e+00	5.737055e+00	-1.23935e-01	
197	1.197788e-07	5.680018e+00	5.748771e+00	-1.24193e-01	
198	1.198788e-07	5.692052e+00	5.760261e+00	-1.24446e-01	
199	1.199788e-07	5.703862e+00	5.771525e+00	-1.24694e-01	
200	1.200788e-07	5.715447e+00	5.782562e+00	-1.24937e-01	
201	1.201788e-07	5.726806e+00	5.793372e+00	-1.25175e-01	
202	1.202788e-07	5.737939e+00	5.803954e+00	-1.25408e-01	
203	1.203788e-07	5.748846e+00	5.814309e+00	-1.25637e-01	
204	1.204788e-07	5.759525e+00	5.824434e+00	-1.25860e-01	
205	1.205788e-07	5.769978e+00	5.834331e+00	-1.26077e-01	
206	1.206788e-07	5.780202e+00	5.843998e+00	-1.26290e-01	
207	1.207788e-07	5.790198e+00	5.853436e+00	-1.26498e-01	
208	1.208788e-07	5.799966e+00	5.862643e+00	-1.26701e-01	
209	1.209788e-07	5.809505e+00	5.871620e+00	-1.26899e-01	
210	1.210788e-07	5.818814e+00	5.880366e+00	-1.27091e-01	
211	1.211788e-07	5.827893e+00	5.888881e+00	-1.27279e-01	
212	1.212788e-07	5.836743e+00	5.897164e+00	-1.27461e-01	
213	1.213788e-07	5.845362e+00	5.905215e+00	-1.27639e-01	
214	1.214788e-07	5.853750e+00	5.913033e+00	-1.27811e-01	
215	1.215788e-07	5.861908e+00	5.920619e+00	-1.27978e-01	
216	1.216788e-07	5.869834e+00	5.927972e+00	-1.28140e-01	
217	1.217788e-07	5.877528e+00	5.935092e+00	-1.28297e-01	
218	1.218788e-07	5.884990e+00	5.941978e+00	-1.28449e-01	
219	1.219788e-07	5.892219e+00	5.948630e+00	-1.28595e-01	
220	1.220788e-07	5.899217e+00	5.955047e+00	-1.28737e-01	
221	1.221788e-07	5.905981e+00	5.961230e+00	-1.28873e-01	
222	1.222788e-07	5.912512e+00	5.967179e+00	-1.29004e-01	
223	1.223788e-07	5.918809e+00	5.972892e+00	-1.29130e-01	
224	1.224788e-07	5.924873e+00	5.978370e+00	-1.29251e-01	
225	1.225788e-07	5.930704e+00	5.983612e+00	-1.29366e-01	
226	1.226788e-07	5.936299e+00	5.988618e+00	-1.29477e-01	
227	1.227788e-07	5.941661e+00	5.993389e+00	-1.29582e-01	
228	1.228788e-07	5.946788e+00	5.997923e+00	-1.29682e-01	

Index   time            v(1)            v(6)            i(vd)           
--------------------------------------------------------------------------------
229	1.229788e-07	5.951680e+00	6.002221e+00	-1.29777e-01	
230	1.230788e-07	5.956338e+00	6.006282e+00	-1.29866e-01	
231	1.231788e-07	5.960760e+00	6.010106e+00	-1.29951e-01	
232	1.232788e-07	5.964947e+00	6.013693e+00	-1.30030e-01	
233	1.233788e-07	5.968898e+00	6.017043e+00	-1.30104e-01	
234	1.234788e-07	5.972614e+00	6.020155e+00	-1.30172e-01	
235	1.235788e-07	5.976094e+00	6.023030e+00	-1.30236e-01	
236	1.236788e-07	5.979338e+00	6.025667e+00	-1.30294e-01	
237	1.237788e-07	5.982346e+00	6.028066e+00	-1.30347e-01	
238	1.238788e-07	5.985117e+00	6.030227e+00	-1.30395e-01	
239	1.239788e-07	5.987653e+00	6.032150e+00	-1.30438e-01	
240	1.240788e-07	5.989952e+00	6.033835e+00	-1.30475e-01	
241	1.241788e-07	5.992015e+00	6.035281e+00	-1.30507e-01	
242	1.242788e-07	5.993841e+00	6.036489e+00	-1.30534e-01	
243	1.243788e-07	5.995430e+00	6.037459e+00	-1.30555e-01	
244	1.244788e-07	5.996783e+00	6.038189e+00	-1.30572e-01	
245	1.245788e-07	5.997899e+00	6.038682e+00	-1.30583e-01	
246	1.246788e-07	5.998778e+00	6.038935e+00	-1.30589e-01	
247	1.247788e-07	5.999420e+00	6.038950e+00	-1.30589e-01	
248	1.248788e-07	5.999826e+00	6.038725e+00	-1.30584e-01	
249	1.249788e-07	5.999995e+00	6.038262e+00	-1.30574e-01	
250	1.250788e-07	5.999926e+00	6.037560e+00	-1.30559e-01	
251	1.251788e-07	5.999621e+00	6.036619e+00	-1.30539e-01	
252	1.252788e-07	5.999080e+00	6.035439e+00	-1.30513e-01	
253	1.253788e-07	5.998301e+00	6.034020e+00	-1.30482e-01	
254	1.254788e-07	5.997285e+00	6.032362e+00	-1.30446e-01	
255	1.255788e-07	5.996033e+00	6.030465e+00	-1.30404e-01	
256	1.256788e-07	5.994544e+00	6.028330e+00	-1.30358e-01	
257	1.257788e-07	5.992818e+00	6.025955e+00	-1.30306e-01	
258	1.258788e-07	5.990856e+00	6.023342e+00	-1.30248e-01	
259	1.259788e-07	5.988657e+00	6.020490e+00	-1.30186e-01	
260	1.260788e-07	5.986222e+00	6.017399e+00	-1.30118e-01	
261	1.261788e-07	5.983551e+00	6.014069e+00	-1.30045e-01	
262	1.262788e-07	5.980643e+00	6.010501e+00	-1.29967e-01	
263	1.263788e-07	5.977499e+00	6.006694e+00	-1.29883e-01	
264	1.264788e-07	5.974119e+00	6.002649e+00	-1.29795e-01	
265	1.265788e-07	5.970504e+00	5.998366e+00	-1.29701e-01	
266	1.266788e-07	5.966652e+00	5.993844e+00	-1.29601e-01	
267	1.267788e-07	5.962565e+00	5.989085e+00	-1.29497e-01	
268	1.268788e-07	5.958243e+00	5.984087e+00	-1.29387e-01	
269	1.269788e-07	5.953685e+00	5.978852e+00	-1.29272e-01	
270	1.270788e-07	5.948893e+00	5.973379e+00	-1.29152e-01	
271	1.271788e-07	5.943865e+00	5.967668e+00	-1.29027e-01	
272	1.272788e-07	5.938603e+00	5.961720e+00	-1.28896e-01	
273	1.273788e-07	5.933107e+00	5.955535e+00	-1.28760e-01	
274	1.274788e-07	5.927376e+00	5.949112e+00	-1.28619e-01	
275	1.275788e-07	5.921411e+00	5.942453e+00	-1.28473e-01	
276	1.276788e-07	5.915213e+00	5.935557e+00	-1.28321e-01	
277	1.277788e-07	5.908781e+00	5.928425e+00	-1.28165e-01	
278	1.278788e-07	5.902115e+00	5.921056e+00	-1.28003e-01	
279	1.279788e-07	5.895217e+00	5.913452e+00	-1.27836e-01	
280	1.280788e-07	5.888086e+00	5.905611e+00	-1.27664e-01	
281	1.281788e-07	5.880723e+00	5.897535e+00	-1.27486e-01	
282	1.282788e-07	5.873127e+00	5.889224e+00	-1.27304e-01	
283	1.283788e-07	5.865299e+00	5.880677e+00	-1.27116e-01	
284	1.284788e-07	5.857240e+00	5.871895e+00	-1.26923e-01	
285	1.285788e-07	5.848950e+00	5.862879e+00	-1.26725e-01	
286	1.286788e-07	5.840429e+00	5.853629e+00	-1.26521e-01	

Index   time            v(1)            v(6)            i(vd)           
--------------------------------------------------------------------------------
287	1.287788e-07	5.831677e+00	5.844144e+00	-1.26313e-01	
288	1.288788e-07	5.822695e+00	5.834425e+00	-1.26099e-01	
289	1.289788e-07	5.813483e+00	5.824473e+00	-1.25881e-01	
290	1.290788e-07	5.804042e+00	5.814288e+00	-1.25657e-01	
291	1.291788e-07	5.794371e+00	5.803870e+00	-1.25428e-01	
292	1.292788e-07	5.784472e+00	5.793219e+00	-1.25194e-01	
293	1.293788e-07	5.774344e+00	5.782335e+00	-1.24955e-01	
294	1.294788e-07	5.763989e+00	5.771220e+00	-1.24710e-01	
295	1.295788e-07	5.753405e+00	5.759873e+00	-1.24461e-01	
296	1.296788e-07	5.742595e+00	5.748295e+00	-1.24206e-01	
297	1.297788e-07	5.731558e+00	5.736485e+00	-1.23947e-01	
298	1.298788e-07	5.720295e+00	5.724445e+00	-1.23682e-01	
299	1.299788e-07	5.708806e+00	5.712175e+00	-1.23412e-01	
300	1.300788e-07	5.697091e+00	5.699674e+00	-1.23138e-01	
301	1.301788e-07	5.685152e+00	5.686944e+00	-1.22858e-01	
302	1.302788e-07	5.672988e+00	5.673984e+00	-1.22573e-01	
303	1.303788e-07	5.660600e+00	5.660796e+00	-1.22283e-01	
304	1.304788e-07	5.647989e+00	5.647379e+00	-1.21988e-01	
305	1.305788e-07	5.635155e+00	5.633734e+00	-1.21688e-01	
306	1.306788e-07	5.622098e+00	5.619861e+00	-1.21383e-01	
307	1.307788e-07	5.608820e+00	5.605761e+00	-1.21073e-01	
308	1.308788e-07	5.595320e+00	5.591434e+00	-1.20758e-01	
309	1.309788e-07	5.581599e+00	5.576880e+00	-1.20438e-01	
310	1.310788e-07	5.567657e+00	5.562100e+00	-1.20113e-01	
311	1.311788e-07	5.553496e+00	5.547094e+00	-1.19783e-01	
312	1.312788e-07	5.539116e+00	5.531863e+00	-1.19448e-01	
313	1.313788e-07	5.524517e+00	5.516406e+00	-1.19109e-01	
314	1.314788e-07	5.509700e+00	5.500725e+00	-1.18764e-01	
315	1.315788e-07	5.494665e+00	5.484820e+00	-1.18414e-01	
316	1.316788e-07	5.479413e+00	5.468691e+00	-1.18060e-01	
317	1.317788e-07	5.463946e+00	5.452339e+00	-1.17700e-01	
318	1.318788e-07	5.448262e+00	5.435764e+00	-1.17336e-01	
319	1.319788e-07	5.432363e+00	5.418966e+00	-1.16966e-01	
320	1.320788e-07	5.416250e+00	5.401946e+00	-1.16592e-01	
321	1.321788e-07	5.399923e+00	5.384704e+00	-1.16213e-01	
322	1.322788e-07	5.383383e+00	5.367241e+00	-1.15829e-01	
323	1.323788e-07	5.366630e+00	5.349557e+00	-1.15440e-01	
324	1.324788e-07	5.349666e+00	5.331653e+00	-1.15046e-01	
325	1.325788e-07	5.332490e+00	5.313528e+00	-1.14648e-01	
326	1.326788e-07	5.315104e+00	5.295184e+00	-1.14245e-01	
327	1.327788e-07	5.297508e+00	5.276621e+00	-1.13836e-01	
328	1.328788e-07	5.279703e+00	5.257838e+00	-1.13423e-01	
329	1.329788e-07	5.261689e+00	5.238838e+00	-1.13006e-01	
330	1.330788e-07	5.243468e+00	5.219619e+00	-1.12583e-01	
331	1.331788e-07	5.225039e+00	5.200182e+00	-1.12156e-01	
