                       i-v characteristic of rn142 diode
                       DC transfer characteristic  Sun Aug 28 18:17:18  2022
--------------------------------------------------------------------------------
Index   v-sweep         i(vd)           v(3)            
--------------------------------------------------------------------------------
0	1.000000e-03	4.688722e-12	9.999995e-04	
1	6.000000e-03	2.948494e-11	5.999997e-03	
2	1.100000e-02	5.670697e-11	1.099999e-02	
3	1.600000e-02	8.660892e-11	1.599999e-02	
4	2.100000e-02	1.194727e-10	2.099999e-02	
5	2.600000e-02	1.556111e-10	2.599998e-02	
6	3.100000e-02	1.953715e-10	3.099998e-02	
7	3.600000e-02	2.391397e-10	3.599998e-02	
8	4.100000e-02	2.873442e-10	4.099997e-02	
9	4.600000e-02	3.404613e-10	4.599997e-02	
10	5.100000e-02	3.990201e-10	5.099996e-02	
11	5.600000e-02	4.636091e-10	5.599995e-02	
12	6.100000e-02	5.348823e-10	6.099995e-02	
13	6.600000e-02	6.135674e-10	6.599994e-02	
14	7.100000e-02	7.004740e-10	7.099993e-02	
15	7.600000e-02	7.965025e-10	7.599992e-02	
16	8.100000e-02	9.026553e-10	8.099991e-02	
17	8.600000e-02	1.020048e-09	8.599990e-02	
18	9.100000e-02	1.149923e-09	9.099989e-02	
19	9.600000e-02	1.293662e-09	9.599987e-02	
20	1.010000e-01	1.452807e-09	1.009999e-01	
21	1.060000e-01	1.629072e-09	1.059998e-01	
22	1.110000e-01	1.824370e-09	1.109998e-01	
23	1.160000e-01	2.040829e-09	1.159998e-01	
24	1.210000e-01	2.280822e-09	1.209998e-01	
25	1.260000e-01	2.546995e-09	1.259997e-01	
26	1.310000e-01	2.842295e-09	1.309997e-01	
27	1.360000e-01	3.170009e-09	1.359997e-01	
28	1.410000e-01	3.533800e-09	1.409996e-01	
29	1.460000e-01	3.937755e-09	1.459996e-01	
30	1.510000e-01	4.386430e-09	1.509996e-01	
31	1.560000e-01	4.884906e-09	1.559995e-01	
32	1.610000e-01	5.438852e-09	1.609995e-01	
33	1.660000e-01	6.054590e-09	1.659994e-01	
34	1.710000e-01	6.739175e-09	1.709993e-01	
35	1.760000e-01	7.500475e-09	1.759992e-01	
36	1.810000e-01	8.347274e-09	1.809992e-01	
37	1.860000e-01	9.289369e-09	1.859991e-01	
38	1.910000e-01	1.033770e-08	1.909990e-01	
39	1.960000e-01	1.150446e-08	1.959988e-01	
40	2.010000e-01	1.280329e-08	2.009987e-01	
41	2.060000e-01	1.424937e-08	2.059986e-01	
42	2.110000e-01	1.585970e-08	2.109984e-01	
43	2.160000e-01	1.765321e-08	2.159982e-01	
44	2.210000e-01	1.965106e-08	2.209980e-01	
45	2.260000e-01	2.187686e-08	2.259978e-01	
46	2.310000e-01	2.435699e-08	2.309976e-01	
47	2.360000e-01	2.712087e-08	2.359973e-01	
48	2.410000e-01	3.020139e-08	2.409970e-01	
49	2.460000e-01	3.363525e-08	2.459966e-01	
50	2.510000e-01	3.746345e-08	2.509963e-01	
51	2.560000e-01	4.173176e-08	2.559958e-01	
52	2.610000e-01	4.649129e-08	2.609954e-01	
53	2.660000e-01	5.179914e-08	2.659948e-01	
54	2.710000e-01	5.771906e-08	2.709942e-01	

Index   v-sweep         i(vd)           v(3)            
--------------------------------------------------------------------------------
55	2.760000e-01	6.432226e-08	2.759936e-01	
56	2.810000e-01	7.168827e-08	2.809928e-01	
57	2.860000e-01	7.990591e-08	2.859920e-01	
58	2.910000e-01	8.907436e-08	2.909911e-01	
59	2.960000e-01	9.930444e-08	2.959901e-01	
60	3.010000e-01	1.107199e-07	3.009889e-01	
61	3.060000e-01	1.234589e-07	3.059877e-01	
62	3.110000e-01	1.376758e-07	3.109862e-01	
63	3.160000e-01	1.535431e-07	3.159846e-01	
64	3.210000e-01	1.712532e-07	3.209829e-01	
65	3.260000e-01	1.910213e-07	3.259809e-01	
66	3.310000e-01	2.130874e-07	3.309787e-01	
67	3.360000e-01	2.377198e-07	3.359762e-01	
68	3.410000e-01	2.652180e-07	3.409735e-01	
69	3.460000e-01	2.959164e-07	3.459704e-01	
70	3.510000e-01	3.301885e-07	3.509670e-01	
71	3.560000e-01	3.684513e-07	3.559632e-01	
72	3.610000e-01	4.111704e-07	3.609589e-01	
73	3.660000e-01	4.588654e-07	3.659541e-01	
74	3.710000e-01	5.121167e-07	3.709488e-01	
75	3.760000e-01	5.715719e-07	3.759428e-01	
76	3.810000e-01	6.379537e-07	3.809362e-01	
77	3.860000e-01	7.120688e-07	3.859288e-01	
78	3.910000e-01	7.948171e-07	3.909205e-01	
79	3.960000e-01	8.872028e-07	3.959113e-01	
80	4.010000e-01	9.903457e-07	4.009010e-01	
81	4.060000e-01	1.105495e-06	4.058895e-01	
82	4.110000e-01	1.234042e-06	4.108766e-01	
83	4.160000e-01	1.377541e-06	4.158622e-01	
84	4.210000e-01	1.537720e-06	4.208462e-01	
85	4.260000e-01	1.716506e-06	4.258283e-01	
86	4.310000e-01	1.916046e-06	4.308084e-01	
87	4.360000e-01	2.138728e-06	4.357861e-01	
88	4.410000e-01	2.387210e-06	4.407613e-01	
89	4.460000e-01	2.664450e-06	4.457336e-01	
90	4.510000e-01	2.973734e-06	4.507026e-01	
91	4.560000e-01	3.318715e-06	4.556681e-01	
92	4.610000e-01	3.703446e-06	4.606297e-01	
93	4.660000e-01	4.132426e-06	4.655868e-01	
94	4.710000e-01	4.610644e-06	4.705389e-01	
95	4.760000e-01	5.143624e-06	4.754856e-01	
96	4.810000e-01	5.737479e-06	4.804263e-01	
97	4.860000e-01	6.398967e-06	4.853601e-01	
98	4.910000e-01	7.135550e-06	4.902864e-01	
99	4.960000e-01	7.955454e-06	4.952045e-01	
100	5.010000e-01	8.867738e-06	5.001132e-01	
101	5.060000e-01	9.882358e-06	5.050118e-01	
102	5.110000e-01	1.101024e-05	5.098990e-01	
103	5.160000e-01	1.226334e-05	5.147737e-01	
104	5.210000e-01	1.365474e-05	5.196345e-01	
105	5.260000e-01	1.519868e-05	5.244801e-01	
106	5.310000e-01	1.691066e-05	5.293089e-01	
107	5.360000e-01	1.880747e-05	5.341193e-01	
108	5.410000e-01	2.090724e-05	5.389093e-01	
109	5.460000e-01	2.322951e-05	5.436770e-01	
110	5.510000e-01	2.579523e-05	5.484205e-01	
111	5.560000e-01	2.862678e-05	5.531373e-01	
112	5.610000e-01	3.174794e-05	5.578252e-01	

Index   v-sweep         i(vd)           v(3)            
--------------------------------------------------------------------------------
113	5.660000e-01	3.518386e-05	5.624816e-01	
114	5.710000e-01	3.896102e-05	5.671039e-01	
115	5.760000e-01	4.310707e-05	5.716893e-01	
116	5.810000e-01	4.765078e-05	5.762349e-01	
117	5.860000e-01	5.262177e-05	5.807378e-01	
118	5.910000e-01	5.805041e-05	5.851950e-01	
119	5.960000e-01	6.396751e-05	5.896032e-01	
120	6.010000e-01	7.040404e-05	5.939596e-01	
121	6.060000e-01	7.739090e-05	5.982609e-01	
122	6.110000e-01	8.495849e-05	6.025042e-01	
123	6.160000e-01	9.313645e-05	6.066864e-01	
124	6.210000e-01	1.019533e-04	6.108047e-01	
125	6.260000e-01	1.114360e-04	6.148564e-01	
126	6.310000e-01	1.216097e-04	6.188390e-01	
127	6.360000e-01	1.324976e-04	6.227502e-01	
128	6.410000e-01	1.441201e-04	6.265880e-01	
129	6.460000e-01	1.564955e-04	6.303505e-01	
130	6.510000e-01	1.696388e-04	6.340361e-01	
131	6.560000e-01	1.835623e-04	6.376438e-01	
132	6.610000e-01	1.982753e-04	6.411725e-01	
133	6.660000e-01	2.137840e-04	6.446216e-01	
134	6.710000e-01	2.300916e-04	6.479908e-01	
135	6.760000e-01	2.471984e-04	6.512802e-01	
136	6.810000e-01	2.651021e-04	6.544898e-01	
137	6.860000e-01	2.837976e-04	6.576202e-01	
138	6.910000e-01	3.032775e-04	6.606722e-01	
139	6.960000e-01	3.235324e-04	6.636468e-01	
140	7.010000e-01	3.445506e-04	6.665449e-01	
141	7.060000e-01	3.663189e-04	6.693681e-01	
142	7.110000e-01	3.888228e-04	6.721177e-01	
143	7.160000e-01	4.120463e-04	6.747954e-01	
144	7.210000e-01	4.359726e-04	6.774027e-01	
145	7.260000e-01	4.605839e-04	6.799416e-01	
146	7.310000e-01	4.858620e-04	6.824138e-01	
147	7.360000e-01	5.117882e-04	6.848212e-01	
148	7.410000e-01	5.383435e-04	6.871656e-01	
149	7.460000e-01	5.655089e-04	6.894491e-01	
150	7.510000e-01	5.932653e-04	6.916735e-01	
151	7.560000e-01	6.215937e-04	6.938406e-01	
152	7.610000e-01	6.504754e-04	6.959525e-01	
153	7.660000e-01	6.798919e-04	6.980108e-01	
154	7.710000e-01	7.098251e-04	7.000175e-01	
155	7.760000e-01	7.402573e-04	7.019743e-01	
156	7.810000e-01	7.711711e-04	7.038829e-01	
157	7.860000e-01	8.025497e-04	7.057450e-01	
158	7.910000e-01	8.343769e-04	7.075623e-01	
159	7.960000e-01	8.666368e-04	7.093363e-01	
160	8.010000e-01	8.993141e-04	7.110686e-01	
161	8.060000e-01	9.323940e-04	7.127606e-01	
162	8.110000e-01	9.658624e-04	7.144138e-01	
163	8.160000e-01	9.997053e-04	7.160295e-01	
164	8.210000e-01	1.033910e-03	7.176090e-01	
165	8.260000e-01	1.068463e-03	7.191537e-01	
166	8.310000e-01	1.103353e-03	7.206647e-01	
167	8.360000e-01	1.138567e-03	7.221433e-01	
168	8.410000e-01	1.174095e-03	7.235905e-01	
169	8.460000e-01	1.209925e-03	7.250075e-01	
170	8.510000e-01	1.246048e-03	7.263952e-01	

Index   v-sweep         i(vd)           v(3)            
--------------------------------------------------------------------------------
171	8.560000e-01	1.282454e-03	7.277546e-01	
172	8.610000e-01	1.319132e-03	7.290868e-01	
173	8.660000e-01	1.356073e-03	7.303927e-01	
174	8.710000e-01	1.393270e-03	7.316730e-01	
175	8.760000e-01	1.430713e-03	7.329287e-01	
176	8.810000e-01	1.468394e-03	7.341606e-01	
177	8.860000e-01	1.506306e-03	7.353694e-01	
178	8.910000e-01	1.544442e-03	7.365558e-01	
179	8.960000e-01	1.582793e-03	7.377207e-01	
180	9.010000e-01	1.621354e-03	7.388646e-01	
181	9.060000e-01	1.660117e-03	7.399883e-01	
182	9.110000e-01	1.699077e-03	7.410923e-01	
183	9.160000e-01	1.738227e-03	7.421773e-01	
184	9.210000e-01	1.777561e-03	7.432439e-01	
185	9.260000e-01	1.817075e-03	7.442925e-01	
186	9.310000e-01	1.856763e-03	7.453237e-01	
187	9.360000e-01	1.896619e-03	7.463381e-01	
188	9.410000e-01	1.936638e-03	7.473362e-01	
189	9.460000e-01	1.976817e-03	7.483183e-01	
190	9.510000e-01	2.017150e-03	7.492850e-01	
191	9.560000e-01	2.057632e-03	7.502368e-01	
192	9.610000e-01	2.098261e-03	7.511739e-01	
193	9.660000e-01	2.139031e-03	7.520969e-01	
194	9.710000e-01	2.179939e-03	7.530061e-01	
195	9.760000e-01	2.220981e-03	7.539019e-01	
196	9.810000e-01	2.262154e-03	7.547846e-01	
197	9.860000e-01	2.303453e-03	7.556547e-01	
198	9.910000e-01	2.344876e-03	7.565124e-01	
199	9.960000e-01	2.386420e-03	7.573580e-01	
200	1.001000e+00	2.428080e-03	7.581920e-01	
201	1.006000e+00	2.469855e-03	7.590145e-01	
202	1.011000e+00	2.511741e-03	7.598259e-01	
203	1.016000e+00	2.553736e-03	7.606264e-01	
204	1.021000e+00	2.595836e-03	7.614164e-01	
205	1.026000e+00	2.638039e-03	7.621961e-01	
206	1.031000e+00	2.680344e-03	7.629656e-01	
207	1.036000e+00	2.722746e-03	7.637254e-01	
208	1.041000e+00	2.765244e-03	7.644756e-01	
209	1.046000e+00	2.807836e-03	7.652164e-01	
210	1.051000e+00	2.850519e-03	7.659481e-01	
211	1.056000e+00	2.893292e-03	7.666708e-01	
212	1.061000e+00	2.936152e-03	7.673848e-01	
213	1.066000e+00	2.979097e-03	7.680903e-01	
214	1.071000e+00	3.022125e-03	7.687875e-01	
215	1.076000e+00	3.065234e-03	7.694766e-01	
216	1.081000e+00	3.108424e-03	7.701576e-01	
217	1.086000e+00	3.151691e-03	7.708309e-01	
218	1.091000e+00	3.195034e-03	7.714966e-01	
219	1.096000e+00	3.238452e-03	7.721548e-01	
220	1.101000e+00	3.281942e-03	7.728058e-01	
221	1.106000e+00	3.325504e-03	7.734496e-01	
222	1.111000e+00	3.369136e-03	7.740864e-01	
223	1.116000e+00	3.412837e-03	7.747163e-01	
224	1.121000e+00	3.456604e-03	7.753396e-01	
225	1.126000e+00	3.500437e-03	7.759563e-01	
226	1.131000e+00	3.544334e-03	7.765666e-01	
227	1.136000e+00	3.588294e-03	7.771706e-01	
228	1.141000e+00	3.632316e-03	7.777684e-01	

Index   v-sweep         i(vd)           v(3)            
--------------------------------------------------------------------------------
229	1.146000e+00	3.676398e-03	7.783602e-01	
230	1.151000e+00	3.720540e-03	7.789460e-01	
231	1.156000e+00	3.764740e-03	7.795260e-01	
232	1.161000e+00	3.808997e-03	7.801003e-01	
233	1.166000e+00	3.853309e-03	7.806691e-01	
234	1.171000e+00	3.897677e-03	7.812323e-01	
235	1.176000e+00	3.942099e-03	7.817901e-01	
236	1.181000e+00	3.986573e-03	7.823427e-01	
237	1.186000e+00	4.031100e-03	7.828900e-01	
238	1.191000e+00	4.075677e-03	7.834323e-01	
239	1.196000e+00	4.120304e-03	7.839696e-01	
240	1.201000e+00	4.164981e-03	7.845019e-01	
241	1.206000e+00	4.209705e-03	7.850295e-01	
242	1.211000e+00	4.254477e-03	7.855523e-01	
243	1.216000e+00	4.299296e-03	7.860704e-01	
244	1.221000e+00	4.344160e-03	7.865840e-01	
245	1.226000e+00	4.389069e-03	7.870931e-01	
246	1.231000e+00	4.434022e-03	7.875978e-01	
247	1.236000e+00	4.479019e-03	7.880981e-01	
248	1.241000e+00	4.524058e-03	7.885942e-01	
249	1.246000e+00	4.569139e-03	7.890861e-01	
250	1.251000e+00	4.614261e-03	7.895739e-01	
251	1.256000e+00	4.659424e-03	7.900576e-01	
252	1.261000e+00	4.704627e-03	7.905373e-01	
253	1.266000e+00	4.749869e-03	7.910131e-01	
254	1.271000e+00	4.795150e-03	7.914850e-01	
255	1.276000e+00	4.840469e-03	7.919531e-01	
256	1.281000e+00	4.885825e-03	7.924175e-01	
257	1.286000e+00	4.931217e-03	7.928783e-01	
258	1.291000e+00	4.976646e-03	7.933354e-01	
259	1.296000e+00	5.022111e-03	7.937889e-01	
260	1.301000e+00	5.067610e-03	7.942390e-01	
261	1.306000e+00	5.113145e-03	7.946855e-01	
262	1.311000e+00	5.158713e-03	7.951287e-01	
263	1.316000e+00	5.204314e-03	7.955686e-01	
264	1.321000e+00	5.249949e-03	7.960051e-01	
265	1.326000e+00	5.295616e-03	7.964384e-01	
266	1.331000e+00	5.341315e-03	7.968685e-01	
267	1.336000e+00	5.387046e-03	7.972954e-01	
268	1.341000e+00	5.432808e-03	7.977192e-01	
269	1.346000e+00	5.478600e-03	7.981400e-01	
270	1.351000e+00	5.524423e-03	7.985577e-01	
271	1.356000e+00	5.570275e-03	7.989725e-01	
272	1.361000e+00	5.616156e-03	7.993844e-01	
273	1.366000e+00	5.662067e-03	7.997933e-01	
274	1.371000e+00	5.708006e-03	8.001994e-01	
275	1.376000e+00	5.753973e-03	8.006027e-01	
276	1.381000e+00	5.799967e-03	8.010033e-01	
277	1.386000e+00	5.845989e-03	8.014011e-01	
278	1.391000e+00	5.892038e-03	8.017962e-01	
279	1.396000e+00	5.938114e-03	8.021886e-01	
280	1.401000e+00	5.984216e-03	8.025784e-01	
281	1.406000e+00	6.030343e-03	8.029657e-01	
282	1.411000e+00	6.076496e-03	8.033504e-01	
283	1.416000e+00	6.122675e-03	8.037325e-01	
284	1.421000e+00	6.168878e-03	8.041122e-01	
285	1.426000e+00	6.215105e-03	8.044895e-01	
286	1.431000e+00	6.261357e-03	8.048643e-01	

Index   v-sweep         i(vd)           v(3)            
--------------------------------------------------------------------------------
287	1.436000e+00	6.307633e-03	8.052367e-01	
288	1.441000e+00	6.353932e-03	8.056068e-01	
289	1.446000e+00	6.400254e-03	8.059746e-01	
290	1.451000e+00	6.446600e-03	8.063400e-01	
291	1.456000e+00	6.492968e-03	8.067032e-01	
292	1.461000e+00	6.539358e-03	8.070642e-01	
293	1.466000e+00	6.585771e-03	8.074229e-01	
294	1.471000e+00	6.632205e-03	8.077795e-01	
295	1.476000e+00	6.678661e-03	8.081339e-01	
296	1.481000e+00	6.725139e-03	8.084861e-01	
297	1.486000e+00	6.771637e-03	8.088363e-01	
298	1.491000e+00	6.818156e-03	8.091844e-01	
299	1.496000e+00	6.864696e-03	8.095304e-01	
300	1.501000e+00	6.911256e-03	8.098744e-01	
301	1.506000e+00	6.957835e-03	8.102165e-01	
302	1.511000e+00	7.004435e-03	8.105565e-01	
303	1.516000e+00	7.051054e-03	8.108946e-01	
304	1.521000e+00	7.097693e-03	8.112307e-01	
305	1.526000e+00	7.144351e-03	8.115649e-01	
306	1.531000e+00	7.191027e-03	8.118973e-01	
307	1.536000e+00	7.237723e-03	8.122277e-01	
308	1.541000e+00	7.284436e-03	8.125564e-01	
309	1.546000e+00	7.331168e-03	8.128832e-01	
310	1.551000e+00	7.377918e-03	8.132082e-01	
311	1.556000e+00	7.424686e-03	8.135314e-01	
312	1.561000e+00	7.471472e-03	8.138528e-01	
313	1.566000e+00	7.518275e-03	8.141725e-01	
314	1.571000e+00	7.565095e-03	8.144905e-01	
315	1.576000e+00	7.611932e-03	8.148068e-01	
316	1.581000e+00	7.658786e-03	8.151214e-01	
317	1.586000e+00	7.705657e-03	8.154343e-01	
318	1.591000e+00	7.752544e-03	8.157456e-01	
319	1.596000e+00	7.799447e-03	8.160553e-01	
320	1.601000e+00	7.846367e-03	8.163633e-01	
321	1.606000e+00	7.893302e-03	8.166698e-01	
322	1.611000e+00	7.940254e-03	8.169746e-01	
323	1.616000e+00	7.987221e-03	8.172779e-01	
324	1.621000e+00	8.034203e-03	8.175797e-01	
325	1.626000e+00	8.081201e-03	8.178799e-01	
326	1.631000e+00	8.128214e-03	8.181786e-01	
327	1.636000e+00	8.175242e-03	8.184758e-01	
328	1.641000e+00	8.222284e-03	8.187716e-01	
329	1.646000e+00	8.269342e-03	8.190658e-01	
330	1.651000e+00	8.316414e-03	8.193586e-01	
331	1.656000e+00	8.363500e-03	8.196500e-01	
332	1.661000e+00	8.410600e-03	8.199400e-01	
333	1.666000e+00	8.457715e-03	8.202285e-01	
334	1.671000e+00	8.504843e-03	8.205157e-01	
335	1.676000e+00	8.551985e-03	8.208015e-01	
336	1.681000e+00	8.599141e-03	8.210859e-01	
337	1.686000e+00	8.646311e-03	8.213689e-01	
338	1.691000e+00	8.693494e-03	8.216506e-01	
339	1.696000e+00	8.740690e-03	8.219310e-01	
340	1.701000e+00	8.787899e-03	8.222101e-01	
341	1.706000e+00	8.835121e-03	8.224879e-01	
342	1.711000e+00	8.882356e-03	8.227644e-01	
343	1.716000e+00	8.929604e-03	8.230396e-01	
344	1.721000e+00	8.976865e-03	8.233135e-01	

Index   v-sweep         i(vd)           v(3)            
--------------------------------------------------------------------------------
345	1.726000e+00	9.024138e-03	8.235862e-01	
346	1.731000e+00	9.071423e-03	8.238577e-01	
347	1.736000e+00	9.118721e-03	8.241279e-01	
348	1.741000e+00	9.166031e-03	8.243969e-01	
349	1.746000e+00	9.213353e-03	8.246647e-01	
350	1.751000e+00	9.260686e-03	8.249314e-01	
351	1.756000e+00	9.308032e-03	8.251968e-01	
352	1.761000e+00	9.355389e-03	8.254611e-01	
353	1.766000e+00	9.402758e-03	8.257242e-01	
354	1.771000e+00	9.450139e-03	8.259861e-01	
355	1.776000e+00	9.497530e-03	8.262470e-01	
356	1.781000e+00	9.544934e-03	8.265066e-01	
357	1.786000e+00	9.592348e-03	8.267652e-01	
358	1.791000e+00	9.639773e-03	8.270227e-01	
359	1.796000e+00	9.687210e-03	8.272790e-01	
360	1.801000e+00	9.734657e-03	8.275343e-01	
361	1.806000e+00	9.782115e-03	8.277885e-01	
362	1.811000e+00	9.829584e-03	8.280416e-01	
363	1.816000e+00	9.877063e-03	8.282937e-01	
364	1.821000e+00	9.924553e-03	8.285447e-01	
365	1.826000e+00	9.972053e-03	8.287947e-01	
366	1.831000e+00	1.001956e-02	8.290436e-01	
367	1.836000e+00	1.006708e-02	8.292916e-01	
368	1.841000e+00	1.011462e-02	8.295385e-01	
369	1.846000e+00	1.016216e-02	8.297844e-01	
370	1.851000e+00	1.020971e-02	8.300293e-01	
371	1.856000e+00	1.025727e-02	8.302732e-01	
372	1.861000e+00	1.030484e-02	8.305161e-01	
373	1.866000e+00	1.035242e-02	8.307581e-01	
374	1.871000e+00	1.040001e-02	8.309990e-01	
375	1.876000e+00	1.044761e-02	8.312391e-01	
376	1.881000e+00	1.049522e-02	8.314782e-01	
377	1.886000e+00	1.054284e-02	8.317163e-01	
378	1.891000e+00	1.059046e-02	8.319535e-01	
379	1.896000e+00	1.063810e-02	8.321898e-01	
380	1.901000e+00	1.068575e-02	8.324252e-01	
381	1.906000e+00	1.073340e-02	8.326597e-01	
382	1.911000e+00	1.078107e-02	8.328932e-01	
383	1.916000e+00	1.082874e-02	8.331259e-01	
384	1.921000e+00	1.087642e-02	8.333577e-01	
385	1.926000e+00	1.092411e-02	8.335886e-01	
386	1.931000e+00	1.097181e-02	8.338186e-01	
387	1.936000e+00	1.101952e-02	8.340478e-01	
388	1.941000e+00	1.106724e-02	8.342761e-01	
389	1.946000e+00	1.111496e-02	8.345036e-01	
390	1.951000e+00	1.116270e-02	8.347302e-01	
391	1.956000e+00	1.121044e-02	8.349559e-01	
392	1.961000e+00	1.125819e-02	8.351809e-01	
393	1.966000e+00	1.130595e-02	8.354050e-01	
394	1.971000e+00	1.135372e-02	8.356282e-01	
395	1.976000e+00	1.140149e-02	8.358507e-01	
396	1.981000e+00	1.144928e-02	8.360724e-01	
397	1.986000e+00	1.149707e-02	8.362933e-01	
398	1.991000e+00	1.154487e-02	8.365133e-01	
399	1.996000e+00	1.159267e-02	8.367326e-01	
400	2.001000e+00	1.164049e-02	8.369511e-01	
401	2.006000e+00	1.168831e-02	8.371688e-01	
402	2.011000e+00	1.173614e-02	8.373858e-01	

Index   v-sweep         i(vd)           v(3)            
--------------------------------------------------------------------------------
403	2.016000e+00	1.178398e-02	8.376020e-01	
404	2.021000e+00	1.183183e-02	8.378174e-01	
405	2.026000e+00	1.187968e-02	8.380321e-01	
406	2.031000e+00	1.192754e-02	8.382460e-01	
407	2.036000e+00	1.197541e-02	8.384592e-01	
408	2.041000e+00	1.202328e-02	8.386716e-01	
409	2.046000e+00	1.207117e-02	8.388833e-01	
410	2.051000e+00	1.211906e-02	8.390943e-01	
411	2.056000e+00	1.216695e-02	8.393046e-01	
412	2.061000e+00	1.221486e-02	8.395141e-01	
413	2.066000e+00	1.226277e-02	8.397230e-01	
414	2.071000e+00	1.231069e-02	8.399311e-01	
415	2.076000e+00	1.235861e-02	8.401386e-01	
416	2.081000e+00	1.240655e-02	8.403453e-01	
417	2.086000e+00	1.245449e-02	8.405513e-01	
418	2.091000e+00	1.250243e-02	8.407567e-01	
419	2.096000e+00	1.255039e-02	8.409614e-01	
420	2.101000e+00	1.259835e-02	8.411654e-01	
421	2.106000e+00	1.264631e-02	8.413687e-01	
422	2.111000e+00	1.269429e-02	8.415714e-01	
423	2.116000e+00	1.274227e-02	8.417734e-01	
424	2.121000e+00	1.279025e-02	8.419748e-01	
425	2.126000e+00	1.283825e-02	8.421755e-01	
