            * rf switch using rn142 junction diodes with vbias = -5v
            Transient Analysis  Sun Aug 28 21:24:38  2022
--------------------------------------------------------------------------------
Index   time            v(1)            v(6)            i(vd)           
--------------------------------------------------------------------------------
0	1.000323e-07	1.219477e-02	5.221455e-03	-1.14833e-04	
1	1.001323e-07	4.989331e-02	5.217290e-03	-1.14742e-04	
2	1.002323e-07	8.758989e-02	5.212948e-03	-1.14647e-04	
3	1.003323e-07	1.252830e-01	5.208430e-03	-1.14547e-04	
4	1.004323e-07	1.629712e-01	5.203736e-03	-1.14444e-04	
5	1.005323e-07	2.006529e-01	5.198866e-03	-1.14337e-04	
6	1.006323e-07	2.383267e-01	5.193821e-03	-1.14227e-04	
7	1.007323e-07	2.759911e-01	5.188600e-03	-1.14112e-04	
8	1.008323e-07	3.136447e-01	5.183205e-03	-1.13993e-04	
9	1.009323e-07	3.512858e-01	5.177634e-03	-1.13871e-04	
10	1.010323e-07	3.889130e-01	5.171890e-03	-1.13745e-04	
11	1.011323e-07	4.265250e-01	5.165971e-03	-1.13615e-04	
12	1.012323e-07	4.641200e-01	5.159878e-03	-1.13481e-04	
13	1.013323e-07	5.016968e-01	5.153612e-03	-1.13343e-04	
14	1.014323e-07	5.392537e-01	5.147172e-03	-1.13202e-04	
15	1.015323e-07	5.767894e-01	5.140559e-03	-1.13057e-04	
16	1.016323e-07	6.143022e-01	5.133774e-03	-1.12908e-04	
17	1.017323e-07	6.517909e-01	5.126816e-03	-1.12755e-04	
18	1.018323e-07	6.892538e-01	5.119686e-03	-1.12598e-04	
19	1.019323e-07	7.266895e-01	5.112384e-03	-1.12438e-04	
20	1.020323e-07	7.640965e-01	5.104911e-03	-1.12273e-04	
21	1.021323e-07	8.014733e-01	5.097267e-03	-1.12105e-04	
22	1.022323e-07	8.388185e-01	5.089452e-03	-1.11934e-04	
23	1.023323e-07	8.761306e-01	5.081466e-03	-1.11758e-04	
24	1.024323e-07	9.134081e-01	5.073310e-03	-1.11579e-04	
25	1.025323e-07	9.506495e-01	5.064985e-03	-1.11396e-04	
26	1.026323e-07	9.878534e-01	5.056490e-03	-1.11209e-04	
27	1.027323e-07	1.025018e+00	5.047826e-03	-1.11019e-04	
28	1.028323e-07	1.062143e+00	5.038993e-03	-1.10825e-04	
29	1.029323e-07	1.099225e+00	5.029992e-03	-1.10627e-04	
30	1.030323e-07	1.136264e+00	5.020823e-03	-1.10426e-04	
31	1.031323e-07	1.173259e+00	5.011486e-03	-1.10220e-04	
32	1.032323e-07	1.210207e+00	5.001982e-03	-1.10011e-04	
33	1.033323e-07	1.247107e+00	4.992311e-03	-1.09799e-04	
34	1.034323e-07	1.283958e+00	4.982474e-03	-1.09583e-04	
35	1.035323e-07	1.320758e+00	4.972470e-03	-1.09363e-04	
36	1.036323e-07	1.357506e+00	4.962301e-03	-1.09139e-04	
37	1.037323e-07	1.394200e+00	4.951967e-03	-1.08912e-04	
38	1.038323e-07	1.430840e+00	4.941468e-03	-1.08681e-04	
39	1.039323e-07	1.467423e+00	4.930804e-03	-1.08447e-04	
40	1.040323e-07	1.503948e+00	4.919976e-03	-1.08209e-04	
41	1.041323e-07	1.540414e+00	4.908984e-03	-1.07967e-04	
42	1.042323e-07	1.576818e+00	4.897830e-03	-1.07722e-04	
43	1.043323e-07	1.613161e+00	4.886512e-03	-1.07473e-04	
44	1.044323e-07	1.649440e+00	4.875032e-03	-1.07221e-04	
45	1.045323e-07	1.685654e+00	4.863390e-03	-1.06965e-04	
46	1.046323e-07	1.721801e+00	4.851587e-03	-1.06706e-04	
47	1.047323e-07	1.757880e+00	4.839623e-03	-1.06442e-04	
48	1.048323e-07	1.793890e+00	4.827498e-03	-1.06176e-04	
49	1.049323e-07	1.829829e+00	4.815213e-03	-1.05906e-04	
50	1.050323e-07	1.865696e+00	4.802768e-03	-1.05632e-04	
51	1.051323e-07	1.901489e+00	4.790164e-03	-1.05355e-04	
52	1.052323e-07	1.937207e+00	4.777401e-03	-1.05075e-04	
53	1.053323e-07	1.972849e+00	4.764480e-03	-1.04791e-04	
54	1.054323e-07	2.008413e+00	4.751402e-03	-1.04503e-04	

Index   time            v(1)            v(6)            i(vd)           
--------------------------------------------------------------------------------
55	1.055323e-07	2.043897e+00	4.738166e-03	-1.04212e-04	
56	1.056323e-07	2.079301e+00	4.724773e-03	-1.03918e-04	
57	1.057323e-07	2.114623e+00	4.711224e-03	-1.03620e-04	
58	1.058323e-07	2.149861e+00	4.697518e-03	-1.03318e-04	
59	1.059323e-07	2.185014e+00	4.683658e-03	-1.03014e-04	
60	1.060323e-07	2.220081e+00	4.669643e-03	-1.02705e-04	
61	1.061323e-07	2.255061e+00	4.655473e-03	-1.02394e-04	
62	1.062323e-07	2.289951e+00	4.641150e-03	-1.02079e-04	
63	1.063323e-07	2.324751e+00	4.626673e-03	-1.01761e-04	
64	1.064323e-07	2.359459e+00	4.612044e-03	-1.01439e-04	
65	1.065323e-07	2.394074e+00	4.597262e-03	-1.01114e-04	
66	1.066323e-07	2.428595e+00	4.582328e-03	-1.00786e-04	
67	1.067323e-07	2.463019e+00	4.567244e-03	-1.00454e-04	
68	1.068323e-07	2.497347e+00	4.552008e-03	-1.00119e-04	
69	1.069323e-07	2.531576e+00	4.536623e-03	-9.97806e-05	
70	1.070323e-07	2.565705e+00	4.521088e-03	-9.94390e-05	
71	1.071323e-07	2.599732e+00	4.505404e-03	-9.90942e-05	
72	1.072323e-07	2.633657e+00	4.489572e-03	-9.87460e-05	
73	1.073323e-07	2.667478e+00	4.473591e-03	-9.83946e-05	
74	1.074323e-07	2.701194e+00	4.457464e-03	-9.80400e-05	
75	1.075323e-07	2.734803e+00	4.441189e-03	-9.76822e-05	
76	1.076323e-07	2.768304e+00	4.424769e-03	-9.73211e-05	
77	1.077323e-07	2.801696e+00	4.408203e-03	-9.69568e-05	
78	1.078323e-07	2.834977e+00	4.391491e-03	-9.65893e-05	
79	1.079323e-07	2.868146e+00	4.374636e-03	-9.62187e-05	
80	1.080323e-07	2.901202e+00	4.357636e-03	-9.58449e-05	
81	1.081323e-07	2.934144e+00	4.340493e-03	-9.54679e-05	
82	1.082323e-07	2.966970e+00	4.323208e-03	-9.50878e-05	
83	1.083323e-07	2.999678e+00	4.305780e-03	-9.47046e-05	
84	1.084323e-07	3.032268e+00	4.288211e-03	-9.43182e-05	
85	1.085323e-07	3.064739e+00	4.270501e-03	-9.39288e-05	
86	1.086323e-07	3.097088e+00	4.252651e-03	-9.35362e-05	
87	1.087323e-07	3.129315e+00	4.234662e-03	-9.31406e-05	
88	1.088323e-07	3.161419e+00	4.216533e-03	-9.27420e-05	
89	1.089323e-07	3.193398e+00	4.198266e-03	-9.23403e-05	
90	1.090323e-07	3.225251e+00	4.179861e-03	-9.19355e-05	
91	1.091323e-07	3.256976e+00	4.161319e-03	-9.15278e-05	
92	1.092323e-07	3.288573e+00	4.142641e-03	-9.11170e-05	
93	1.093323e-07	3.320040e+00	4.123826e-03	-9.07033e-05	
94	1.094323e-07	3.351376e+00	4.104877e-03	-9.02865e-05	
95	1.095323e-07	3.382579e+00	4.085793e-03	-8.98668e-05	
96	1.096323e-07	3.413649e+00	4.066575e-03	-8.94442e-05	
97	1.097323e-07	3.444585e+00	4.047224e-03	-8.90187e-05	
98	1.098323e-07	3.475384e+00	4.027741e-03	-8.85902e-05	
99	1.099323e-07	3.506046e+00	4.008125e-03	-8.81588e-05	
100	1.100323e-07	3.536570e+00	3.988378e-03	-8.77245e-05	
101	1.101323e-07	3.566954e+00	3.968501e-03	-8.72874e-05	
102	1.102323e-07	3.597197e+00	3.948494e-03	-8.68474e-05	
103	1.103323e-07	3.627299e+00	3.928357e-03	-8.64045e-05	
104	1.104323e-07	3.657257e+00	3.908092e-03	-8.59589e-05	
105	1.105323e-07	3.687070e+00	3.887700e-03	-8.55104e-05	
106	1.106323e-07	3.716739e+00	3.867180e-03	-8.50591e-05	
107	1.107323e-07	3.746260e+00	3.846533e-03	-8.46050e-05	
108	1.108323e-07	3.775634e+00	3.825761e-03	-8.41482e-05	
109	1.109323e-07	3.804858e+00	3.804864e-03	-8.36886e-05	
110	1.110323e-07	3.833932e+00	3.783843e-03	-8.32263e-05	
111	1.111323e-07	3.862855e+00	3.762697e-03	-8.27613e-05	
112	1.112323e-07	3.891626e+00	3.741429e-03	-8.22935e-05	

Index   time            v(1)            v(6)            i(vd)           
--------------------------------------------------------------------------------
113	1.113323e-07	3.920242e+00	3.720039e-03	-8.18231e-05	
114	1.114323e-07	3.948704e+00	3.698527e-03	-8.13500e-05	
115	1.115323e-07	3.977010e+00	3.676895e-03	-8.08742e-05	
116	1.116323e-07	4.005160e+00	3.655142e-03	-8.03958e-05	
117	1.117323e-07	4.033151e+00	3.633270e-03	-7.99148e-05	
118	1.118323e-07	4.060982e+00	3.611280e-03	-7.94311e-05	
119	1.119323e-07	4.088654e+00	3.589172e-03	-7.89449e-05	
120	1.120323e-07	4.116164e+00	3.566946e-03	-7.84561e-05	
121	1.121323e-07	4.143511e+00	3.544605e-03	-7.79647e-05	
122	1.122323e-07	4.170695e+00	3.522147e-03	-7.74708e-05	
123	1.123323e-07	4.197715e+00	3.499575e-03	-7.69743e-05	
124	1.124323e-07	4.224568e+00	3.476889e-03	-7.64754e-05	
125	1.125323e-07	4.251255e+00	3.454089e-03	-7.59739e-05	
126	1.126323e-07	4.277774e+00	3.431177e-03	-7.54700e-05	
127	1.127323e-07	4.304124e+00	3.408153e-03	-7.49636e-05	
128	1.128323e-07	4.330304e+00	3.385018e-03	-7.44547e-05	
129	1.129323e-07	4.356313e+00	3.361773e-03	-7.39435e-05	
130	1.130323e-07	4.382151e+00	3.338418e-03	-7.34298e-05	
131	1.131323e-07	4.407815e+00	3.314954e-03	-7.29137e-05	
132	1.132323e-07	4.433305e+00	3.291382e-03	-7.23953e-05	
133	1.133323e-07	4.458620e+00	3.267704e-03	-7.18745e-05	
134	1.134323e-07	4.483759e+00	3.243919e-03	-7.13513e-05	
135	1.135323e-07	4.508722e+00	3.220028e-03	-7.08259e-05	
136	1.136323e-07	4.533506e+00	3.196032e-03	-7.02981e-05	
137	1.137323e-07	4.558111e+00	3.171933e-03	-6.97680e-05	
138	1.138323e-07	4.582536e+00	3.147730e-03	-6.92357e-05	
139	1.139323e-07	4.606781e+00	3.123425e-03	-6.87011e-05	
140	1.140323e-07	4.630843e+00	3.099018e-03	-6.81643e-05	
141	1.141323e-07	4.654723e+00	3.074511e-03	-6.76253e-05	
142	1.142323e-07	4.678419e+00	3.049903e-03	-6.70840e-05	
143	1.143323e-07	4.701930e+00	3.025196e-03	-6.65406e-05	
144	1.144323e-07	4.725256e+00	3.000391e-03	-6.59950e-05	
145	1.145323e-07	4.748395e+00	2.975489e-03	-6.54473e-05	
146	1.146323e-07	4.771346e+00	2.950489e-03	-6.48974e-05	
147	1.147323e-07	4.794109e+00	2.925394e-03	-6.43454e-05	
148	1.148323e-07	4.816683e+00	2.900204e-03	-6.37913e-05	
149	1.149323e-07	4.839067e+00	2.874919e-03	-6.32352e-05	
150	1.150323e-07	4.861260e+00	2.849541e-03	-6.26770e-05	
151	1.151323e-07	4.883261e+00	2.824071e-03	-6.21168e-05	
152	1.152323e-07	4.905069e+00	2.798509e-03	-6.15545e-05	
153	1.153323e-07	4.926683e+00	2.772856e-03	-6.09903e-05	
154	1.154323e-07	4.948103e+00	2.747112e-03	-6.04240e-05	
155	1.155323e-07	4.969328e+00	2.721280e-03	-5.98558e-05	
156	1.156323e-07	4.990356e+00	2.695359e-03	-5.92857e-05	
157	1.157323e-07	5.011187e+00	2.669351e-03	-5.87136e-05	
158	1.158323e-07	5.031821e+00	2.643256e-03	-5.81396e-05	
159	1.159323e-07	5.052256e+00	2.617076e-03	-5.75637e-05	
160	1.160323e-07	5.072491e+00	2.590810e-03	-5.69860e-05	
161	1.161323e-07	5.092527e+00	2.564460e-03	-5.64064e-05	
162	1.162323e-07	5.112361e+00	2.538028e-03	-5.58250e-05	
163	1.163323e-07	5.131993e+00	2.511513e-03	-5.52418e-05	
164	1.164323e-07	5.151423e+00	2.484916e-03	-5.46567e-05	
165	1.165323e-07	5.170649e+00	2.458239e-03	-5.40699e-05	
166	1.166323e-07	5.189671e+00	2.431482e-03	-5.34814e-05	
167	1.167323e-07	5.208489e+00	2.404646e-03	-5.28911e-05	
168	1.168323e-07	5.227100e+00	2.377732e-03	-5.22991e-05	
169	1.169323e-07	5.245506e+00	2.350741e-03	-5.17054e-05	
170	1.170323e-07	5.263704e+00	2.323674e-03	-5.11100e-05	

Index   time            v(1)            v(6)            i(vd)           
--------------------------------------------------------------------------------
171	1.171323e-07	5.281695e+00	2.296532e-03	-5.05130e-05	
172	1.172323e-07	5.299477e+00	2.269315e-03	-4.99143e-05	
173	1.173323e-07	5.317049e+00	2.242025e-03	-4.93140e-05	
174	1.174323e-07	5.334412e+00	2.214661e-03	-4.87121e-05	
175	1.175323e-07	5.351564e+00	2.187227e-03	-4.81086e-05	
176	1.176323e-07	5.368505e+00	2.159721e-03	-4.75036e-05	
177	1.177323e-07	5.385234e+00	2.132145e-03	-4.68970e-05	
178	1.178323e-07	5.401751e+00	2.104501e-03	-4.62889e-05	
179	1.179323e-07	5.418054e+00	2.076788e-03	-4.56793e-05	
180	1.180323e-07	5.434143e+00	2.049008e-03	-4.50682e-05	
181	1.181323e-07	5.450018e+00	2.021161e-03	-4.44557e-05	
182	1.182323e-07	5.465678e+00	1.993249e-03	-4.38417e-05	
183	1.183323e-07	5.481122e+00	1.965273e-03	-4.32263e-05	
184	1.184323e-07	5.496349e+00	1.937233e-03	-4.26095e-05	
185	1.185323e-07	5.511360e+00	1.909130e-03	-4.19913e-05	
186	1.186323e-07	5.526152e+00	1.880965e-03	-4.13717e-05	
187	1.187323e-07	5.540727e+00	1.852740e-03	-4.07509e-05	
188	1.188323e-07	5.555083e+00	1.824454e-03	-4.01287e-05	
189	1.189323e-07	5.569220e+00	1.796110e-03	-3.95052e-05	
190	1.190323e-07	5.583137e+00	1.767707e-03	-3.88804e-05	
191	1.191323e-07	5.596833e+00	1.739248e-03	-3.82543e-05	
192	1.192323e-07	5.610308e+00	1.710731e-03	-3.76270e-05	
193	1.193323e-07	5.623562e+00	1.682160e-03	-3.69985e-05	
194	1.194323e-07	5.636594e+00	1.653534e-03	-3.63688e-05	
195	1.195323e-07	5.649404e+00	1.624855e-03	-3.57379e-05	
196	1.196323e-07	5.661990e+00	1.596123e-03	-3.51059e-05	
197	1.197323e-07	5.674353e+00	1.567340e-03	-3.44727e-05	
198	1.198323e-07	5.686492e+00	1.538505e-03	-3.38385e-05	
199	1.199323e-07	5.698406e+00	1.509622e-03	-3.32031e-05	
200	1.200323e-07	5.710096e+00	1.480689e-03	-3.25666e-05	
201	1.201323e-07	5.721560e+00	1.451708e-03	-3.19291e-05	
202	1.202323e-07	5.732798e+00	1.422681e-03	-3.12905e-05	
203	1.203323e-07	5.743810e+00	1.393607e-03	-3.06510e-05	
204	1.204323e-07	5.754595e+00	1.364489e-03	-3.00104e-05	
205	1.205323e-07	5.765152e+00	1.335326e-03	-2.93689e-05	
206	1.206323e-07	5.775483e+00	1.306120e-03	-2.87264e-05	
207	1.207323e-07	5.785585e+00	1.276872e-03	-2.80830e-05	
208	1.208323e-07	5.795459e+00	1.247583e-03	-2.74387e-05	
209	1.209323e-07	5.805104e+00	1.218254e-03	-2.67935e-05	
210	1.210323e-07	5.814520e+00	1.188885e-03	-2.61475e-05	
211	1.211323e-07	5.823706e+00	1.159477e-03	-2.55005e-05	
212	1.212323e-07	5.832662e+00	1.130033e-03	-2.48528e-05	
213	1.213323e-07	5.841389e+00	1.100552e-03	-2.42043e-05	
214	1.214323e-07	5.849884e+00	1.071035e-03	-2.35549e-05	
215	1.215323e-07	5.858149e+00	1.041484e-03	-2.29048e-05	
216	1.216323e-07	5.866182e+00	1.011899e-03	-2.22540e-05	
217	1.217323e-07	5.873984e+00	9.822809e-04	-2.16025e-05	
218	1.218323e-07	5.881554e+00	9.526317e-04	-2.09502e-05	
219	1.219323e-07	5.888891e+00	9.229516e-04	-2.02973e-05	
220	1.220323e-07	5.895996e+00	8.932417e-04	-1.96437e-05	
221	1.221323e-07	5.902869e+00	8.635031e-04	-1.89895e-05	
222	1.222323e-07	5.909508e+00	8.337367e-04	-1.83347e-05	
223	1.223323e-07	5.915914e+00	8.039433e-04	-1.76793e-05	
224	1.224323e-07	5.922087e+00	7.741240e-04	-1.70233e-05	
225	1.225323e-07	5.928025e+00	7.442797e-04	-1.63667e-05	
226	1.226323e-07	5.933730e+00	7.144114e-04	-1.57096e-05	
227	1.227323e-07	5.939201e+00	6.845202e-04	-1.50521e-05	
228	1.228323e-07	5.944437e+00	6.546069e-04	-1.43940e-05	

Index   time            v(1)            v(6)            i(vd)           
--------------------------------------------------------------------------------
229	1.229323e-07	5.949438e+00	6.246724e-04	-1.37355e-05	
230	1.230323e-07	5.954204e+00	5.947178e-04	-1.30765e-05	
231	1.231323e-07	5.958736e+00	5.647441e-04	-1.24171e-05	
232	1.232323e-07	5.963032e+00	5.347522e-04	-1.17573e-05	
233	1.233323e-07	5.967093e+00	5.047432e-04	-1.10971e-05	
234	1.234323e-07	5.970918e+00	4.747179e-04	-1.04366e-05	
235	1.235323e-07	5.974507e+00	4.446772e-04	-9.77570e-06	
236	1.236323e-07	5.977861e+00	4.146224e-04	-9.11451e-06	
237	1.237323e-07	5.980978e+00	3.845542e-04	-8.45303e-06	
238	1.238323e-07	5.983860e+00	3.544736e-04	-7.79127e-06	
239	1.239323e-07	5.986505e+00	3.243817e-04	-7.12926e-06	
240	1.240323e-07	5.988914e+00	2.942794e-04	-6.46702e-06	
241	1.241323e-07	5.991086e+00	2.641676e-04	-5.80458e-06	
242	1.242323e-07	5.993022e+00	2.340474e-04	-5.14194e-06	
243	1.243323e-07	5.994721e+00	2.039198e-04	-4.47914e-06	
244	1.244323e-07	5.996184e+00	1.737855e-04	-3.81620e-06	
245	1.245323e-07	5.997410e+00	1.436458e-04	-3.15313e-06	
246	1.246323e-07	5.998399e+00	1.135015e-04	-2.48996e-06	
247	1.247323e-07	5.999152e+00	8.335365e-05	-1.82671e-06	
248	1.248323e-07	5.999667e+00	5.320325e-05	-1.16340e-06	
249	1.249323e-07	5.999946e+00	2.305112e-05	-5.00061e-07	
250	1.250323e-07	5.999988e+00	-7.10158e-06	1.633002e-07	
251	1.251323e-07	5.999793e+00	-3.72540e-05	8.266533e-07	
252	1.252323e-07	5.999361e+00	-6.74051e-05	1.489981e-06	
253	1.253323e-07	5.998692e+00	-9.75540e-05	2.153258e-06	
254	1.254323e-07	5.997786e+00	-1.27700e-04	2.816466e-06	
255	1.255323e-07	5.996644e+00	-1.57841e-04	3.479582e-06	
256	1.256323e-07	5.995265e+00	-1.87977e-04	4.142585e-06	
257	1.257323e-07	5.993649e+00	-2.18107e-04	4.805452e-06	
258	1.258323e-07	5.991797e+00	-2.48230e-04	5.468166e-06	
259	1.259323e-07	5.989708e+00	-2.78345e-04	6.130699e-06	
260	1.260323e-07	5.987382e+00	-3.08450e-04	6.793035e-06	
261	1.261323e-07	5.984821e+00	-3.38546e-04	7.455151e-06	
262	1.262323e-07	5.982022e+00	-3.68630e-04	8.117024e-06	
263	1.263323e-07	5.978988e+00	-3.98703e-04	8.778634e-06	
264	1.264323e-07	5.975718e+00	-4.28762e-04	9.439959e-06	
265	1.265323e-07	5.972212e+00	-4.58808e-04	1.010098e-05	
266	1.266323e-07	5.968470e+00	-4.88839e-04	1.076167e-05	
267	1.267323e-07	5.964492e+00	-5.18853e-04	1.142201e-05	
268	1.268323e-07	5.960279e+00	-5.48851e-04	1.208199e-05	
269	1.269323e-07	5.955831e+00	-5.78831e-04	1.274157e-05	
270	1.270323e-07	5.951148e+00	-6.08792e-04	1.340074e-05	
271	1.271323e-07	5.946229e+00	-6.38734e-04	1.405947e-05	
272	1.272323e-07	5.941076e+00	-6.68654e-04	1.471775e-05	
273	1.273323e-07	5.935688e+00	-6.98553e-04	1.537556e-05	
274	1.274323e-07	5.930066e+00	-7.28429e-04	1.603286e-05	
275	1.275323e-07	5.924210e+00	-7.58282e-04	1.668964e-05	
276	1.276323e-07	5.918120e+00	-7.88110e-04	1.734589e-05	
277	1.277323e-07	5.911796e+00	-8.17912e-04	1.800157e-05	
278	1.278323e-07	5.905239e+00	-8.47687e-04	1.865667e-05	
279	1.279323e-07	5.898449e+00	-8.77436e-04	1.931116e-05	
280	1.280323e-07	5.891426e+00	-9.07155e-04	1.996503e-05	
281	1.281323e-07	5.884171e+00	-9.36846e-04	2.061825e-05	
282	1.282323e-07	5.876683e+00	-9.66505e-04	2.127081e-05	
283	1.283323e-07	5.868963e+00	-9.96134e-04	2.192267e-05	
284	1.284323e-07	5.861011e+00	-1.02573e-03	2.257383e-05	
285	1.285323e-07	5.852828e+00	-1.05529e-03	2.322425e-05	
286	1.286323e-07	5.844414e+00	-1.08482e-03	2.387392e-05	

Index   time            v(1)            v(6)            i(vd)           
--------------------------------------------------------------------------------
287	1.287323e-07	5.835769e+00	-1.11431e-03	2.452282e-05	
288	1.288323e-07	5.826894e+00	-1.14377e-03	2.517093e-05	
289	1.289323e-07	5.817789e+00	-1.17319e-03	2.581821e-05	
290	1.290323e-07	5.808454e+00	-1.20257e-03	2.646466e-05	
291	1.291323e-07	5.798890e+00	-1.23192e-03	2.711026e-05	
292	1.292323e-07	5.789097e+00	-1.26122e-03	2.775497e-05	
293	1.293323e-07	5.779075e+00	-1.29048e-03	2.839879e-05	
294	1.294323e-07	5.768826e+00	-1.31970e-03	2.904169e-05	
295	1.295323e-07	5.758348e+00	-1.34888e-03	2.968364e-05	
296	1.296323e-07	5.747643e+00	-1.37801e-03	3.032464e-05	
297	1.297323e-07	5.736711e+00	-1.40710e-03	3.096465e-05	
298	1.298323e-07	5.725553e+00	-1.43615e-03	3.160365e-05	
299	1.299323e-07	5.714169e+00	-1.46514e-03	3.224164e-05	
300	1.300323e-07	5.702559e+00	-1.49409e-03	3.287858e-05	
301	1.301323e-07	5.690724e+00	-1.52299e-03	3.351445e-05	
302	1.302323e-07	5.678664e+00	-1.55184e-03	3.414924e-05	
303	1.303323e-07	5.666380e+00	-1.58064e-03	3.478292e-05	
304	1.304323e-07	5.653873e+00	-1.60939e-03	3.541547e-05	
305	1.305323e-07	5.641142e+00	-1.63809e-03	3.604687e-05	
306	1.306323e-07	5.628189e+00	-1.66673e-03	3.667711e-05	
307	1.307323e-07	5.615013e+00	-1.69532e-03	3.730616e-05	
308	1.308323e-07	5.601616e+00	-1.72386e-03	3.793400e-05	
309	1.309323e-07	5.587997e+00	-1.75234e-03	3.856060e-05	
310	1.310323e-07	5.574158e+00	-1.78076e-03	3.918596e-05	
311	1.311323e-07	5.560099e+00	-1.80912e-03	3.981005e-05	
312	1.312323e-07	5.545820e+00	-1.83743e-03	4.043285e-05	
313	1.313323e-07	5.531323e+00	-1.86568e-03	4.105433e-05	
314	1.314323e-07	5.516607e+00	-1.89386e-03	4.167448e-05	
315	1.315323e-07	5.501673e+00	-1.92199e-03	4.229329e-05	
316	1.316323e-07	5.486522e+00	-1.95005e-03	4.291072e-05	
317	1.317323e-07	5.471155e+00	-1.97805e-03	4.352676e-05	
318	1.318323e-07	5.455571e+00	-2.00598e-03	4.414138e-05	
319	1.319323e-07	5.439772e+00	-2.03385e-03	4.475458e-05	
320	1.320323e-07	5.423759e+00	-2.06165e-03	4.536632e-05	
321	1.321323e-07	5.407531e+00	-2.08939e-03	4.597659e-05	
322	1.322323e-07	5.391090e+00	-2.11705e-03	4.658538e-05	
323	1.323323e-07	5.374436e+00	-2.14465e-03	4.719264e-05	
324	1.324323e-07	5.357570e+00	-2.17218e-03	4.779838e-05	
325	1.325323e-07	5.340492e+00	-2.19964e-03	4.840257e-05	
326	1.326323e-07	5.323203e+00	-2.22703e-03	4.900518e-05	
327	1.327323e-07	5.305704e+00	-2.25435e-03	4.960621e-05	
328	1.328323e-07	5.287996e+00	-2.28159e-03	5.020562e-05	
329	1.329323e-07	5.270079e+00	-2.30876e-03	5.080341e-05	
330	1.330323e-07	5.251954e+00	-2.33585e-03	5.139954e-05	
331	1.331323e-07	5.233622e+00	-2.36287e-03	5.199401e-05	
