            * rf switch using rn142 junction diodes with vbias = 5v
            Transient Analysis  Mon Aug 29 13:12:53  2022
--------------------------------------------------------------------------------
Index   time            v(1)            v(6)            i(vd)           
--------------------------------------------------------------------------------
0	1.000688e-07	2.593635e-02	1.250662e-01	1.511701e-03	
1	1.001688e-07	6.363435e-02	1.626164e-01	6.855920e-04	
2	1.002688e-07	1.013298e-01	2.001615e-01	-1.40407e-04	
3	1.003688e-07	1.390213e-01	2.377000e-01	-9.66264e-04	
4	1.004688e-07	1.767073e-01	2.752306e-01	-1.79195e-03	
5	1.005688e-07	2.143863e-01	3.127516e-01	-2.61742e-03	
6	1.006688e-07	2.520569e-01	3.502616e-01	-3.44266e-03	
7	1.007688e-07	2.897175e-01	3.877592e-01	-4.26762e-03	
8	1.008688e-07	3.273667e-01	4.252429e-01	-5.09227e-03	
9	1.009688e-07	3.650029e-01	4.627111e-01	-5.91659e-03	
10	1.010688e-07	4.026248e-01	5.001624e-01	-6.74054e-03	
11	1.011688e-07	4.402307e-01	5.375953e-01	-7.56409e-03	
12	1.012688e-07	4.778193e-01	5.750084e-01	-8.38719e-03	
13	1.013688e-07	5.153890e-01	6.124001e-01	-9.20984e-03	
14	1.014688e-07	5.529383e-01	6.497690e-01	-1.00320e-02	
15	1.015688e-07	5.904658e-01	6.871135e-01	-1.08536e-02	
16	1.016688e-07	6.279701e-01	7.244323e-01	-1.16746e-02	
17	1.017688e-07	6.654495e-01	7.617239e-01	-1.24951e-02	
18	1.018688e-07	7.029026e-01	7.989867e-01	-1.33149e-02	
19	1.019688e-07	7.403280e-01	8.362193e-01	-1.41340e-02	
20	1.020688e-07	7.777242e-01	8.734203e-01	-1.49525e-02	
21	1.021688e-07	8.150897e-01	9.105881e-01	-1.57702e-02	
22	1.022688e-07	8.524230e-01	9.477213e-01	-1.65872e-02	
23	1.023688e-07	8.897226e-01	9.848185e-01	-1.74034e-02	
24	1.024688e-07	9.269871e-01	1.021878e+00	-1.82187e-02	
25	1.025688e-07	9.642150e-01	1.058899e+00	-1.90332e-02	
26	1.026688e-07	1.001405e+00	1.095879e+00	-1.98468e-02	
27	1.027688e-07	1.038555e+00	1.132817e+00	-2.06595e-02	
28	1.028688e-07	1.075665e+00	1.169712e+00	-2.14712e-02	
29	1.029688e-07	1.112731e+00	1.206562e+00	-2.22820e-02	
30	1.030688e-07	1.149754e+00	1.243365e+00	-2.30917e-02	
31	1.031688e-07	1.186732e+00	1.280121e+00	-2.39004e-02	
32	1.032688e-07	1.223663e+00	1.316828e+00	-2.47080e-02	
33	1.033688e-07	1.260545e+00	1.353484e+00	-2.55145e-02	
34	1.034688e-07	1.297378e+00	1.390087e+00	-2.63198e-02	
35	1.035688e-07	1.334159e+00	1.426638e+00	-2.71240e-02	
36	1.036688e-07	1.370888e+00	1.463133e+00	-2.79269e-02	
37	1.037688e-07	1.407562e+00	1.499572e+00	-2.87286e-02	
38	1.038688e-07	1.444181e+00	1.535953e+00	-2.95291e-02	
39	1.039688e-07	1.480743e+00	1.572274e+00	-3.03282e-02	
40	1.040688e-07	1.517247e+00	1.608535e+00	-3.11260e-02	
41	1.041688e-07	1.553691e+00	1.644733e+00	-3.19224e-02	
42	1.042688e-07	1.590073e+00	1.680868e+00	-3.27175e-02	
43	1.043688e-07	1.626392e+00	1.716938e+00	-3.35111e-02	
44	1.044688e-07	1.662648e+00	1.752941e+00	-3.43032e-02	
45	1.045688e-07	1.698838e+00	1.788877e+00	-3.50939e-02	
46	1.046688e-07	1.734960e+00	1.824743e+00	-3.58830e-02	
47	1.047688e-07	1.771014e+00	1.860538e+00	-3.66706e-02	
48	1.048688e-07	1.806999e+00	1.896261e+00	-3.74565e-02	
49	1.049688e-07	1.842911e+00	1.931911e+00	-3.82409e-02	
50	1.050688e-07	1.878752e+00	1.967485e+00	-3.90236e-02	
51	1.051688e-07	1.914518e+00	2.002983e+00	-3.98047e-02	
52	1.052688e-07	1.950208e+00	2.038404e+00	-4.05840e-02	
53	1.053688e-07	1.985821e+00	2.073745e+00	-4.13616e-02	
54	1.054688e-07	2.021356e+00	2.109005e+00	-4.21374e-02	

Index   time            v(1)            v(6)            i(vd)           
--------------------------------------------------------------------------------
55	1.055688e-07	2.056812e+00	2.144184e+00	-4.29114e-02	
56	1.056688e-07	2.092186e+00	2.179279e+00	-4.36836e-02	
57	1.057688e-07	2.127477e+00	2.214289e+00	-4.44539e-02	
58	1.058688e-07	2.162684e+00	2.249213e+00	-4.52223e-02	
59	1.059688e-07	2.197806e+00	2.284049e+00	-4.59888e-02	
60	1.060688e-07	2.232842e+00	2.318797e+00	-4.67533e-02	
61	1.061688e-07	2.267789e+00	2.353454e+00	-4.75159e-02	
62	1.062688e-07	2.302646e+00	2.388019e+00	-4.82764e-02	
63	1.063688e-07	2.337413e+00	2.422492e+00	-4.90349e-02	
64	1.064688e-07	2.372088e+00	2.456870e+00	-4.97913e-02	
65	1.065688e-07	2.406668e+00	2.491152e+00	-5.05456e-02	
66	1.066688e-07	2.441154e+00	2.525337e+00	-5.12978e-02	
67	1.067688e-07	2.475543e+00	2.559424e+00	-5.20478e-02	
68	1.068688e-07	2.509835e+00	2.593410e+00	-5.27956e-02	
69	1.069688e-07	2.544028e+00	2.627296e+00	-5.35412e-02	
70	1.070688e-07	2.578120e+00	2.661079e+00	-5.42845e-02	
71	1.071688e-07	2.612110e+00	2.694758e+00	-5.50256e-02	
72	1.072688e-07	2.645997e+00	2.728331e+00	-5.57643e-02	
73	1.073688e-07	2.679780e+00	2.761799e+00	-5.65007e-02	
74	1.074688e-07	2.713457e+00	2.795158e+00	-5.72347e-02	
75	1.075688e-07	2.747027e+00	2.828408e+00	-5.79663e-02	
76	1.076688e-07	2.780488e+00	2.861548e+00	-5.86955e-02	
77	1.077688e-07	2.813840e+00	2.894576e+00	-5.94223e-02	
78	1.078688e-07	2.847081e+00	2.927491e+00	-6.01465e-02	
79	1.079688e-07	2.880209e+00	2.960291e+00	-6.08682e-02	
80	1.080688e-07	2.913223e+00	2.992975e+00	-6.15874e-02	
81	1.081688e-07	2.946123e+00	3.025543e+00	-6.23040e-02	
82	1.082688e-07	2.978906e+00	3.057992e+00	-6.30180e-02	
83	1.083688e-07	3.011571e+00	3.090322e+00	-6.37294e-02	
84	1.084688e-07	3.044118e+00	3.122530e+00	-6.44381e-02	
85	1.085688e-07	3.076544e+00	3.154617e+00	-6.51441e-02	
86	1.086688e-07	3.108849e+00	3.186580e+00	-6.58474e-02	
87	1.087688e-07	3.141032e+00	3.218418e+00	-6.65480e-02	
88	1.088688e-07	3.173090e+00	3.250131e+00	-6.72458e-02	
89	1.089688e-07	3.205023e+00	3.281716e+00	-6.79408e-02	
90	1.090688e-07	3.236830e+00	3.313172e+00	-6.86330e-02	
91	1.091688e-07	3.268508e+00	3.344499e+00	-6.93223e-02	
92	1.092688e-07	3.300058e+00	3.375695e+00	-7.00088e-02	
93	1.093688e-07	3.331477e+00	3.406759e+00	-7.06923e-02	
94	1.094688e-07	3.362765e+00	3.437689e+00	-7.13729e-02	
95	1.095688e-07	3.393920e+00	3.468485e+00	-7.20505e-02	
96	1.096688e-07	3.424941e+00	3.499144e+00	-7.27252e-02	
97	1.097688e-07	3.455827e+00	3.529667e+00	-7.33968e-02	
98	1.098688e-07	3.486577e+00	3.560051e+00	-7.40654e-02	
99	1.099688e-07	3.517189e+00	3.590296e+00	-7.47309e-02	
100	1.100688e-07	3.547662e+00	3.620399e+00	-7.53934e-02	
101	1.101688e-07	3.577994e+00	3.650361e+00	-7.60527e-02	
102	1.102688e-07	3.608186e+00	3.680180e+00	-7.67088e-02	
103	1.103688e-07	3.638235e+00	3.709855e+00	-7.73618e-02	
104	1.104688e-07	3.668141e+00	3.739384e+00	-7.80116e-02	
105	1.105688e-07	3.697902e+00	3.768766e+00	-7.86582e-02	
106	1.106688e-07	3.727516e+00	3.798001e+00	-7.93015e-02	
107	1.107688e-07	3.756984e+00	3.827087e+00	-7.99415e-02	
108	1.108688e-07	3.786303e+00	3.856022e+00	-8.05783e-02	
109	1.109688e-07	3.815473e+00	3.884806e+00	-8.12117e-02	
110	1.110688e-07	3.844493e+00	3.913438e+00	-8.18417e-02	
111	1.111688e-07	3.873360e+00	3.941916e+00	-8.24684e-02	
112	1.112688e-07	3.902074e+00	3.970240e+00	-8.30917e-02	

Index   time            v(1)            v(6)            i(vd)           
--------------------------------------------------------------------------------
113	1.113688e-07	3.930635e+00	3.998407e+00	-8.37115e-02	
114	1.114688e-07	3.959040e+00	4.026418e+00	-8.43279e-02	
115	1.115688e-07	3.987289e+00	4.054270e+00	-8.49408e-02	
116	1.116688e-07	4.015381e+00	4.081964e+00	-8.55503e-02	
117	1.117688e-07	4.043314e+00	4.109497e+00	-8.61561e-02	
118	1.118688e-07	4.071087e+00	4.136869e+00	-8.67585e-02	
119	1.119688e-07	4.098700e+00	4.164078e+00	-8.73573e-02	
120	1.120688e-07	4.126151e+00	4.191124e+00	-8.79524e-02	
121	1.121688e-07	4.153439e+00	4.218005e+00	-8.85440e-02	
122	1.122688e-07	4.180563e+00	4.244720e+00	-8.91319e-02	
123	1.123688e-07	4.207522e+00	4.271269e+00	-8.97161e-02	
124	1.124688e-07	4.234315e+00	4.297650e+00	-9.02967e-02	
125	1.125688e-07	4.260941e+00	4.323862e+00	-9.08735e-02	
126	1.126688e-07	4.287398e+00	4.349904e+00	-9.14466e-02	
127	1.127688e-07	4.313687e+00	4.375775e+00	-9.20160e-02	
128	1.128688e-07	4.339805e+00	4.401475e+00	-9.25815e-02	
129	1.129688e-07	4.365751e+00	4.427001e+00	-9.31433e-02	
130	1.130688e-07	4.391526e+00	4.452353e+00	-9.37012e-02	
131	1.131688e-07	4.417126e+00	4.477530e+00	-9.42553e-02	
132	1.132688e-07	4.442553e+00	4.502531e+00	-9.48055e-02	
133	1.133688e-07	4.467804e+00	4.527356e+00	-9.53518e-02	
134	1.134688e-07	4.492879e+00	4.552002e+00	-9.58942e-02	
135	1.135688e-07	4.517776e+00	4.576469e+00	-9.64327e-02	
136	1.136688e-07	4.542495e+00	4.600756e+00	-9.69672e-02	
137	1.137688e-07	4.567035e+00	4.624862e+00	-9.74977e-02	
138	1.138688e-07	4.591395e+00	4.648787e+00	-9.80242e-02	
139	1.139688e-07	4.615573e+00	4.672528e+00	-9.85467e-02	
140	1.140688e-07	4.639569e+00	4.696086e+00	-9.90652e-02	
141	1.141688e-07	4.663382e+00	4.719459e+00	-9.95796e-02	
142	1.142688e-07	4.687010e+00	4.742646e+00	-1.00090e-01	
143	1.143688e-07	4.710454e+00	4.765647e+00	-1.00596e-01	
144	1.144688e-07	4.733712e+00	4.788460e+00	-1.01098e-01	
145	1.145688e-07	4.756782e+00	4.811084e+00	-1.01596e-01	
146	1.146688e-07	4.779665e+00	4.833520e+00	-1.02090e-01	
147	1.147688e-07	4.802360e+00	4.855765e+00	-1.02579e-01	
148	1.148688e-07	4.824864e+00	4.877819e+00	-1.03065e-01	
149	1.149688e-07	4.847179e+00	4.899681e+00	-1.03546e-01	
150	1.150688e-07	4.869302e+00	4.921350e+00	-1.04023e-01	
151	1.151688e-07	4.891232e+00	4.942825e+00	-1.04496e-01	
152	1.152688e-07	4.912970e+00	4.964106e+00	-1.04964e-01	
153	1.153688e-07	4.934513e+00	4.985191e+00	-1.05428e-01	
154	1.154688e-07	4.955862e+00	5.006080e+00	-1.05888e-01	
155	1.155688e-07	4.977015e+00	5.026772e+00	-1.06343e-01	
156	1.156688e-07	4.997972e+00	5.047266e+00	-1.06794e-01	
157	1.157688e-07	5.018732e+00	5.067561e+00	-1.07241e-01	
158	1.158688e-07	5.039293e+00	5.087657e+00	-1.07683e-01	
159	1.159688e-07	5.059655e+00	5.107552e+00	-1.08121e-01	
160	1.160688e-07	5.079818e+00	5.127246e+00	-1.08555e-01	
161	1.161688e-07	5.099780e+00	5.146738e+00	-1.08984e-01	
162	1.162688e-07	5.119540e+00	5.166027e+00	-1.09408e-01	
163	1.163688e-07	5.139099e+00	5.185112e+00	-1.09828e-01	
164	1.164688e-07	5.158455e+00	5.203994e+00	-1.10244e-01	
165	1.165688e-07	5.177607e+00	5.222670e+00	-1.10655e-01	
166	1.166688e-07	5.196554e+00	5.241140e+00	-1.11062e-01	
167	1.167688e-07	5.215297e+00	5.259404e+00	-1.11464e-01	
168	1.168688e-07	5.233833e+00	5.277461e+00	-1.11861e-01	
169	1.169688e-07	5.252163e+00	5.295309e+00	-1.12254e-01	
170	1.170688e-07	5.270286e+00	5.312949e+00	-1.12642e-01	

Index   time            v(1)            v(6)            i(vd)           
--------------------------------------------------------------------------------
171	1.171688e-07	5.288200e+00	5.330379e+00	-1.13026e-01	
172	1.172688e-07	5.305906e+00	5.347599e+00	-1.13405e-01	
173	1.173688e-07	5.323403e+00	5.364608e+00	-1.13779e-01	
174	1.174688e-07	5.340689e+00	5.381406e+00	-1.14149e-01	
175	1.175688e-07	5.357764e+00	5.397992e+00	-1.14514e-01	
176	1.176688e-07	5.374628e+00	5.414364e+00	-1.14875e-01	
177	1.177688e-07	5.391279e+00	5.430523e+00	-1.15230e-01	
178	1.178688e-07	5.407718e+00	5.446468e+00	-1.15581e-01	
179	1.179688e-07	5.423944e+00	5.462198e+00	-1.15928e-01	
180	1.180688e-07	5.439955e+00	5.477713e+00	-1.16269e-01	
181	1.181688e-07	5.455751e+00	5.493011e+00	-1.16606e-01	
182	1.182688e-07	5.471332e+00	5.508093e+00	-1.16938e-01	
183	1.183688e-07	5.486697e+00	5.522958e+00	-1.17265e-01	
184	1.184688e-07	5.501846e+00	5.537604e+00	-1.17588e-01	
185	1.185688e-07	5.516777e+00	5.552032e+00	-1.17905e-01	
186	1.186688e-07	5.531490e+00	5.566241e+00	-1.18218e-01	
187	1.187688e-07	5.545985e+00	5.580230e+00	-1.18526e-01	
188	1.188688e-07	5.560261e+00	5.593999e+00	-1.18829e-01	
189	1.189688e-07	5.574318e+00	5.607547e+00	-1.19127e-01	
190	1.190688e-07	5.588155e+00	5.620874e+00	-1.19421e-01	
191	1.191688e-07	5.601771e+00	5.633978e+00	-1.19709e-01	
192	1.192688e-07	5.615165e+00	5.646861e+00	-1.19993e-01	
193	1.193688e-07	5.628338e+00	5.659520e+00	-1.20272e-01	
194	1.194688e-07	5.641289e+00	5.671956e+00	-1.20546e-01	
195	1.195688e-07	5.654017e+00	5.684168e+00	-1.20814e-01	
196	1.196688e-07	5.666522e+00	5.696155e+00	-1.21078e-01	
197	1.197688e-07	5.678804e+00	5.707917e+00	-1.21337e-01	
198	1.198688e-07	5.690861e+00	5.719454e+00	-1.21591e-01	
199	1.199688e-07	5.702693e+00	5.730765e+00	-1.21841e-01	
200	1.200688e-07	5.714301e+00	5.741850e+00	-1.22085e-01	
201	1.201688e-07	5.725682e+00	5.752707e+00	-1.22324e-01	
202	1.202688e-07	5.736838e+00	5.763338e+00	-1.22558e-01	
203	1.203688e-07	5.747767e+00	5.773740e+00	-1.22787e-01	
204	1.204688e-07	5.758469e+00	5.783915e+00	-1.23011e-01	
205	1.205688e-07	5.768944e+00	5.793861e+00	-1.23230e-01	
206	1.206688e-07	5.779191e+00	5.803577e+00	-1.23444e-01	
207	1.207688e-07	5.789211e+00	5.813065e+00	-1.23653e-01	
208	1.208688e-07	5.799001e+00	5.822322e+00	-1.23857e-01	
209	1.209688e-07	5.808563e+00	5.831350e+00	-1.24056e-01	
210	1.210688e-07	5.817895e+00	5.840146e+00	-1.24249e-01	
211	1.211688e-07	5.826997e+00	5.848712e+00	-1.24438e-01	
212	1.212688e-07	5.835870e+00	5.857047e+00	-1.24622e-01	
213	1.213688e-07	5.844512e+00	5.865150e+00	-1.24800e-01	
214	1.214688e-07	5.852923e+00	5.873021e+00	-1.24974e-01	
215	1.215688e-07	5.861104e+00	5.880659e+00	-1.25142e-01	
216	1.216688e-07	5.869053e+00	5.888065e+00	-1.25305e-01	
217	1.217688e-07	5.876770e+00	5.895238e+00	-1.25463e-01	
218	1.218688e-07	5.884255e+00	5.902178e+00	-1.25616e-01	
219	1.219688e-07	5.891508e+00	5.908884e+00	-1.25764e-01	
220	1.220688e-07	5.898528e+00	5.915357e+00	-1.25906e-01	
221	1.221688e-07	5.905316e+00	5.921595e+00	-1.26044e-01	
222	1.222688e-07	5.911870e+00	5.927599e+00	-1.26176e-01	
223	1.223688e-07	5.918191e+00	5.933368e+00	-1.26303e-01	
224	1.224688e-07	5.924279e+00	5.938902e+00	-1.26425e-01	
225	1.225688e-07	5.930132e+00	5.944202e+00	-1.26542e-01	
226	1.226688e-07	5.935751e+00	5.949265e+00	-1.26654e-01	
227	1.227688e-07	5.941136e+00	5.954094e+00	-1.26760e-01	
228	1.228688e-07	5.946287e+00	5.958686e+00	-1.26862e-01	

Index   time            v(1)            v(6)            i(vd)           
--------------------------------------------------------------------------------
229	1.229688e-07	5.951203e+00	5.963042e+00	-1.26958e-01	
230	1.230688e-07	5.955883e+00	5.967163e+00	-1.27049e-01	
231	1.231688e-07	5.960329e+00	5.971046e+00	-1.27134e-01	
232	1.232688e-07	5.964539e+00	5.974693e+00	-1.27215e-01	
233	1.233688e-07	5.968514e+00	5.978104e+00	-1.27290e-01	
234	1.234688e-07	5.972253e+00	5.981277e+00	-1.27360e-01	
235	1.235688e-07	5.975757e+00	5.984214e+00	-1.27425e-01	
236	1.236688e-07	5.979024e+00	5.986913e+00	-1.27485e-01	
237	1.237688e-07	5.982056e+00	5.989375e+00	-1.27539e-01	
238	1.238688e-07	5.984851e+00	5.991599e+00	-1.27588e-01	
239	1.239688e-07	5.987410e+00	5.993586e+00	-1.27632e-01	
240	1.240688e-07	5.989733e+00	5.995335e+00	-1.27671e-01	
241	1.241688e-07	5.991819e+00	5.996847e+00	-1.27704e-01	
242	1.242688e-07	5.993669e+00	5.998120e+00	-1.27733e-01	
243	1.243688e-07	5.995282e+00	5.999156e+00	-1.27756e-01	
244	1.244688e-07	5.996658e+00	5.999953e+00	-1.27773e-01	
245	1.245688e-07	5.997798e+00	6.000513e+00	-1.27786e-01	
246	1.246688e-07	5.998701e+00	6.000834e+00	-1.27793e-01	
247	1.247688e-07	5.999367e+00	6.000917e+00	-1.27795e-01	
248	1.248688e-07	5.999796e+00	6.000762e+00	-1.27792e-01	
249	1.249688e-07	5.999988e+00	6.000369e+00	-1.27784e-01	
250	1.250688e-07	5.999944e+00	5.999738e+00	-1.27770e-01	
251	1.251688e-07	5.999663e+00	5.998868e+00	-1.27751e-01	
252	1.252688e-07	5.999144e+00	5.997760e+00	-1.27727e-01	
253	1.253688e-07	5.998389e+00	5.996414e+00	-1.27698e-01	
254	1.254688e-07	5.997397e+00	5.994829e+00	-1.27663e-01	
255	1.255688e-07	5.996169e+00	5.993007e+00	-1.27623e-01	
256	1.256688e-07	5.994703e+00	5.990946e+00	-1.27578e-01	
257	1.257688e-07	5.993001e+00	5.988647e+00	-1.27528e-01	
258	1.258688e-07	5.991063e+00	5.986110e+00	-1.27472e-01	
259	1.259688e-07	5.988887e+00	5.983335e+00	-1.27411e-01	
260	1.260688e-07	5.986476e+00	5.980323e+00	-1.27345e-01	
261	1.261688e-07	5.983828e+00	5.977072e+00	-1.27274e-01	
262	1.262688e-07	5.980944e+00	5.973584e+00	-1.27198e-01	
263	1.263688e-07	5.977824e+00	5.969858e+00	-1.27116e-01	
264	1.264688e-07	5.974467e+00	5.965894e+00	-1.27029e-01	
265	1.265688e-07	5.970875e+00	5.961693e+00	-1.26937e-01	
266	1.266688e-07	5.967047e+00	5.957255e+00	-1.26839e-01	
267	1.267688e-07	5.962984e+00	5.952580e+00	-1.26737e-01	
268	1.268688e-07	5.958685e+00	5.947668e+00	-1.26629e-01	
269	1.269688e-07	5.954151e+00	5.942518e+00	-1.26516e-01	
270	1.270688e-07	5.949382e+00	5.937133e+00	-1.26397e-01	
271	1.271688e-07	5.944378e+00	5.931510e+00	-1.26274e-01	
272	1.272688e-07	5.939139e+00	5.925652e+00	-1.26145e-01	
273	1.273688e-07	5.933666e+00	5.919557e+00	-1.26012e-01	
274	1.274688e-07	5.927959e+00	5.913227e+00	-1.25873e-01	
275	1.275688e-07	5.922017e+00	5.906660e+00	-1.25728e-01	
276	1.276688e-07	5.915842e+00	5.899858e+00	-1.25579e-01	
277	1.277688e-07	5.909433e+00	5.892821e+00	-1.25424e-01	
278	1.278688e-07	5.902791e+00	5.885549e+00	-1.25265e-01	
279	1.279688e-07	5.895916e+00	5.878042e+00	-1.25100e-01	
280	1.280688e-07	5.888808e+00	5.870300e+00	-1.24930e-01	
281	1.281688e-07	5.881468e+00	5.862325e+00	-1.24754e-01	
282	1.282688e-07	5.873896e+00	5.854115e+00	-1.24574e-01	
283	1.283688e-07	5.866091e+00	5.845671e+00	-1.24388e-01	
284	1.284688e-07	5.858055e+00	5.836994e+00	-1.24198e-01	
285	1.285688e-07	5.849788e+00	5.828084e+00	-1.24002e-01	
286	1.286688e-07	5.841290e+00	5.818940e+00	-1.23801e-01	

Index   time            v(1)            v(6)            i(vd)           
--------------------------------------------------------------------------------
287	1.287688e-07	5.832561e+00	5.809565e+00	-1.23595e-01	
288	1.288688e-07	5.823602e+00	5.799957e+00	-1.23384e-01	
289	1.289688e-07	5.814413e+00	5.790117e+00	-1.23168e-01	
290	1.290688e-07	5.804995e+00	5.780045e+00	-1.22946e-01	
291	1.291688e-07	5.795347e+00	5.769742e+00	-1.22720e-01	
292	1.292688e-07	5.785470e+00	5.759209e+00	-1.22488e-01	
293	1.293688e-07	5.775366e+00	5.748445e+00	-1.22252e-01	
294	1.294688e-07	5.765033e+00	5.737450e+00	-1.22010e-01	
295	1.295688e-07	5.754472e+00	5.726226e+00	-1.21763e-01	
296	1.296688e-07	5.743685e+00	5.714772e+00	-1.21512e-01	
297	1.297688e-07	5.732670e+00	5.703090e+00	-1.21255e-01	
298	1.298688e-07	5.721430e+00	5.691179e+00	-1.20993e-01	
299	1.299688e-07	5.709963e+00	5.679039e+00	-1.20726e-01	
300	1.300688e-07	5.698271e+00	5.666672e+00	-1.20454e-01	
301	1.301688e-07	5.686354e+00	5.654077e+00	-1.20177e-01	
302	1.302688e-07	5.674213e+00	5.641256e+00	-1.19896e-01	
303	1.303688e-07	5.661847e+00	5.628208e+00	-1.19609e-01	
304	1.304688e-07	5.649258e+00	5.614934e+00	-1.19317e-01	
305	1.305688e-07	5.636446e+00	5.601434e+00	-1.19020e-01	
306	1.306688e-07	5.623412e+00	5.587709e+00	-1.18719e-01	
307	1.307688e-07	5.610155e+00	5.573759e+00	-1.18412e-01	
308	1.308688e-07	5.596677e+00	5.559586e+00	-1.18100e-01	
309	1.309688e-07	5.582978e+00	5.545188e+00	-1.17784e-01	
310	1.310688e-07	5.569059e+00	5.530568e+00	-1.17462e-01	
311	1.311688e-07	5.554920e+00	5.515724e+00	-1.17136e-01	
312	1.312688e-07	5.540561e+00	5.500658e+00	-1.16805e-01	
313	1.313688e-07	5.525984e+00	5.485371e+00	-1.16469e-01	
314	1.314688e-07	5.511189e+00	5.469862e+00	-1.16128e-01	
315	1.315688e-07	5.496176e+00	5.454133e+00	-1.15782e-01	
316	1.316688e-07	5.480946e+00	5.438184e+00	-1.15431e-01	
317	1.317688e-07	5.465499e+00	5.422015e+00	-1.15076e-01	
318	1.318688e-07	5.449837e+00	5.405627e+00	-1.14715e-01	
319	1.319688e-07	5.433960e+00	5.389021e+00	-1.14350e-01	
320	1.320688e-07	5.417868e+00	5.372196e+00	-1.13980e-01	
321	1.321688e-07	5.401563e+00	5.355154e+00	-1.13606e-01	
322	1.322688e-07	5.385044e+00	5.337896e+00	-1.13226e-01	
323	1.323688e-07	5.368312e+00	5.320421e+00	-1.12842e-01	
324	1.324688e-07	5.351369e+00	5.302731e+00	-1.12453e-01	
325	1.325688e-07	5.334214e+00	5.284825e+00	-1.12059e-01	
326	1.326688e-07	5.316849e+00	5.266705e+00	-1.11661e-01	
327	1.327688e-07	5.299274e+00	5.248372e+00	-1.11258e-01	
328	1.328688e-07	5.281490e+00	5.229825e+00	-1.10850e-01	
329	1.329688e-07	5.263497e+00	5.211065e+00	-1.10437e-01	
330	1.330688e-07	5.245296e+00	5.192094e+00	-1.10020e-01	
331	1.331688e-07	5.226888e+00	5.172911e+00	-1.09598e-01	
